(1502935008.561313) vcan0 284#9E69B52A39419C45
(1502935008.571684) vcan0 284#9E73321FED67D573
(1502935008.581998) vcan0 284#72458E15B2B16C25
(1502935008.592309) vcan0 284#1312172B63A3FA32
(1502935008.602576) vcan0 284#F0CDAC1DD5CEE14F
(1502935008.612795) vcan0 284#7BFB740748E70D5B
(1502935008.623122) vcan0 284#5527D57E29197A06
(1502935008.633316) vcan0 284#67EB8E0BEBDBCA1D
(1502935008.643484) vcan0 284#F60DEE275844AA67
(1502935008.653664) vcan0 284#0FFE0B1CCE6C2B43
(1502935008.663965) vcan0 284#E3F7621E505AEF2E
(1502935008.674172) vcan0 284#9413A80EE5237A1F
(1502935008.684424) vcan0 284#87900110462A2116
(1502935008.694653) vcan0 284#73EA826AAFE3FB3C
(1502935008.704845) vcan0 284#A1BB9068D39CA10A
(1502935008.715053) vcan0 284#71651F383F254613
(1502935008.725256) vcan0 284#0CDE3D500FD95157
(1502935008.735378) vcan0 284#2D8D1B077F23CC65
(1502935008.745586) vcan0 284#C18ABE7C409F3232
(1502935008.755806) vcan0 284#E2C6C618B2586B1A
(1502935008.765955) vcan0 284#156E14025DC23B20
(1502935008.776150) vcan0 284#FA3F79756A95E900
(1502935008.786343) vcan0 284#87DBB526612B0801
(1502935008.796464) vcan0 284#5571B41E7DE9A34E
(1502935008.806661) vcan0 284#B96FB268646FC03A
(1502935008.816846) vcan0 284#4B56CF119C671507
(1502935008.826962) vcan0 284#B5C9AF69E0697720
(1502935008.837141) vcan0 284#818B8F263C5AB179
(1502935008.847335) vcan0 284#26949836F5751211
(1502935008.857460) vcan0 284#EB3DAD36C74F291F
(1502935008.867659) vcan0 284#C812B41B5CA3CC6E
(1502935008.877850) vcan0 284#07756F32D4F0F16B
(1502935008.888045) vcan0 284#6C7C1E4634028B39
(1502935008.898255) vcan0 284#5314BE512D07DD42
(1502935008.908449) vcan0 284#74A1BD6B36DB846A
(1502935008.918567) vcan0 284#DF5F485D890FD26D
(1502935008.928767) vcan0 284#939DC00ADA9FC152
(1502935008.938961) vcan0 284#F4A4BB6E1A797631
(1502935008.949079) vcan0 284#3BCBC9534916700D
(1502935008.959280) vcan0 284#97621A00F53A7C3C
(1502935008.969478) vcan0 284#AE853048E3B8E911
(1502935008.979594) vcan0 284#91A29143634FE031
(1502935008.989803) vcan0 284#C3226132132E216A
(1502935009.000009) vcan0 284#9FA9912BE9B6F968
(1502935009.010133) vcan0 284#08A4337B8BE73E62
(1502935009.020314) vcan0 284#B1062308D0B6E716
(1502935009.030515) vcan0 284#E78A0B51B87B923A
(1502935009.040686) vcan0 284#A4A7D90253072A17
(1502935009.050898) vcan0 284#EC7D1D74F8BB9754
(1502935009.061104) vcan0 284#810E075A601FDB5F
(1502935009.071224) vcan0 284#2E971C3F606E4F37
(1502935009.081426) vcan0 284#E92EAD4DC134DD49
(1502935009.091640) vcan0 284#3A0E110ADDD3683C
(1502935009.101772) vcan0 284#DCAD537B76D9DA5D
(1502935009.111975) vcan0 284#27EAD84973106E7B
(1502935009.122175) vcan0 284#6B14571AD56F0912
(1502935009.132314) vcan0 284#56C9570DFCB6E85D
(1502935009.142527) vcan0 284#38BFE94319ECB83F
(1502935009.152736) vcan0 284#0FE50948D7687B6F
(1502935009.162868) vcan0 284#03A3B22817893D43
(1502935009.173062) vcan0 284#6250BA51B4A9D530
(1502935009.183253) vcan0 284#E73F255A4ADBC522
(1502935009.193446) vcan0 284#6C25686B8CE7FE5C
(1502935009.203634) vcan0 284#9DE2EF3958A3855F
(1502935009.213835) vcan0 284#84A396311EF1F613
(1502935009.223955) vcan0 284#B8C2603FB23AB370
(1502935009.234142) vcan0 284#7F5F464BA1F10D0D
(1502935009.244339) vcan0 284#736F903AB96D5755
(1502935009.254465) vcan0 284#7FC576494F1DE435
(1502935009.264658) vcan0 284#2F473233A6AF4F13
(1502935009.274856) vcan0 284#C32D52319A5B894D
(1502935009.284980) vcan0 284#7B1F592519F7A93E
(1502935009.295175) vcan0 284#9712722BB3DE4269
(1502935009.305380) vcan0 284#33E3627EA6F77B73
(1502935009.315559) vcan0 284#8A47BE5836861527
(1502935009.325790) vcan0 284#BE80B936ED97782A
(1502935009.336166) vcan0 284#EA2FEB57A5C0DE10
(1502935009.346433) vcan0 284#37733E4D56555343
(1502935009.356716) vcan0 284#31A8DD6DD4552E07
(1502935009.367128) vcan0 284#AEF8D822B54B741F
(1502935009.377399) vcan0 284#F346251B66BB3962
(1502935009.387671) vcan0 284#6786271072A66B66
(1502935009.398137) vcan0 284#07AD476FDBF5B74A
(1502935009.408425) vcan0 284#2B14C33B8672BE38
(1502935009.418751) vcan0 284#2A139C005B5BF56E
(1502935009.429055) vcan0 284#2C220E4CED40EE31
(1502935009.439322) vcan0 284#F5B67E3CA7416771
(1502935009.449612) vcan0 284#073898708CC9F067
(1502935009.459994) vcan0 284#5A20AA5A3A1BFB6E
(1502935009.470248) vcan0 284#33C16C5BE5676833
(1502935009.480515) vcan0 284#70A11016F1412612
(1502935009.491030) vcan0 284#D2FFE05D5AD1FB6D
(1502935009.501350) vcan0 284#9602052309731F2B
(1502935009.511669) vcan0 284#B0264F31C8AAE210
(1502935009.522223) vcan0 284#DDC84D325E1F2854
(1502935009.532441) vcan0 284#7DF65630D00F734D
(1502935009.542704) vcan0 284#C4DA6136E57C7E40
(1502935009.552973) vcan0 284#42B6DE33CB87A925
(1502935009.563176) vcan0 284#C072360B6ECAA16F
(1502935009.573385) vcan0 284#52FA675EEA85D20B
