(1502934685.755572) vcan0 284#BAE3926D7ED2887F
(1502934685.765806) vcan0 284#70469E7558961719
(1502934685.775993) vcan0 284#2F2F08054149B95A
(1502934685.786226) vcan0 284#AF1410636B9A540E
(1502934685.796426) vcan0 284#8CEA731447FA136F
(1502934685.806586) vcan0 284#5EB9E67A2C08AC39
(1502934685.816791) vcan0 284#A6F57C4CE35F3817
(1502934685.826977) vcan0 284#6B42C55C5F0DED3E
(1502934685.837091) vcan0 284#34EBB00663D06641
(1502934685.847311) vcan0 284#EF01664F1B775F0B
(1502934685.857446) vcan0 284#762481649482C827
(1502934685.867550) vcan0 284#740350133E33C30D
(1502934685.877770) vcan0 284#D43F726193B7834F
(1502934685.887960) vcan0 284#9D8BB47601180C45
(1502934685.898149) vcan0 284#A99A3F533F4CC123
(1502934685.908410) vcan0 284#06F46D38637ED240
(1502934685.918633) vcan0 284#BE1E4A23763A0C2E
(1502934685.928832) vcan0 284#BB14EA59ED4D5228
(1502934685.939131) vcan0 284#B883C5086B29FA3C
(1502934685.949272) vcan0 284#59E8A636446E391D
(1502934685.959374) vcan0 284#B2230E2CB7A18D31
(1502934685.969678) vcan0 284#7076E55658198B78
(1502934685.979822) vcan0 284#9A01C648DBB8AA33
(1502934685.989999) vcan0 284#B7267837CEEC764F
(1502934686.000306) vcan0 284#3F891175A628DE06
(1502934686.010496) vcan0 284#E963D65AB5AD9259
(1502934686.020645) vcan0 284#3AABA62E5D67266E
(1502934686.030898) vcan0 284#F3E055670FEB1810
(1502934686.041033) vcan0 284#F11EAA3D906C0A5E
(1502934686.051139) vcan0 284#100325559AB9E910
(1502934686.061362) vcan0 284#D0B8CB0116F7920D
(1502934686.071502) vcan0 284#FD37BC518ED71525
(1502934686.081604) vcan0 284#8C319F3BB94CA62B
(1502934686.091836) vcan0 284#7B25684D44B56444
(1502934686.101977) vcan0 284#2476A068D40D0F04
(1502934686.112133) vcan0 284#88239E61D699AE14
(1502934686.122385) vcan0 284#8BAF9C35F9998338
(1502934686.132591) vcan0 284#2EB3390D25B1627E
(1502934686.142709) vcan0 284#D4522E6CE6D9B144
(1502934686.152991) vcan0 284#F49DD94D13DC3F61
(1502934686.163138) vcan0 284#8C02904BDD01B028
(1502934686.173243) vcan0 284#C889D23AC7AD367A
(1502934686.183517) vcan0 284#3B69D616BB6A2822
(1502934686.193726) vcan0 284#D6984F0A2C888054
(1502934686.203894) vcan0 284#4CD73200E69B745F
(1502934686.214208) vcan0 284#C6416A651C90FE01
(1502934686.224404) vcan0 284#FC92076DC3792637
(1502934686.234517) vcan0 284#AA67142788C4A628
(1502934686.244741) vcan0 284#7CC6CC62258D7C74
(1502934686.254878) vcan0 284#CD790B6DA03C6D4B
(1502934686.264990) vcan0 284#FA9A8B78559DA94E
(1502934686.275100) vcan0 284#76D61B60854A282E
(1502934686.285280) vcan0 284#4E372D07A589556D
(1502934686.295471) vcan0 284#ABFB8A2C238A5B73
(1502934686.305681) vcan0 284#8B6307329F99647A
(1502934686.315874) vcan0 284#36669B541766977D
(1502934686.326061) vcan0 284#7C9B1423FFEF6D0F
(1502934686.336387) vcan0 284#DE13CE77B704EB39
(1502934686.346539) vcan0 284#BA5A9631B4AC1D02
(1502934686.356646) vcan0 284#E38C6B0E0632C931
(1502934686.366904) vcan0 284#9A489261A9CED573
(1502934686.377041) vcan0 284#22C2C73396DB994E
(1502934686.387221) vcan0 284#6D48FC2ACC29DC5A
(1502934686.397512) vcan0 284#1FA04077E90EC90D
(1502934686.407698) vcan0 284#F2B6584FEC194C64
(1502934686.417808) vcan0 284#8A4B3659EC51E447
(1502934686.428044) vcan0 284#41B7F53200225239
(1502934686.438226) vcan0 284#719C0C7690EE223A
(1502934686.448371) vcan0 284#A5ABA7261C989722
(1502934686.458667) vcan0 284#B3787E2D300FAF58
(1502934686.468937) vcan0 284#BB31FC1CE9DE1902
(1502934686.479196) vcan0 284#4875465638CD1040
(1502934686.489499) vcan0 284#E8CE87112689144E
(1502934686.499784) vcan0 284#EFD1FB79A3291E43
