(1502751649.631880) can0 284#0000000000000187
(1502751649.651783) can0 284#0000000000000288
(1502751649.671895) can0 284#0000000000000389
(1502751649.693568) can0 284#000000000000048A
(1502751649.713587) can0 284#000000000000058B
(1502751649.733630) can0 284#000000000000068C
(1502751649.753594) can0 284#000000000000078D
(1502751649.773580) can0 284#000000000000088E
(1502751649.793617) can0 284#000000000000098F
(1502751649.813602) can0 284#0000000000000A90
(1502751649.833640) can0 284#0000000000000B91
(1502751649.853624) can0 284#0000000000000C92
(1502751649.873618) can0 284#0000000000000D93
(1502751649.893636) can0 284#0000000000000E94
(1502751649.913625) can0 284#0000000000000F95
(1502751649.933651) can0 284#0000000000001096
(1502751649.953648) can0 284#0000000000001197
(1502751649.973599) can0 284#0000000000001298
(1502751649.993620) can0 284#0000000000001399
(1502751650.013640) can0 284#000000000000149A
(1502751650.033613) can0 284#000000000000159B
(1502751650.053623) can0 284#000000000000169C
(1502751650.073866) can0 284#000000000000179D
(1502751650.093986) can0 284#000000000000189E
(1502751650.113980) can0 284#000000000000199F
(1502751650.133985) can0 284#0000000000001AA0
(1502751650.153980) can0 284#0000000000001BA1
(1502751650.173956) can0 284#0000000000001CA2
(1502751650.193949) can0 284#0000000000001DA3
(1502751650.213955) can0 284#0000000000001EA4
(1502751650.234002) can0 284#0000000000001FA5
(1502751650.253936) can0 284#00000000000020A6
(1502751650.273935) can0 284#00000000000021A7
(1502751650.293931) can0 284#00000000000022A8
(1502751650.313940) can0 284#00000000000023A9
(1502751650.333941) can0 284#00000000000024AA
(1502751650.353939) can0 284#00000000000025AB
(1502751650.373930) can0 284#00000000000026AC
(1502751650.393951) can0 284#00000000000027AD
(1502751650.413948) can0 284#00000000000028AE
(1502751650.433961) can0 284#00000000000029AF
(1502751650.453941) can0 284#0000000000002AB0
(1502751650.473946) can0 284#0000000000002BB1
(1502751650.493947) can0 284#0000000000002CB2
(1502751650.513949) can0 284#0000000000002DB3
(1502751650.533957) can0 284#0000000000002EB4
(1502751650.553940) can0 284#0000000000002FB5
(1502751650.573945) can0 284#00000000000030B6
(1502751650.593948) can0 284#00000000000031B7
(1502751650.613944) can0 284#00000000000032B8
(1502751650.633960) can0 284#00000000000033B9
(1502751650.653944) can0 284#00000000000034BA
(1502751650.673981) can0 284#00000000000035BB
(1502751650.693968) can0 284#00000000000036BC
(1502751650.712044) can0 284#00000000000037BD
(1502751650.732074) can0 284#00000000000038BE
(1502751650.752071) can0 284#00000000000039BF
(1502751650.772238) can0 284#0000000000003AC0
(1502751650.792200) can0 284#0000000000003BC1
(1502751650.812128) can0 284#0000000000003CC2
(1502751650.832117) can0 284#0000000000003DC3
(1502751650.852108) can0 284#0000000000003EC4
(1502751650.872316) can0 284#0000000000003FC5
(1502751650.892119) can0 284#00000000000040C6
(1502751650.912127) can0 284#00000000000041C7
(1502751650.932138) can0 284#00000000000042C8
(1502751650.952127) can0 284#00000000000043C9
(1502751650.972167) can0 284#00000000000044CA
(1502751650.992280) can0 284#00000000000045CB
(1502751651.012124) can0 284#00000000000046CC
(1502751651.032144) can0 284#00000000000047CD
(1502751651.052146) can0 284#00000000000048CE
(1502751651.072373) can0 284#00000000000049CF
(1502751651.092164) can0 284#0000000000004AD0
(1502751651.112165) can0 284#0000000000004BD1
(1502751651.132153) can0 284#0000000000004CD2
(1502751651.152156) can0 284#0000000000004DD3
(1502751651.172281) can0 284#0000000000004ED4
(1502751651.192225) can0 284#0000000000004FD5
(1502751651.212116) can0 284#00000000000050D6
(1502751651.232156) can0 284#00000000000051D7
(1502751651.252140) can0 284#00000000000052D8
(1502751651.272144) can0 284#00000000000053D9
(1502751651.292130) can0 284#00000000000054DA
(1502751651.312211) can0 284#00000000000055DB
(1502751651.332530) can0 284#00000000000056DC
(1502751651.352549) can0 284#00000000000057DD
(1502751651.372509) can0 284#00000000000058DE
(1502751651.392534) can0 284#00000000000059DF
(1502751651.412539) can0 284#0000000000005AE0
(1502751651.432539) can0 284#0000000000005BE1
(1502751651.452500) can0 284#0000000000005CE2
(1502751651.472516) can0 284#0000000000005DE3
(1502751651.492504) can0 284#0000000000005EE4
(1502751651.512591) can0 284#0000000000005FE5
(1502751651.532526) can0 284#00000000000060E6
(1502751651.552529) can0 284#00000000000061E7
(1502751651.572570) can0 284#00000000000062E8
(1502751651.592522) can0 284#00000000000063E9
(1502751651.612513) can0 284#00000000000064EA
(1502751651.632537) can0 284#00000000000065EB
(1502751651.652522) can0 284#00000000000066EC
(1502751651.672537) can0 284#00000000000067ED
(1502751651.692608) can0 284#00000000000068EE
(1502751651.712549) can0 284#00000000000069EF
(1502751651.732548) can0 284#0000000000006AF0
(1502751651.752535) can0 284#0000000000006BF1
(1502751651.772558) can0 284#0000000000006CF2
(1502751651.792504) can0 284#0000000000006DF3
(1502751651.812511) can0 284#0000000000006EF4
(1502751651.832513) can0 284#0000000000006FF5
(1502751651.852505) can0 284#00000000000070F6
(1502751651.872613) can0 284#00000000000071F7
(1502751651.892523) can0 284#00000000000072F8
(1502751651.912517) can0 284#00000000000073F9
(1502751651.932527) can0 284#00000000000074FA
(1502751651.952516) can0 284#00000000000075FB
(1502751651.972701) can0 284#00000000000076FC
(1502751651.992513) can0 284#00000000000077FD
(1502751652.012567) can0 284#00000000000078FE
(1502751652.032636) can0 284#00000000000079FF
(1502751652.052524) can0 284#0000000000007A00
(1502751652.072513) can0 284#0000000000007B01
(1502751652.092502) can0 284#0000000000007C02
(1502751652.112606) can0 284#0000000000007D03
(1502751652.132514) can0 284#0000000000007E04
(1502751652.152536) can0 284#0000000000007F05
(1502751652.172510) can0 284#0000000000008006
(1502751652.192522) can0 284#0000000000008107
(1502751652.212509) can0 284#0000000000008208
(1502751652.232586) can0 284#0000000000008309
(1502751652.252580) can0 284#000000000000840A
(1502751652.272570) can0 284#000000000000850B
(1502751652.292500) can0 284#000000000000860C
(1502751652.312615) can0 284#000000000000870D
(1502751652.332504) can0 284#000000000000880E
(1502751652.352490) can0 284#000000000000890F
(1502751652.372480) can0 284#0000000000008A10
(1502751652.392513) can0 284#0000000000008B11
(1502751652.412487) can0 284#0000000000008C12
(1502751652.432496) can0 284#0000000000008D13
(1502751652.452486) can0 284#0000000000008E14
(1502751652.472483) can0 284#0000000000008F15
(1502751652.492522) can0 284#0000000000009016
(1502751652.512540) can0 284#0000000000009117
(1502751652.532548) can0 284#0000000000009218
(1502751652.552561) can0 284#0000000000009319
(1502751652.572584) can0 284#000000000000941A
(1502751652.592595) can0 284#000000000000951B
(1502751652.612611) can0 284#000000000000961C
(1502751652.632627) can0 284#000000000000971D
(1502751652.652643) can0 284#000000000000981E
(1502751652.672655) can0 284#000000000000991F
(1502751652.692671) can0 284#0000000000009A20
(1502751652.712684) can0 284#0000000000009B21
(1502751652.732700) can0 284#0000000000009C22
(1502751652.752709) can0 284#0000000000009D23
(1502751652.772511) can0 284#0000000000009E24
(1502751652.792513) can0 284#0000000000009F25
(1502751652.812515) can0 284#000000000000A026
(1502751652.832507) can0 284#000000000000A127
(1502751652.852518) can0 284#000000000000A228
(1502751652.872513) can0 284#000000000000A329
(1502751652.892503) can0 284#000000000000A42A
(1502751652.912500) can0 284#000000000000A52B
(1502751652.932500) can0 284#000000000000A62C
(1502751652.952505) can0 284#000000000000A72D
(1502751652.972505) can0 284#000000000000A82E
(1502751652.992497) can0 284#000000000000A92F
(1502751653.012500) can0 284#000000000000AA30
(1502751653.032500) can0 284#000000000000AB31
(1502751653.052497) can0 284#000000000000AC32
(1502751653.072510) can0 284#000000000000AD33
(1502751653.092506) can0 284#000000000000AE34
(1502751653.112499) can0 284#000000000000AF35
(1502751653.132510) can0 284#000000000000B036
(1502751653.152506) can0 284#000000000000B137
(1502751653.172499) can0 284#000000000000B238
(1502751653.192487) can0 284#000000000000B339
(1502751653.212503) can0 284#000000000000B43A
(1502751653.232510) can0 284#000000000000B53B
(1502751653.252490) can0 284#000000000000B63C
(1502751653.272492) can0 284#000000000000B73D
(1502751653.292500) can0 284#000000000000B83E
(1502751653.312506) can0 284#000000000000B93F
(1502751653.332508) can0 284#000000000000BA40
(1502751653.352511) can0 284#000000000000BB41
(1502751653.372494) can0 284#000000000000BC42
(1502751653.392488) can0 284#000000000000BD43
(1502751653.412477) can0 284#000000000000BE44
(1502751653.432489) can0 284#000000000000BF45
(1502751653.452470) can0 284#000000000000C046
(1502751653.472483) can0 284#000000000000C147
(1502751653.492473) can0 284#000000000000C248
(1502751653.512474) can0 284#000000000000C349
(1502751653.532485) can0 284#000000000000C44A
(1502751653.552469) can0 284#000000000000C54B
(1502751653.572465) can0 284#000000000000C64C
(1502751653.592512) can0 284#000000000000C74D
(1502751653.612520) can0 284#000000000000C84E
(1502751653.632443) can0 284#000000000000C94F
(1502751653.652260) can0 284#000000000000CA50
(1502751653.672435) can0 284#000000000000CB51
(1502751653.692255) can0 284#000000000000CC52
(1502751653.712441) can0 284#000000000000CD53
(1502751653.732435) can0 284#000000000000CE54
(1502751653.752258) can0 284#000000000000CF55
(1502751653.772432) can0 284#000000000000D056
(1502751653.792443) can0 284#000000000000D157
(1502751653.812444) can0 284#000000000000D258
(1502751653.832447) can0 284#000000000000D359
(1502751653.852451) can0 284#000000000000D45A
(1502751653.872429) can0 284#000000000000D55B
(1502751653.892434) can0 284#000000000000D65C
(1502751653.912484) can0 284#000000000000D75D
(1502751653.932445) can0 284#000000000000D85E
(1502751653.952252) can0 284#000000000000D95F
(1502751653.972428) can0 284#000000000000DA60
(1502751653.992431) can0 284#000000000000DB61
(1502751654.012430) can0 284#000000000000DC62
(1502751654.032432) can0 284#000000000000DD63
(1502751654.052244) can0 284#000000000000DE64
(1502751654.072452) can0 284#000000000000DF65
(1502751654.092442) can0 284#000000000000E066
(1502751654.112442) can0 284#000000000000E167
(1502751654.132452) can0 284#000000000000E268
(1502751654.152426) can0 284#000000000000E369
(1502751654.172438) can0 284#000000000000E46A
(1502751654.192434) can0 284#000000000000E56B
(1502751654.212427) can0 284#000000000000E66C
(1502751654.232447) can0 284#000000000000E76D
(1502751654.252240) can0 284#000000000000E86E
(1502751654.272455) can0 284#000000000000E96F
(1502751654.292424) can0 284#000000000000EA70
(1502751654.312438) can0 284#000000000000EB71
(1502751654.332445) can0 284#000000000000EC72
(1502751654.352444) can0 284#000000000000ED73
(1502751654.372452) can0 284#000000000000EE74
(1502751654.392435) can0 284#000000000000EF75
(1502751654.412464) can0 284#000000000000F076
(1502751654.432449) can0 284#000000000000F177
(1502751654.452434) can0 284#000000000000F278
(1502751654.472442) can0 284#000000000000F379
(1502751654.492406) can0 284#000000000000F47A
(1502751654.512426) can0 284#000000000000F57B
(1502751654.532461) can0 284#000000000000F67C
(1502751654.552436) can0 284#000000000000F77D
(1502751654.572426) can0 284#000000000000F87E
(1502751654.592431) can0 284#000000000000F97F
(1502751654.612436) can0 284#000000000000FA80
(1502751654.632421) can0 284#000000000000FB81
(1502751654.652391) can0 284#000000000000FC82
(1502751654.672458) can0 284#000000000000FD83
(1502751654.692335) can0 284#000000000000FE84
(1502751654.712425) can0 284#000000000000FF85
(1502751654.732427) can0 284#0000000000000086
(1502751654.752455) can0 284#0000000000000187
(1502751654.772402) can0 284#0000000000000288
(1502751654.792416) can0 284#0000000000000389
(1502751654.812439) can0 284#000000000000048A
(1502751654.832435) can0 284#000000000000058B
(1502751654.852440) can0 284#000000000000068C
(1502751654.872447) can0 284#000000000000078D
(1502751654.892214) can0 284#000000000000088E
(1502751654.912373) can0 284#000000000000098F
(1502751654.932379) can0 284#0000000000000A90
(1502751654.952422) can0 284#0000000000000B91
(1502751654.972420) can0 284#0000000000000C92
(1502751654.992388) can0 284#0000000000000D93
(1502751655.012231) can0 284#0000000000000E94
(1502751655.032384) can0 284#0000000000000F95
(1502751655.052410) can0 284#0000000000001096
(1502751655.072400) can0 284#0000000000001197
(1502751655.092197) can0 284#0000000000001298
(1502751655.112404) can0 284#0000000000001399
(1502751655.132376) can0 284#000000000000149A
(1502751655.152367) can0 284#000000000000159B
(1502751655.172419) can0 284#000000000000169C
(1502751655.192392) can0 284#000000000000179D
(1502751655.212385) can0 284#000000000000189E
(1502751655.232386) can0 284#000000000000199F
(1502751655.252257) can0 284#0000000000001AA0
(1502751655.272403) can0 284#0000000000001BA1
(1502751655.292381) can0 284#0000000000001CA2
(1502751655.312385) can0 284#0000000000001DA3
(1502751655.332361) can0 284#0000000000001EA4
(1502751655.352385) can0 284#0000000000001FA5
(1502751655.372370) can0 284#00000000000020A6
(1502751655.392376) can0 284#00000000000021A7
(1502751655.412373) can0 284#00000000000022A8
(1502751655.432409) can0 284#00000000000023A9
(1502751655.452411) can0 284#00000000000024AA
(1502751655.472408) can0 284#00000000000025AB
(1502751655.492356) can0 284#00000000000026AC
(1502751655.512374) can0 284#00000000000027AD
(1502751655.532406) can0 284#00000000000028AE
(1502751655.552370) can0 284#00000000000029AF
(1502751655.572435) can0 284#0000000000002AB0
(1502751655.592177) can0 284#0000000000002BB1
(1502751655.612349) can0 284#0000000000002CB2
(1502751655.632378) can0 284#0000000000002DB3
(1502751655.652205) can0 284#0000000000002EB4
(1502751655.672187) can0 284#0000000000002FB5
(1502751655.692160) can0 284#00000000000030B6
(1502751655.712166) can0 284#00000000000031B7
(1502751655.732168) can0 284#00000000000032B8
(1502751655.752211) can0 284#00000000000033B9
(1502751655.772256) can0 284#00000000000034BA
(1502751655.792387) can0 284#00000000000035BB
(1502751655.812191) can0 284#00000000000036BC
(1502751655.832385) can0 284#00000000000037BD
(1502751655.852347) can0 284#00000000000038BE
(1502751655.872408) can0 284#00000000000039BF
(1502751655.892378) can0 284#0000000000003AC0
(1502751655.912362) can0 284#0000000000003BC1
(1502751655.932364) can0 284#0000000000003CC2
(1502751655.952345) can0 284#0000000000003DC3
(1502751655.972377) can0 284#0000000000003EC4
(1502751655.992383) can0 284#0000000000003FC5
(1502751656.012342) can0 284#00000000000040C6
(1502751656.032361) can0 284#00000000000041C7
(1502751656.052167) can0 284#00000000000042C8
(1502751656.072407) can0 284#00000000000043C9
(1502751656.092247) can0 284#00000000000044CA
(1502751656.112169) can0 284#00000000000045CB
(1502751656.132359) can0 284#00000000000046CC
(1502751656.152373) can0 284#00000000000047CD
(1502751656.172154) can0 284#00000000000048CE
(1502751656.192288) can0 284#00000000000049CF
(1502751656.212192) can0 284#0000000000004AD0
(1502751656.232398) can0 284#0000000000004BD1
(1502751656.252358) can0 284#0000000000004CD2
(1502751656.272346) can0 284#0000000000004DD3
(1502751656.292163) can0 284#0000000000004ED4
(1502751656.312156) can0 284#0000000000004FD5
(1502751656.332336) can0 284#00000000000050D6
(1502751656.352333) can0 284#00000000000051D7
(1502751656.372335) can0 284#00000000000052D8
(1502751656.392340) can0 284#00000000000053D9
(1502751656.412146) can0 284#00000000000054DA
(1502751656.432348) can0 284#00000000000055DB
(1502751656.452147) can0 284#00000000000056DC
(1502751656.472148) can0 284#00000000000057DD
(1502751656.492139) can0 284#00000000000058DE
(1502751656.512326) can0 284#00000000000059DF
(1502751656.532341) can0 284#0000000000005AE0
(1502751656.552332) can0 284#0000000000005BE1
(1502751656.572323) can0 284#0000000000005CE2
(1502751656.592331) can0 284#0000000000005DE3
(1502751656.612350) can0 284#0000000000005EE4
(1502751656.632368) can0 284#0000000000005FE5
(1502751656.652177) can0 284#00000000000060E6
(1502751656.672365) can0 284#00000000000061E7
(1502751656.692354) can0 284#00000000000062E8
(1502751656.712354) can0 284#00000000000063E9
(1502751656.732353) can0 284#00000000000064EA
(1502751656.752345) can0 284#00000000000065EB
(1502751656.772354) can0 284#00000000000066EC
(1502751656.792374) can0 284#00000000000067ED
(1502751656.812154) can0 284#00000000000068EE
(1502751656.832171) can0 284#00000000000069EF
(1502751656.852159) can0 284#0000000000006AF0
(1502751656.872373) can0 284#0000000000006BF1
(1502751656.892173) can0 284#0000000000006CF2
(1502751656.912190) can0 284#0000000000006DF3
(1502751656.932178) can0 284#0000000000006EF4
(1502751656.952355) can0 284#0000000000006FF5
(1502751656.972157) can0 284#00000000000070F6
(1502751656.992163) can0 284#00000000000071F7
(1502751657.012135) can0 284#00000000000072F8
(1502751657.032317) can0 284#00000000000073F9
(1502751657.052118) can0 284#00000000000074FA
(1502751657.072128) can0 284#00000000000075FB
(1502751657.092124) can0 284#00000000000076FC
(1502751657.112130) can0 284#00000000000077FD
(1502751657.132315) can0 284#00000000000078FE
(1502751657.152310) can0 284#00000000000079FF
(1502751657.172151) can0 284#0000000000007A00
(1502751657.192311) can0 284#0000000000007B01
(1502751657.212128) can0 284#0000000000007C02
(1502751657.232310) can0 284#0000000000007D03
(1502751657.252116) can0 284#0000000000007E04
(1502751657.272307) can0 284#0000000000007F05
(1502751657.292113) can0 284#0000000000008006
(1502751657.312310) can0 284#0000000000008107
(1502751657.332305) can0 284#0000000000008208
(1502751657.352129) can0 284#0000000000008309
(1502751657.372329) can0 284#000000000000840A
(1502751657.392315) can0 284#000000000000850B
(1502751657.412310) can0 284#000000000000860C
(1502751657.432319) can0 284#000000000000870D
(1502751657.452111) can0 284#000000000000880E
(1502751657.472313) can0 284#000000000000890F
(1502751657.492122) can0 284#0000000000008A10
(1502751657.512304) can0 284#0000000000008B11
(1502751657.532314) can0 284#0000000000008C12
(1502751657.552306) can0 284#0000000000008D13
(1502751657.572304) can0 284#0000000000008E14
(1502751657.592302) can0 284#0000000000008F15
(1502751657.612302) can0 284#0000000000009016
(1502751657.632340) can0 284#0000000000009117
(1502751657.652309) can0 284#0000000000009218
(1502751657.672299) can0 284#0000000000009319
(1502751657.692117) can0 284#000000000000941A
(1502751657.712331) can0 284#000000000000951B
(1502751657.732330) can0 284#000000000000961C
(1502751657.752330) can0 284#000000000000971D
(1502751657.772342) can0 284#000000000000981E
(1502751657.792343) can0 284#000000000000991F
(1502751657.812383) can0 284#0000000000009A20
(1502751657.832359) can0 284#0000000000009B21
(1502751657.852159) can0 284#0000000000009C22
(1502751657.872379) can0 284#0000000000009D23
(1502751657.892132) can0 284#0000000000009E24
(1502751657.912290) can0 284#0000000000009F25
(1502751657.932296) can0 284#000000000000A026
(1502751657.952105) can0 284#000000000000A127
(1502751657.972281) can0 284#000000000000A228
(1502751657.992292) can0 284#000000000000A329
(1502751658.012108) can0 284#000000000000A42A
(1502751658.032299) can0 284#000000000000A52B
(1502751658.052093) can0 284#000000000000A62C
(1502751658.072095) can0 284#000000000000A72D
(1502751658.092103) can0 284#000000000000A82E
(1502751658.112099) can0 284#000000000000A92F
(1502751658.132093) can0 284#000000000000AA30
(1502751658.152095) can0 284#000000000000AB31
(1502751658.172079) can0 284#000000000000AC32
(1502751658.192185) can0 284#000000000000AD33
(1502751658.212085) can0 284#000000000000AE34
(1502751658.232275) can0 284#000000000000AF35
(1502751658.252086) can0 284#000000000000B036
(1502751658.272086) can0 284#000000000000B137
(1502751658.292274) can0 284#000000000000B238
(1502751658.312096) can0 284#000000000000B339
(1502751658.332293) can0 284#000000000000B43A
(1502751658.352096) can0 284#000000000000B53B
(1502751658.372287) can0 284#000000000000B63C
(1502751658.392285) can0 284#000000000000B73D
(1502751658.412285) can0 284#000000000000B83E
(1502751658.432287) can0 284#000000000000B93F
(1502751658.452283) can0 284#000000000000BA40
(1502751658.472271) can0 284#000000000000BB41
(1502751658.492269) can0 284#000000000000BC42
(1502751658.512291) can0 284#000000000000BD43
(1502751658.532285) can0 284#000000000000BE44
(1502751658.552284) can0 284#000000000000BF45
(1502751658.572285) can0 284#000000000000C046
(1502751658.592290) can0 284#000000000000C147
(1502751658.612318) can0 284#000000000000C248
(1502751658.632308) can0 284#000000000000C349
(1502751658.652305) can0 284#000000000000C44A
(1502751658.672321) can0 284#000000000000C54B
(1502751658.692316) can0 284#000000000000C64C
(1502751658.712299) can0 284#000000000000C74D
(1502751658.732303) can0 284#000000000000C84E
(1502751658.752304) can0 284#000000000000C94F
(1502751658.772299) can0 284#000000000000CA50
(1502751658.792337) can0 284#000000000000CB51
(1502751658.812292) can0 284#000000000000CC52
(1502751658.832309) can0 284#000000000000CD53
(1502751658.852299) can0 284#000000000000CE54
(1502751658.872300) can0 284#000000000000CF55
(1502751658.892308) can0 284#000000000000D056
(1502751658.912305) can0 284#000000000000D157
(1502751658.932307) can0 284#000000000000D258
(1502751658.952296) can0 284#000000000000D359
(1502751658.972291) can0 284#000000000000D45A
(1502751658.992311) can0 284#000000000000D55B
(1502751659.012287) can0 284#000000000000D65C
(1502751659.032313) can0 284#000000000000D75D
(1502751659.052353) can0 284#000000000000D85E
(1502751659.072353) can0 284#000000000000D95F
(1502751659.092318) can0 284#000000000000DA60
(1502751659.112291) can0 284#000000000000DB61
(1502751659.132310) can0 284#000000000000DC62
(1502751659.152294) can0 284#000000000000DD63
(1502751659.172277) can0 284#000000000000DE64
(1502751659.192291) can0 284#000000000000DF65
(1502751659.212362) can0 284#000000000000E066
(1502751659.232295) can0 284#000000000000E167
(1502751659.252252) can0 284#000000000000E268
(1502751659.272254) can0 284#000000000000E369
(1502751659.292294) can0 284#000000000000E46A
(1502751659.312253) can0 284#000000000000E56B
(1502751659.332269) can0 284#000000000000E66C
(1502751659.352293) can0 284#000000000000E76D
(1502751659.372242) can0 284#000000000000E86E
(1502751659.392063) can0 284#000000000000E96F
(1502751659.412248) can0 284#000000000000EA70
(1502751659.432263) can0 284#000000000000EB71
(1502751659.452258) can0 284#000000000000EC72
(1502751659.472285) can0 284#000000000000ED73
(1502751659.492251) can0 284#000000000000EE74
(1502751659.512255) can0 284#000000000000EF75
(1502751659.532260) can0 284#000000000000F076
(1502751659.552284) can0 284#000000000000F177
(1502751659.572326) can0 284#000000000000F278
(1502751659.592284) can0 284#000000000000F379
(1502751659.612248) can0 284#000000000000F47A
(1502751659.632253) can0 284#000000000000F57B
(1502751659.652247) can0 284#000000000000F67C
(1502751659.672248) can0 284#000000000000F77D
(1502751659.692243) can0 284#000000000000F87E
(1502751659.712265) can0 284#000000000000F97F
(1502751659.732247) can0 284#000000000000FA80
(1502751659.752245) can0 284#000000000000FB81
(1502751659.772250) can0 284#000000000000FC82
(1502751659.792275) can0 284#000000000000FD83
(1502751659.812245) can0 284#000000000000FE84
(1502751659.832289) can0 284#000000000000FF85
(1502751659.852244) can0 284#0000000000000086
(1502751659.872248) can0 284#0000000000000187
(1502751659.892246) can0 284#0000000000000288
(1502751659.912426) can0 284#0000000000000389
(1502751659.932423) can0 284#000000000000048A
(1502751659.952287) can0 284#000000000000058B
(1502751659.972349) can0 284#000000000000068C
(1502751659.992281) can0 284#000000000000078D
(1502751660.012285) can0 284#000000000000088E
(1502751660.032454) can0 284#000000000000098F
(1502751660.052238) can0 284#0000000000000A90
(1502751660.072229) can0 284#0000000000000B91
(1502751660.092232) can0 284#0000000000000C92
(1502751660.112245) can0 284#0000000000000D93
(1502751660.132285) can0 284#0000000000000E94
(1502751660.152232) can0 284#0000000000000F95
(1502751660.172229) can0 284#0000000000001096
(1502751660.192220) can0 284#0000000000001197
(1502751660.212217) can0 284#0000000000001298
(1502751660.232264) can0 284#0000000000001399
(1502751660.252296) can0 284#000000000000149A
(1502751660.272286) can0 284#000000000000159B
(1502751660.292268) can0 284#000000000000169C
(1502751660.312272) can0 284#000000000000179D
(1502751660.332254) can0 284#000000000000189E
(1502751660.352239) can0 284#000000000000199F
(1502751660.372262) can0 284#0000000000001AA0
(1502751660.392263) can0 284#0000000000001BA1
(1502751660.412243) can0 284#0000000000001CA2
(1502751660.432279) can0 284#0000000000001DA3
(1502751660.452246) can0 284#0000000000001EA4
(1502751660.472226) can0 284#0000000000001FA5
