(1502934732.810394) vcan0 284#CA4CB661EEE97E78
(1502934732.820618) vcan0 284#449CB91CA003145C
(1502934732.830809) vcan0 284#7F36161D3668ED5D
(1502934732.841033) vcan0 284#CB21EE02C3EE4D35
(1502934732.851221) vcan0 284#E1D3D024FFAF733E
(1502934732.861499) vcan0 284#1B109B41B88A850F
(1502934732.871704) vcan0 284#40A85653DCB8671D
(1502934732.881871) vcan0 284#97CC643F60E63228
(1502934732.892085) vcan0 284#A2F39B58CC054976
(1502934732.902280) vcan0 284#271DE90BA279AF56
(1502934732.912396) vcan0 284#C34784772F08016B
(1502934732.922615) vcan0 284#88940A19397ACA76
(1502934732.932885) vcan0 284#6215DE77CB3E666E
(1502934732.943012) vcan0 284#3838C0567D921F62
(1502934732.953204) vcan0 284#F567051DFB26B63B
(1502934732.963415) vcan0 284#5A82317CC0B4BB7E
(1502934732.973539) vcan0 284#E91035349E1EEB18
(1502934732.983732) vcan0 284#60B8CF5A68474B51
(1502934732.993944) vcan0 284#D486D8762BDABD5D
(1502934733.004096) vcan0 284#2B369906B55AA91B
(1502934733.014293) vcan0 284#2B8A311C46463448
(1502934733.024545) vcan0 284#6DE52E2B6B32886F
(1502934733.034818) vcan0 284#23FF9B6504B2936A
(1502934733.045152) vcan0 284#CB18BB17C5F2373E
(1502934733.055463) vcan0 284#D1B7DC60F335A423
(1502934733.065636) vcan0 284#676CE71494FF6058
(1502934733.075949) vcan0 284#223EA50EEF00F22D
(1502934733.086274) vcan0 284#CD792B4F84538306
(1502934733.096541) vcan0 284#BB3F581C06B2EB25
(1502934733.106896) vcan0 284#01E6A268B0A75D39
(1502934733.117244) vcan0 284#01D9A1615C68D464
(1502934733.127428) vcan0 284#705C1938EBE9D615
(1502934733.137752) vcan0 284#FA86BF7DD114E912
(1502934733.148077) vcan0 284#53312267CF0D9874
(1502934733.158253) vcan0 284#FCEEA6707F67BB6D
(1502934733.168565) vcan0 284#846841102779D80C
(1502934733.178941) vcan0 284#C5ADEF35F24D703B
(1502934733.189118) vcan0 284#93AB607CE8AC8B1B
(1502934733.199478) vcan0 284#F6FF03265EC41B14
(1502934733.209917) vcan0 284#AE9FC359C7B7E006
(1502934733.220205) vcan0 284#51FABF37150CAB6E
(1502934733.230561) vcan0 284#5BB7415F73386546
(1502934733.240954) vcan0 284#050D9D1C29316D2E
(1502934733.251139) vcan0 284#F78BE84CC04CF538
(1502934733.261473) vcan0 284#2FE35854F9718B35
(1502934733.271796) vcan0 284#70F4527230BCFA35
(1502934733.281988) vcan0 284#55DA5F1AE1506C2A
(1502934733.292297) vcan0 284#1BA6D14B4F611F18
(1502934733.302630) vcan0 284#B265553D6FD7F332
(1502934733.313010) vcan0 284#1E6FB70CAE54FC2D
(1502934733.323390) vcan0 284#EE3EAF20A3D7F81C
(1502934733.333690) vcan0 284#D6CDD43AB3EC9E56
(1502934733.343924) vcan0 284#9525695869793537
(1502934733.354245) vcan0 284#9C992A728B256D7E
(1502934733.364580) vcan0 284#C73D514B4A39EE4B
(1502934733.374763) vcan0 284#53DD4D0519381103
(1502934733.385133) vcan0 284#5F45993AAE948F64
(1502934733.395567) vcan0 284#8C70764964523657
(1502934733.405858) vcan0 284#D7C5FC1284FC5E16
(1502934733.416201) vcan0 284#249F2B1006A95567
(1502934733.426445) vcan0 284#7D6EEA4B95937E02
(1502934733.436569) vcan0 284#3765501DD2484A66
(1502934733.446844) vcan0 284#76E4EA2C520B2269
(1502934733.457047) vcan0 284#21AA697E284A406A
(1502934733.467166) vcan0 284#C1E2151C4019210B
(1502934733.477429) vcan0 284#D69E3C18AF21C53C
(1502934733.487639) vcan0 284#E3F01928AC6C1153
(1502934733.497837) vcan0 284#630E641378168300
(1502934733.508094) vcan0 284#15E6460AFFA78E05
(1502934733.518301) vcan0 284#033CF07EDD239855
(1502934733.528414) vcan0 284#49E17C5156193E04
(1502934733.538694) vcan0 284#F65BA958A826160C
(1502934733.548896) vcan0 284#05AECD6882CC1F22
(1502934733.559012) vcan0 284#0D794C63DC73CA7B
(1502934733.569325) vcan0 284#06C97E3831187873
(1502934733.579534) vcan0 284#E31C206383376904
(1502934733.589651) vcan0 284#C6ABF6751A827000
(1502934733.599861) vcan0 284#5580B36A3C90E122
(1502934733.610072) vcan0 284#6C8D9269772A1D69
(1502934733.620185) vcan0 284#64DA210D2E70A805
(1502934733.630462) vcan0 284#B7433E743B795E25
(1502934733.640670) vcan0 284#DD916D429A34581C
(1502934733.650786) vcan0 284#E7E56F7840A0D155
(1502934733.661042) vcan0 284#124BDB1CFDCBB602
(1502934733.671251) vcan0 284#3F48605B1587CB1B
(1502934733.681367) vcan0 284#DAEF4E588829DD2C
(1502934733.691630) vcan0 284#6CA00920D04BF830
(1502934733.701855) vcan0 284#3150F338714ED708
(1502934733.712024) vcan0 284#521818533EC93F1C
(1502934733.722280) vcan0 284#4DC2A10459E1960B
(1502934733.732492) vcan0 284#6FE1B70F30DFC167
(1502934733.742612) vcan0 284#DC180010368DAE05
(1502934733.752995) vcan0 284#4A6132683299B37A
(1502934733.763207) vcan0 284#721D9028B7EEC451
(1502934733.773330) vcan0 284#A9C3D063D7F7B135
(1502934733.783622) vcan0 284#E55E6D5760070F58
(1502934733.793827) vcan0 284#1271105BC2F0DA19
(1502934733.804023) vcan0 284#FA3B6774F9568053
(1502934733.814415) vcan0 284#0391AC6F0C874211
(1502934733.824965) vcan0 284#F622375642D90C4B
