(1502932539.305782) vcan0 284#2572FD3A49A57248
(1502932539.316133) vcan0 284#D4358027574E2A51
(1502932539.326459) vcan0 284#D527BC387E8E1C76
(1502932539.336769) vcan0 284#22BA56738274857E
(1502932539.347007) vcan0 284#3EBC075DD66AF948
(1502932539.357210) vcan0 284#4F86B05EE7265368
(1502932539.367326) vcan0 284#A4354605F87FCC00
(1502932539.377482) vcan0 284#5E5D654D84F7BF25
(1502932539.387672) vcan0 284#6EBE10519F70DD46
(1502932539.397790) vcan0 284#CA9A6550B64B9B3C
(1502932539.407953) vcan0 284#0B696A7C634E8B00
(1502932539.418149) vcan0 284#72DFD35939CF2251
(1502932539.428396) vcan0 284#523944093EDB1B26
(1502932539.438602) vcan0 284#DA6FE50866D52317
(1502932539.448829) vcan0 284#562112060DF1904B
(1502932539.459035) vcan0 284#3F3C2A2A7C930F41
(1502932539.469216) vcan0 284#569603141372AA51
(1502932539.479416) vcan0 284#D3E139122BBEBF4C
(1502932539.489537) vcan0 284#9100C747F69B9005
(1502932539.499693) vcan0 284#AD32454BCFBCCE24
(1502932539.510245) vcan0 284#CC068A4EFCB8F529
(1502932539.520360) vcan0 284#B7E3210D703CD053
(1502932539.530514) vcan0 284#F538C22A1541875A
(1502932539.540706) vcan0 284#F533907963F7D27B
(1502932539.550822) vcan0 284#B4B16421BFCEF549
(1502932539.560969) vcan0 284#19436E38C01ACF1D
(1502932539.571166) vcan0 284#221D814A8B224212
(1502932539.581285) vcan0 284#F9E9F16E7556C553
(1502932539.591439) vcan0 284#C9FD5D38D359D777
(1502932539.601635) vcan0 284#DB2BE96A1F1F703E
(1502932539.611823) vcan0 284#E14A68431A681315
(1502932539.622001) vcan0 284#9BB27F7F37E16B57
(1502932539.632203) vcan0 284#2DDABD666F94B911
(1502932539.642384) vcan0 284#639F2B24BEDA842E
(1502932539.652564) vcan0 284#65304A1710D2706F
(1502932539.662766) vcan0 284#8E9753533137D465
(1502932539.672887) vcan0 284#0D8B6619457B7560
(1502932539.683039) vcan0 284#A273A43902C42844
(1502932539.693234) vcan0 284#5ABCFC3A97A73433
(1502932539.703361) vcan0 284#65BBFB3F0F6E615C
(1502932539.713560) vcan0 284#56762A7D7EFE6978
(1502932539.723779) vcan0 284#CF88307A7893AB47
(1502932539.733942) vcan0 284#0921AC0AC8722269
(1502932539.744144) vcan0 284#EDE9701BD21E0A43
(1502932539.754350) vcan0 284#9BCCF960C8155A06
(1502932539.764469) vcan0 284#F13D7A017C176224
(1502932539.774625) vcan0 284#E27D6D1B8DF0F900
(1502932539.784829) vcan0 284#B4F8CD7B0F582B02
(1502932539.794959) vcan0 284#FC84B3121798F91F
(1502932539.805714) vcan0 284#CE32B03061B5FD29
(1502932539.815889) vcan0 284#276A6A0F5CCA0304
(1502932539.826003) vcan0 284#92ECD10F34F5D028
(1502932539.836187) vcan0 284#A145796434607649
(1502932539.846379) vcan0 284#36B9F96CFB01761F
(1502932539.856501) vcan0 284#CB07AB7C9B74F52C
(1502932539.866680) vcan0 284#0A70D77B217ED579
(1502932539.876892) vcan0 284#19735F25D9F80776
(1502932539.887011) vcan0 284#9A11814122940B30
(1502932539.897196) vcan0 284#A16B2A5F87FBF15C
(1502932539.907376) vcan0 284#F4B215733D382440
(1502932539.917571) vcan0 284#50114C63E6F08F74
(1502932539.927802) vcan0 284#B94F8664328FB97E
(1502932539.938001) vcan0 284#73E189756D485460
(1502932539.948151) vcan0 284#42E7E4006F663D08
(1502932539.958342) vcan0 284#84E04D00101A9531
(1502932539.968518) vcan0 284#D01B3B32AC4AB80F
(1502932539.978634) vcan0 284#6CE4983562080D42
(1502932539.988824) vcan0 284#E03F89380D2A121A
(1502932539.999029) vcan0 284#9768830B17F98225
(1502932540.009153) vcan0 284#082C883962702E08
(1502932540.019359) vcan0 284#B26D7852139C5F35
(1502932540.029563) vcan0 284#84EE0302CCE0D777
(1502932540.039725) vcan0 284#EC94672B1E008543
(1502932540.049965) vcan0 284#EE74E3278E00920A
(1502932540.060352) vcan0 284#A5FB7620E327F91A
(1502932540.070604) vcan0 284#CB38B64AF50CC303
(1502932540.080841) vcan0 284#C918890F84883C2F
(1502932540.091127) vcan0 284#289C7C023CFA1205
(1502932540.101401) vcan0 284#F2D0900F6A836103
(1502932540.111730) vcan0 284#AB60500D76B1DE0F
(1502932540.122046) vcan0 284#7A9DF6347B7C8B3F
(1502932540.132318) vcan0 284#22FC961FE6818F6A
(1502932540.142584) vcan0 284#DD849801033C2058
(1502932540.152933) vcan0 284#F3ABA10474ED1B0D
(1502932540.163217) vcan0 284#1A35A37DFBD7293E
(1502932540.173469) vcan0 284#D75D4A15CCA21B50
(1502932540.183851) vcan0 284#0E7489735B4C4E17
(1502932540.194110) vcan0 284#9883F347FB08F11E
(1502932540.204348) vcan0 284#794CD35A87F8D66F
(1502932540.214631) vcan0 284#890983291E484A7B
(1502932540.224906) vcan0 284#6A20D00A54423974
(1502934402.887770) vcan0 284#1D43316C35721F7E
(1502934402.898160) vcan0 284#891AB77C7863560E
(1502934402.908465) vcan0 284#94289D26C2497F07
(1502934402.918753) vcan0 284#4FFCE74708A5E576
(1502934402.929008) vcan0 284#DAA1467FF3632168
(1502934402.939228) vcan0 284#80626F353C08470B
(1502934402.949433) vcan0 284#11854B47D25ACD73
(1502934402.959700) vcan0 284#08876E213A59437D
(1502934402.969959) vcan0 284#67B034107793B011
