(1502934421.710912) vcan0 284#DF79CF0B01E9641D
(1502934421.721090) vcan0 284#51D2BE4EDD7C910A
(1502934421.731331) vcan0 284#50845E5FE10AB53A
(1502934421.741521) vcan0 284#CF3BBC6A7D3D8C6A
(1502934421.751713) vcan0 284#609B6F6522141F46
(1502934421.762001) vcan0 284#7D96B1225FCD1F55
(1502934421.772212) vcan0 284#EBCCBC66351E0F73
(1502934421.782331) vcan0 284#D3CFEB0C6ED96273
(1502934421.792598) vcan0 284#BED5F657BCE01113
(1502934421.802793) vcan0 284#73CB3C2BD3C2C37B
(1502934421.813008) vcan0 284#8204464A1829DD44
(1502934421.823372) vcan0 284#F609D459152C2256
(1502934421.833603) vcan0 284#803A3C0ABD038374
(1502934421.843841) vcan0 284#9A0D822CB70F1C6C
(1502934421.854137) vcan0 284#B0BE576378FCEC20
(1502934421.864333) vcan0 284#B19E7F799038276F
(1502934421.874491) vcan0 284#7AE5513E03713E48
(1502934421.884803) vcan0 284#6DB5B879CA69B01D
(1502934421.894998) vcan0 284#E47BF3023CF17464
(1502934421.905187) vcan0 284#48A73C0844176368
(1502934421.915491) vcan0 284#5E05942AC53DEE2A
(1502934421.925673) vcan0 284#A3E4823D4AD25011
(1502934421.935780) vcan0 284#FB5BFD1D76B46E4A
(1502934421.946062) vcan0 284#B8ABB304B931F475
(1502934421.956230) vcan0 284#3295805D2B77F02F
(1502934421.966346) vcan0 284#8CF4B771B599C627
(1502934421.976651) vcan0 284#43A0CD7482FE8B4B
(1502934421.986861) vcan0 284#CAC5E87DC4DA097F
(1502934421.996982) vcan0 284#40020F4064D36A2A
(1502934422.007174) vcan0 284#7BEA256BF0C06623
(1502934422.017379) vcan0 284#DCCF574B2D89A564
(1502934422.027489) vcan0 284#80F98D1256B5A909
(1502934422.037771) vcan0 284#30FAE32CEDAE460C
(1502934422.047950) vcan0 284#211F5A271476D72F
(1502934422.058060) vcan0 284#2AA0BB7069C6962F
(1502934422.068345) vcan0 284#598D3A1888A54F1B
(1502934422.078556) vcan0 284#2E04855AFC71BD55
(1502934422.088672) vcan0 284#D277A02C29608278
(1502934422.098960) vcan0 284#73262C208A235431
(1502934422.109169) vcan0 284#E291766EA5BBAC7D
(1502934422.119280) vcan0 284#B59A44616E862E60
(1502934422.129565) vcan0 284#5A557325F93A1256
(1502934422.139740) vcan0 284#F184BA2B241B5C23
(1502934422.149916) vcan0 284#BD151C553187C96B
(1502934422.160346) vcan0 284#88EEC64D38004240
(1502934422.170572) vcan0 284#2148300F65BE1E19
(1502934422.180799) vcan0 284#6589E724A241BE21
(1502934422.191067) vcan0 284#BB73C8229583CB51
(1502934422.201347) vcan0 284#8FF0042EDC92224A
(1502934422.211608) vcan0 284#AAF9A201B990C01E
(1502934422.221913) vcan0 284#4559B9790387DD19
(1502934422.232207) vcan0 284#4236103A745D3E54
(1502934422.242374) vcan0 284#FFF89A6F14AEB066
(1502934422.252656) vcan0 284#9DBDC04C721FC70F
(1502934422.262984) vcan0 284#9FD10418804F373B
(1502934422.273704) vcan0 284#18DB730D546C4979
(1502934422.283994) vcan0 284#EED5651B7230E732
(1502934422.294275) vcan0 284#4DA75B4FDF5A2047
(1502934422.304525) vcan0 284#974B43560ABD7724
(1502934422.314834) vcan0 284#10E2E9321F3A0A24
(1502934422.325119) vcan0 284#43BDB964322A1A42
(1502934422.335290) vcan0 284#84F8283DA846A109
(1502934422.345577) vcan0 284#D46BD863406CF15F
(1502934422.355844) vcan0 284#3ECA6C5B635CDD11
(1502934422.366017) vcan0 284#1CFF132AE8C30F5D
(1502934422.376324) vcan0 284#1DED9D306258CD23
(1502934422.386600) vcan0 284#EB4AED765F23AE6A
(1502934422.396803) vcan0 284#D6B50B78EA438866
(1502934422.407095) vcan0 284#73D15E517373CC44
(1502934422.417410) vcan0 284#5D634F7612A36369
(1502934422.427616) vcan0 284#F3C20300753EC303
(1502934422.437875) vcan0 284#670FAD62E298691B
(1502934422.448211) vcan0 284#E76EAA36B4B60832
(1502934422.458481) vcan0 284#C1F389627EBAED0C
(1502934422.468745) vcan0 284#BF738056D2D57315
(1502934422.479071) vcan0 284#9EF4F73002313A3B
(1502934422.489347) vcan0 284#04008E5722ED206E
(1502934422.499628) vcan0 284#AA77DB44D86B663B
(1502934422.509923) vcan0 284#6259124EE8414820
(1502934422.520212) vcan0 284#3BC8434D7F582678
(1502934422.530541) vcan0 284#D005587D58B5E17D
(1502934422.540837) vcan0 284#E1B0F31BBB504574
(1502934422.551014) vcan0 284#B7D88F68B766FF13
(1502934422.561332) vcan0 284#A694CD5A2BAAEE39
(1502934422.571545) vcan0 284#2ADACB5803F81C51
(1502934422.581725) vcan0 284#3D4D52231E9DCF58
(1502934422.591937) vcan0 284#7836E054A45CFF05
(1502934422.602114) vcan0 284#003639745FA58A0B
(1502934422.612304) vcan0 284#59130838C129C356
(1502934422.622528) vcan0 284#DE5F78181887880E
(1502934422.632713) vcan0 284#93FF366C7C547049
(1502934422.642960) vcan0 284#1AB8C24997FFC443
(1502934422.653176) vcan0 284#9E419137C42F9E0E
(1502934422.663378) vcan0 284#6F6B2B7F019BA305
(1502934422.673546) vcan0 284#AD71E62EAB336F4C
(1502934422.683778) vcan0 284#80F3C97D7D773E2C
(1502934422.693990) vcan0 284#03E9504A61A4BD19
(1502934422.704161) vcan0 284#39C88320BBC1E032
(1502934422.714589) vcan0 284#180BBD2DDF5C517B
(1502934422.724816) vcan0 284#E66BCF6C42E58806
