(1502932521.908760) vcan0 284#3B3C6763AE02D816
(1502932521.919050) vcan0 284#4B1D39663706E016
(1502932521.929348) vcan0 284#3A8AF03AB5892758
(1502932521.939697) vcan0 284#B7D69373C1C52108
(1502932521.950062) vcan0 284#035E954CB87C2221
(1502932521.960337) vcan0 284#97ECE016CD87B21C
(1502932521.970587) vcan0 284#4EB2D5202FDE6501
(1502932521.980927) vcan0 284#99AB91270F980163
(1502932521.991200) vcan0 284#A8DE1E6049432A2B
(1502932522.001416) vcan0 284#0717E24C08FEB677
(1502932522.011536) vcan0 284#765D051F08237D52
(1502932522.021787) vcan0 284#7FE38F3A56EC961B
(1502932522.031984) vcan0 284#D1FF43118DBC1866
(1502932522.042103) vcan0 284#3A69C01B1711841D
(1502932522.052268) vcan0 284#9F7C483EEB7FC754
(1502932522.062467) vcan0 284#22BF2D7EDBB8AF21
(1502932522.072695) vcan0 284#99829F6B6DDC6664
(1502932522.083113) vcan0 284#12BF8F38D40C9026
(1502932522.093335) vcan0 284#22668E3CC995232C
(1502932522.103508) vcan0 284#95D2B12E26C42309
(1502932522.113753) vcan0 284#8112464D2CBF9245
(1502932522.123956) vcan0 284#F34BD625D0C41B6E
(1502932522.134139) vcan0 284#5B9DF8468CF7674D
(1502932522.144394) vcan0 284#DF5C1D51037C1727
(1502932522.154595) vcan0 284#D63A9278E673FF1D
(1502932522.164716) vcan0 284#0B7ACE1E4C989717
(1502932522.174947) vcan0 284#EE967C708A5D5E59
(1502932522.185153) vcan0 284#A2842E33C096C001
(1502932522.195345) vcan0 284#171A773FDCEDEE4E
(1502932522.205606) vcan0 284#D7A7441FB796BF7D
(1502932522.215822) vcan0 284#C76DB623F966721D
(1502932522.225944) vcan0 284#924F6F1F61F0550F
(1502932522.236190) vcan0 284#6643D901A40EFF57
(1502932522.246411) vcan0 284#35FDE53589A9673E
(1502932522.256529) vcan0 284#6EA42204CACF9764
(1502932522.266770) vcan0 284#AF6D8B47EFB66851
(1502932522.276986) vcan0 284#F68E2A2AA2B9616D
(1502932522.287100) vcan0 284#BF7B843F522C2371
(1502932522.297346) vcan0 284#2EB1C93A9FD8A110
(1502932522.307562) vcan0 284#55A83A1804EC5B33
(1502932522.317680) vcan0 284#854CA12E61220937
(1502932522.327924) vcan0 284#5084F34A74E31D1F
(1502932522.338120) vcan0 284#EB7F6710F308227E
(1502932522.348235) vcan0 284#347ADE20039ADE4F
(1502932522.358474) vcan0 284#CFF6104D0B222340
(1502932522.368690) vcan0 284#BA309E4D9764C770
(1502932522.378811) vcan0 284#0489955D4C800D6D
(1502932522.389046) vcan0 284#F8541D006ACC6E5F
(1502932522.399272) vcan0 284#F08E0C452D520336
(1502932522.409392) vcan0 284#F375D61D5E332F49
(1502932522.419634) vcan0 284#F7219B1AA2E36165
(1502932522.429837) vcan0 284#4EEA971AEDB0C544
(1502932522.440012) vcan0 284#449DC3520D661C5A
(1502932522.450235) vcan0 284#3FDDE835734E8D0D
(1502932522.460425) vcan0 284#AC3EBE6A9585234E
(1502932522.470542) vcan0 284#773AE940328B5F19
(1502932522.480790) vcan0 284#F6A72C05C8BEDC0B
(1502932522.490992) vcan0 284#A66E7D38E1279415
(1502932522.501111) vcan0 284#BBC7FE09DAE85B59
(1502932522.511348) vcan0 284#E4C172658ABE0F57
(1502932522.521556) vcan0 284#E50A7F199EF21033
(1502932522.531740) vcan0 284#2123D747E9931477
(1502932522.541997) vcan0 284#EA721E201978F447
(1502932522.552213) vcan0 284#53608356DB012B65
(1502932522.562331) vcan0 284#46CAF77D47D65974
(1502932522.572570) vcan0 284#39355A2E3DEC9218
(1502932522.582779) vcan0 284#E9B9BB59871FF248
(1502932522.592958) vcan0 284#2B9D585D2E577F2C
(1502932522.603191) vcan0 284#95850E236A7A4113
(1502932522.613405) vcan0 284#A1A50C3A41C4CC0D
(1502932522.623525) vcan0 284#FFFF646118E0F57A
(1502932522.633727) vcan0 284#734F2C27F5A79166
(1502932522.643910) vcan0 284#E09ED20619BEA95F
(1502932522.654022) vcan0 284#D7CF257C9B66D110
(1502932522.664189) vcan0 284#F3A60539BB919861
(1502932522.674388) vcan0 284#2625E167D8B18452
(1502932522.684500) vcan0 284#5A84A9144748B82F
(1502932522.694710) vcan0 284#C145994944F7C734
(1502932522.704948) vcan0 284#61C0AC7715A61C20
(1502932522.715343) vcan0 284#1FF9F219A78AA475
(1502932522.725610) vcan0 284#5C7C7614592E4D48
(1502932522.735893) vcan0 284#E576370E4536326E
(1502932522.746156) vcan0 284#E04D3F111014906B
(1502932522.756384) vcan0 284#738DB11A75D34D34
(1502932522.766647) vcan0 284#7A8ED17E1433BE54
(1502932522.776888) vcan0 284#B7971A427A8E3660
(1502932522.787108) vcan0 284#2D13B44F2AE74669
(1502932522.797355) vcan0 284#6F36C8460DB28656
(1502932522.807603) vcan0 284#44A5F0484606EE42
(1502932522.817832) vcan0 284#A9185867374CF601
(1502932522.828141) vcan0 284#02988624CF3D394F
(1502932522.838419) vcan0 284#10FE7A545C1C3039
(1502932522.848647) vcan0 284#1686F17ED143141E
(1502932522.858985) vcan0 284#A013F86D77469E76
(1502932522.869249) vcan0 284#E6E9303EC00CEB07
(1502932522.879474) vcan0 284#1FD1426C4266A752
(1502932522.889834) vcan0 284#193B385004487A7A
(1502932522.900093) vcan0 284#889CD940F9887761
(1502932522.910358) vcan0 284#145C0A66FB298B5B
(1502932522.920608) vcan0 284#6F5CC5158EEADB64
