(1502935125.422805) vcan0 284#EA33037C9FDF9309
(1502935125.433124) vcan0 284#20B1322DF79AD82C
(1502935125.443452) vcan0 284#E70EA75BF93D4B34
(1502935125.453722) vcan0 284#857C993715014718
(1502935125.463983) vcan0 284#4A5B1A0192DCE712
(1502935125.474260) vcan0 284#6B9F5957EC656226
(1502935125.484533) vcan0 284#44CE2227831EDB68
(1502935125.494739) vcan0 284#C928A30ACCD77027
(1502935125.504946) vcan0 284#13A884276FDB1554
(1502935125.515061) vcan0 284#B419F00870311D5A
(1502935125.525289) vcan0 284#29D0FF1725B1FB56
(1502935125.535602) vcan0 284#24554318ED85651A
(1502935125.545853) vcan0 284#E786FF26B162C260
(1502935125.556088) vcan0 284#AABEF569A0A57353
(1502935125.566309) vcan0 284#5B66B351F8AD7818
(1502935125.576507) vcan0 284#7D9D830A459AB64D
(1502935125.586757) vcan0 284#978D0C229D4EB637
(1502935125.596955) vcan0 284#3D358F7A7F9CB37D
(1502935125.607067) vcan0 284#978C016CC2B12832
(1502935125.617302) vcan0 284#949DFA15E1E71B6D
(1502935125.627518) vcan0 284#548E1045FF3C546D
(1502935125.637676) vcan0 284#CD4D7E13995C336C
(1502935125.647913) vcan0 284#835B2F569676211E
(1502935125.658133) vcan0 284#6534A4139603B47D
(1502935125.668248) vcan0 284#06523772194E941C
(1502935125.678449) vcan0 284#0635D1572F22370A
(1502935125.688663) vcan0 284#3EFF8F732A8A1470
(1502935125.698824) vcan0 284#1CA89C2425868F1A
(1502935125.709070) vcan0 284#DBECD650C766920E
(1502935125.719276) vcan0 284#C52B036E37538A22
(1502935125.729403) vcan0 284#BF140B2742C98678
(1502935125.739592) vcan0 284#7CED407056A21749
(1502935125.749797) vcan0 284#E0173D30B922D06A
(1502935125.759914) vcan0 284#D53ECB4677A43E1C
(1502935125.770146) vcan0 284#7CD4F81C6ADCC55C
(1502935125.780343) vcan0 284#588C5A09D0620962
(1502935125.790513) vcan0 284#69191A4A25DAD81C
(1502935125.800745) vcan0 284#69BF3C4EEC744920
(1502935125.810960) vcan0 284#BC50FA3ACFF3E061
(1502935125.821074) vcan0 284#8278FD1DC2A2312D
(1502935125.831308) vcan0 284#E841757E88ADCE75
(1502935125.841508) vcan0 284#F1C4683727410572
(1502935125.851624) vcan0 284#B337E3650E6D055C
(1502935125.861857) vcan0 284#4CC7940C8E24BA36
(1502935125.872055) vcan0 284#D5D3976A12F3977A
(1502935125.882220) vcan0 284#C577445994E8A211
(1502935125.892472) vcan0 284#54BC1E7342658549
(1502935125.902671) vcan0 284#EA8ABA5A34D45B23
(1502935125.912778) vcan0 284#FB875534C0C98521
(1502935125.922997) vcan0 284#AB789A3F775C4E51
(1502935125.933213) vcan0 284#2AA64B7E0305F548
(1502935125.943368) vcan0 284#48BF573393BF6548
(1502935125.953699) vcan0 284#29DFCD65B17E9401
(1502935125.963879) vcan0 284#8034AF68E52FC820
(1502935125.973990) vcan0 284#8072756302ADAC06
(1502935125.984298) vcan0 284#A7D2F94D69B4EA61
(1502935125.994502) vcan0 284#8B5A7B7C98976205
(1502935126.004666) vcan0 284#90F5EF533E925E62
(1502935126.015009) vcan0 284#A6046861DCBC8460
(1502935126.025202) vcan0 284#CCB618197BD8FF4B
(1502935126.035380) vcan0 284#EEAF1C5B922E5D72
(1502935126.045721) vcan0 284#0FC1A25D436C3B4E
(1502935126.055909) vcan0 284#D493E23BFA4B5D38
(1502935126.066017) vcan0 284#77409771CF1B3870
(1502935126.076298) vcan0 284#BA15E35923B93131
(1502935126.086475) vcan0 284#47788641E4BB2E58
(1502935126.096885) vcan0 284#26BE267A8F37DE74
(1502935126.107283) vcan0 284#777B94204F9DF45F
(1502935126.117530) vcan0 284#40B67276F7AF4309
(1502935126.127644) vcan0 284#34CDBC00C128E859
(1502935126.137907) vcan0 284#FA5CF00FDB9FB64E
(1502935126.148105) vcan0 284#2ADDD23B85B76B0C
(1502935126.158217) vcan0 284#74371954BAD2C20F
(1502935126.168578) vcan0 284#C349CA6E1A3C8135
(1502935126.178756) vcan0 284#968F47708F00E307
(1502935126.188919) vcan0 284#96148101853F644B
(1502935126.199180) vcan0 284#212F407AA5D5235F
(1502935126.209474) vcan0 284#C8AB9F19F5C22236
(1502935126.219638) vcan0 284#9F2181173FEC360B
(1502935126.229923) vcan0 284#C5DE5A2659376471
(1502935126.240206) vcan0 284#62A5683C0C57E167
(1502935126.250383) vcan0 284#3DF3924989638F36
(1502935126.260663) vcan0 284#9B8EBF5CB56E276A
(1502935126.270937) vcan0 284#D8008416DB443253
(1502935126.281170) vcan0 284#AC1E6B730DCE4017
(1502935126.291543) vcan0 284#9C6D1A2DA67B5B03
(1502935126.301839) vcan0 284#E86DF765C64AED68
(1502935126.312015) vcan0 284#2B33C70F5CA5103A
(1502935126.322330) vcan0 284#801DB078EE7C917E
(1502935126.332689) vcan0 284#77E1916F17ADF768
(1502935126.343084) vcan0 284#7E7D74060DF61271
(1502935126.353542) vcan0 284#9CEC5B349FACB400
(1502935126.363989) vcan0 284#B2CB36506498FB4D
(1502935126.374289) vcan0 284#956FD73652EDB767
(1502935126.384706) vcan0 284#A38432595A4E325D
(1502935126.395078) vcan0 284#AB241C59062A9B15
(1502935126.405325) vcan0 284#66A51345E917AF22
(1502935126.415774) vcan0 284#8F8D2A4C0134D321
(1502935126.426086) vcan0 284#9E86D60C678EAE62
(1502935126.436255) vcan0 284#DC7805754AA54100
