(1502932516.207354) vcan0 284#73DE681A90F7B445
(1502932516.217762) vcan0 284#8E55A167EA858C19
(1502932516.228019) vcan0 284#9E03050F8B85492E
(1502932516.238341) vcan0 284#F3B1D369A73E2618
(1502932516.248539) vcan0 284#A4A706225AD7C83D
(1502932516.258811) vcan0 284#4E65953F57276266
(1502932516.269012) vcan0 284#FADEDA455EAF4B58
(1502932516.279127) vcan0 284#FCAE274795055D6F
(1502932516.289376) vcan0 284#82F9284BFCC93837
(1502932516.299581) vcan0 284#F8456501C14D5852
(1502932516.309695) vcan0 284#DFE4DE68E990946F
(1502932516.319955) vcan0 284#5C88380CAAE7FF4F
(1502932516.330165) vcan0 284#CC65BD22AD392742
(1502932516.340282) vcan0 284#E33D3C32C36D4616
(1502932516.350529) vcan0 284#45FE331C33E62048
(1502932516.360744) vcan0 284#9A22837EB9DC9C36
(1502932516.370861) vcan0 284#C3DDD50D29782466
(1502932516.381114) vcan0 284#A362295061E1DA1C
(1502932516.391325) vcan0 284#B4FD6D149614FD39
(1502932516.401514) vcan0 284#0920013558A57436
(1502932516.411707) vcan0 284#F0EBC57757859674
(1502932516.421884) vcan0 284#AFCCD61CEBCAA03D
(1502932516.432005) vcan0 284#B534E24CAB7BFE63
(1502932516.442261) vcan0 284#80D0FD2C372E0B18
(1502932516.452477) vcan0 284#A745371B7816632E
(1502932516.462661) vcan0 284#F87B636A862A1604
(1502932516.472983) vcan0 284#62A7F71D54049C76
(1502932516.483202) vcan0 284#311216542E0DB540
(1502932516.493323) vcan0 284#023EC33814505206
(1502932516.503565) vcan0 284#F17AFB56473CF754
(1502932516.513785) vcan0 284#4736734E8C9D7E55
(1502932516.523907) vcan0 284#0019940B0B14495C
(1502932516.534143) vcan0 284#B515A33BA47BBD5B
(1502932516.544356) vcan0 284#6CF5237969131150
(1502932516.554568) vcan0 284#3A90BA157515252E
(1502932516.564839) vcan0 284#C1B885062B7C800D
(1502932516.575053) vcan0 284#CC9ABB2270855C23
(1502932516.585171) vcan0 284#1647214B82CF9D6F
(1502932516.595411) vcan0 284#1C015B0796171F78
(1502932516.605609) vcan0 284#B9FDA807C3469222
(1502932516.615745) vcan0 284#0E2E8226B2790C72
(1502932516.626003) vcan0 284#4A71A82670D57944
(1502932516.636205) vcan0 284#067EA8687B83BE7A
(1502932516.646323) vcan0 284#9EE22E0508BC6B21
(1502932516.656559) vcan0 284#8FD31001905D2A5C
(1502932516.666759) vcan0 284#50F86276D609844F
(1502932516.676875) vcan0 284#1CFBA8315011F701
(1502932516.687113) vcan0 284#E11DCD2BD1104C6D
(1502932516.697319) vcan0 284#F48CB45D4E13F124
(1502932516.707504) vcan0 284#3A245D3D2F1D6F73
(1502932516.717760) vcan0 284#C3281653FBDCE243
(1502932516.727960) vcan0 284#5A99EF0090C3D175
(1502932516.738078) vcan0 284#6B623F6770E0104C
(1502932516.748327) vcan0 284#12936F6587639A6E
(1502932516.758533) vcan0 284#06F82F44CB90186D
(1502932516.768650) vcan0 284#4BAA2C111426B26A
(1502932516.778893) vcan0 284#7D0A255F951BD537
(1502932516.789108) vcan0 284#85FB2B2F8488CD47
(1502932516.799295) vcan0 284#109F933223DE5A34
(1502932516.809557) vcan0 284#8C4439699F72A433
(1502932516.819773) vcan0 284#B33B8510DC3C9C5F
(1502932516.829890) vcan0 284#757C2803CF362E42
(1502932516.840132) vcan0 284#2D4E9361579AF52E
(1502932516.850348) vcan0 284#A0477A2F21DB473F
(1502932516.860526) vcan0 284#A5ADE653DA6BD76C
(1502932516.870765) vcan0 284#50F8B63268D6FC26
(1502932516.880973) vcan0 284#D548BA30AA91A633
(1502932516.891091) vcan0 284#F899CE1C41ABF917
(1502932516.901285) vcan0 284#1A72B77F0A2D3E02
(1502932516.911528) vcan0 284#C80E9406206AE743
(1502932516.921698) vcan0 284#D6BD566F13B9C017
(1502932516.931928) vcan0 284#3590992E53C87B4E
(1502932516.942358) vcan0 284#A8D4954FBA8BC55D
(1502932516.952588) vcan0 284#D7504916B8732902
(1502932516.962934) vcan0 284#DD6920126495827F
(1502932516.973336) vcan0 284#57E6CD3591A5A522
(1502932516.983591) vcan0 284#40D21E5FCD62F638
(1502932516.993825) vcan0 284#60DCD3646D20B240
(1502932517.004062) vcan0 284#24FDEB6701244E14
(1502932517.014310) vcan0 284#8FFBF97FC9AAD23B
(1502932517.024566) vcan0 284#DB8F2501DFF3B032
(1502932517.034980) vcan0 284#3181CF62B1D8DF31
(1502932517.045250) vcan0 284#8A8557662A1B9E7F
(1502932517.055509) vcan0 284#F283D949A4F70E66
(1502932517.065905) vcan0 284#3448DC01BA926D50
(1502932517.076204) vcan0 284#C561F6290A063371
(1502932517.086460) vcan0 284#CE4B2E68FAF18F58
(1502932517.096867) vcan0 284#5ECEAE3F7620C437
(1502932517.107163) vcan0 284#B47D5536351FF855
(1502932517.117424) vcan0 284#2F94ED3991E77548
(1502932517.127844) vcan0 284#99B47A55867ABB6F
(1502932517.138100) vcan0 284#228D1B6BDA869934
(1502932517.148356) vcan0 284#53DDB1288369EF4F
(1502932517.158911) vcan0 284#47A74B7577DA9D10
(1502932517.169199) vcan0 284#848D3D64D6A24575
(1502932517.179493) vcan0 284#4085704C5F1D6365
(1502932517.189820) vcan0 284#B696F6277206402F
(1502932517.200025) vcan0 284#10F64217401C4E0E
(1502932517.210325) vcan0 284#9C21DE2E027A1C61
(1502932517.220630) vcan0 284#E4135D74D069BA30
