(1502934678.783204) vcan0 284#447FE50DB8C62E08
(1502934678.793461) vcan0 284#BEB7FB05B21C6406
(1502934678.803745) vcan0 284#05DF876579B45B08
(1502934678.814364) vcan0 284#3D0A34361629451A
(1502934678.824658) vcan0 284#75268D5CA53D4B3E
(1502934678.834942) vcan0 284#73E3D579D3023528
(1502934678.845250) vcan0 284#0BA3B655D54A471F
(1502934678.855500) vcan0 284#EFCC5815C8A3FE2A
(1502934678.865758) vcan0 284#0A9D8D43515C6C41
(1502934678.875951) vcan0 284#C5539C7B2650AF39
(1502934678.886116) vcan0 284#E780A91E4ABEEE41
(1502934678.896323) vcan0 284#78C7B825CC792A05
(1502934678.906449) vcan0 284#B974083C56BAB555
(1502934678.916571) vcan0 284#53CB5110A63DD70C
(1502934678.926769) vcan0 284#5F84307D9D2CEA5E
(1502934678.936893) vcan0 284#18EDF143A303160B
(1502934678.947071) vcan0 284#56F31867D7A4ED49
(1502934678.957286) vcan0 284#55207A115BD2A04C
(1502934678.967457) vcan0 284#50594952922AAE47
(1502934678.977609) vcan0 284#72FBE566C57FD62E
(1502934678.988961) vcan0 284#3768F905E5DEBB60
(1502934678.999101) vcan0 284#98820B57430BB05B
(1502934679.009277) vcan0 284#BA290300874F646C
(1502934679.019485) vcan0 284#0BAFAE06C4C69043
(1502934679.029606) vcan0 284#D9ABD02DD1024B02
(1502934679.040692) vcan0 284#EB16407DC02C7A4C
(1502934679.050898) vcan0 284#1BC1394463DEF822
(1502934679.061012) vcan0 284#8CA6A451D4354200
(1502934679.071212) vcan0 284#B998AE78DF71F661
(1502934679.081410) vcan0 284#7A73190D181DDF75
(1502934679.091518) vcan0 284#7C9EE04093600B51
(1502934679.101710) vcan0 284#BC20F500D291F927
(1502934679.111903) vcan0 284#6A05F91A11416F12
(1502934679.122010) vcan0 284#2E649A74BA5E426D
(1502934679.132217) vcan0 284#A46B1D5AA05F805B
(1502934679.142419) vcan0 284#7FDE181CDBD31660
(1502934679.152534) vcan0 284#853E3C3C17612473
(1502934679.162694) vcan0 284#1EDFC63B40683F3C
(1502934679.172925) vcan0 284#9EB0885F2A8E7542
(1502934679.183030) vcan0 284#042FD07F775C590D
(1502934679.193240) vcan0 284#FB90C044EF45107D
(1502934679.203442) vcan0 284#3789D3591652FA08
(1502934679.213554) vcan0 284#52240920C32F782B
(1502934679.223754) vcan0 284#EB873C090BBDB718
(1502934679.233946) vcan0 284#A2A16E0D65FB5516
(1502934679.244134) vcan0 284#24DA960E1F404F4E
(1502934679.254365) vcan0 284#F85B6167E0FA8B0F
(1502934679.264558) vcan0 284#F1D1487662615A02
(1502934679.274675) vcan0 284#F13BFB211F36E36A
(1502934679.284861) vcan0 284#1CC09C6F95A7187C
(1502934679.295053) vcan0 284#BF9563469B9EB50B
(1502934679.305160) vcan0 284#717B2F5C45D49F02
(1502934679.315356) vcan0 284#B2FFD97E8F5AF617
(1502934679.325544) vcan0 284#853CDF3E51B0625E
(1502934679.335650) vcan0 284#B9E86B5A896BAF3E
(1502934679.345899) vcan0 284#C80CBC6BB4792C1F
(1502934679.356081) vcan0 284#79B1BF3B00968F45
(1502934679.366237) vcan0 284#CBCB2628CBD5C85B
(1502934679.376453) vcan0 284#C3C50771B6536331
(1502934679.386643) vcan0 284#D79280746667767E
(1502934679.396750) vcan0 284#1B4FB947FB6C1703
(1502934679.406942) vcan0 284#85A7C54C14AB1A2F
(1502934679.417129) vcan0 284#DB67A31276790E43
(1502934679.427234) vcan0 284#760C7531CCA39E34
(1502934679.437430) vcan0 284#96AFF12D93CC1121
(1502934679.447640) vcan0 284#624BB73055455574
(1502934679.457762) vcan0 284#2E6BC72CD3C6E60C
(1502934679.467942) vcan0 284#9A19F576E16AA12B
(1502934679.478178) vcan0 284#6221DD241F56D435
(1502934679.488359) vcan0 284#321B040A1C0A497F
(1502934679.498552) vcan0 284#A9C18374FA27C075
(1502934679.508758) vcan0 284#D083751E22734330
(1502934679.518872) vcan0 284#FABD4F3B9B4F9C46
(1502934679.529042) vcan0 284#ED480C0CBE83572C
(1502934679.539232) vcan0 284#51A3FF77C4DB8C00
(1502934679.549420) vcan0 284#24EBCD2A6DF2B83F
(1502934679.559613) vcan0 284#BF48A403A9929377
(1502934679.569865) vcan0 284#819DD36E9AB04716
(1502934679.580025) vcan0 284#1F0CA23AF7A94820
(1502934679.590238) vcan0 284#6754E64AB5BB9368
(1502934679.600617) vcan0 284#8A765A41C99F9D7B
(1502934679.610909) vcan0 284#0B01E95CB9E1216E
(1502934679.621156) vcan0 284#9C668408A51ADE53
(1502934679.631501) vcan0 284#9A4CC319FE87612D
(1502934679.641791) vcan0 284#C570B209CC67C723
(1502934679.652073) vcan0 284#1A92AA2C6E32367E
(1502934679.662430) vcan0 284#C68F8719EB15204B
(1502934679.672680) vcan0 284#90A5792EC14DD754
(1502934679.683028) vcan0 284#8665BC117DEE853A
(1502934679.693347) vcan0 284#7FD12E01D808BC09
(1502934679.703657) vcan0 284#42CA123BA3BCFC2B
(1502934679.713898) vcan0 284#45FB74490113B73E
(1502934679.724241) vcan0 284#4C4F9023C6984838
(1502934679.734545) vcan0 284#9CC3FE546B5B325E
(1502934679.745852) vcan0 284#BD4291580318E51F
(1502934679.756159) vcan0 284#2117C64648B9EB19
(1502934679.766447) vcan0 284#CCB7821B2C18AF23
(1502934679.776729) vcan0 284#019B0D08681E0724
(1502934679.787056) vcan0 284#D1328D779BE7D021
(1502934679.797338) vcan0 284#66A6685196A33F01
