(1502935212.357706) vcan0 284#225A797EA0C7F127
(1502935212.367990) vcan0 284#6151431F82641555
(1502935212.378162) vcan0 284#49690A5A7950BE68
(1502935212.388406) vcan0 284#948C71159021FB03
(1502935212.398664) vcan0 284#B83DC8142D44C556
(1502935212.408843) vcan0 284#1BC122791435A000
(1502935212.419190) vcan0 284#46A927119674CD57
(1502935212.429403) vcan0 284#FAFFE9540554AA52
(1502935212.439559) vcan0 284#BAB87415D4227800
(1502935212.449861) vcan0 284#798A7A14D6365055
(1502935212.460036) vcan0 284#B41A025C582C1F3B
(1502935212.470182) vcan0 284#746A5079A3BD1420
(1502935212.480499) vcan0 284#6C6D66331C122C23
(1502935212.490685) vcan0 284#4585AC38FE2AE865
(1502935212.500794) vcan0 284#C882547B42DC2771
(1502935212.511080) vcan0 284#DC89AA7EEADCCD79
(1502935212.521276) vcan0 284#E2A319193EDBED1D
(1502935212.531416) vcan0 284#6C41E34E2C0D2473
(1502935212.541695) vcan0 284#B72BAC0600CE5464
(1502935212.551894) vcan0 284#BC2E1F776F69741B
(1502935212.562006) vcan0 284#2E121A3BD7EF4170
(1502935212.572332) vcan0 284#849E141C74BB414C
(1502935212.582522) vcan0 284#6D640F487E9EFE70
(1502935212.592674) vcan0 284#790FEC1E281D845D
(1502935212.602987) vcan0 284#52C17671F3996633
(1502935212.613187) vcan0 284#FE53D43206DC784D
(1502935212.623361) vcan0 284#4BC6856E73BE242C
(1502935212.633752) vcan0 284#A9998D6DB733EC21
(1502935212.643972) vcan0 284#8FD0504FEE1E3A26
(1502935212.654086) vcan0 284#B65ED4075753A54A
(1502935212.664422) vcan0 284#31FB611792E87E06
(1502935212.674599) vcan0 284#41307344139F7B30
(1502935212.684707) vcan0 284#D0C36C24AE715613
(1502935212.694885) vcan0 284#3FAC9F2388EF182B
(1502935212.705079) vcan0 284#AE3FAB77FBDABE1A
(1502935212.715181) vcan0 284#F7588D46DC51C532
(1502935212.725591) vcan0 284#D2CA000B7BF7A162
(1502935212.735771) vcan0 284#500D077F402F1053
(1502935212.745878) vcan0 284#F995A053CA1CF31D
(1502935212.756151) vcan0 284#684C94304C571745
(1502935212.766350) vcan0 284#BDB6595166A06863
(1502935212.776500) vcan0 284#52339012087DDF3F
(1502935212.786790) vcan0 284#D95E8D0FFCCC1D00
(1502935212.796967) vcan0 284#BFB0CB61692FDE5E
(1502935212.807072) vcan0 284#EAEB5726750FA069
(1502935212.817416) vcan0 284#C08283291BE7B93D
(1502935212.827620) vcan0 284#08F81E7002B3F66D
(1502935212.837772) vcan0 284#2F86356ED8BB8B14
(1502935212.847962) vcan0 284#B0244D016E32D511
(1502935212.858154) vcan0 284#60ABA43F5E64F878
(1502935212.868263) vcan0 284#6A0D942C58043206
(1502935212.878631) vcan0 284#3BB6BD2B3CD89437
(1502935212.888851) vcan0 284#D3FBD3688BC3C42A
(1502935212.899002) vcan0 284#7C07A50ACD91743C
(1502935212.909408) vcan0 284#55E0B748E453393B
(1502935212.919620) vcan0 284#19E98B011297111A
(1502935212.929742) vcan0 284#4BF4A11E6B1C1C14
(1502935212.940140) vcan0 284#1A14F15924532F2E
(1502935212.950384) vcan0 284#67E93914DAC4BC3B
(1502935212.960498) vcan0 284#8D820D0D52D5913A
(1502935212.970777) vcan0 284#4FD45C254E059136
(1502935212.980956) vcan0 284#6DBC4B7857CC7B15
(1502935212.991065) vcan0 284#50B887249C428166
(1502935213.001457) vcan0 284#3088072A00DDD425
(1502935213.011662) vcan0 284#0B7556789033AC69
(1502935213.021826) vcan0 284#5E41CD1E7582EA24
(1502935213.032114) vcan0 284#E837DE6F99F78A4A
(1502935213.042299) vcan0 284#B15A7F5CBC33B258
(1502935213.052408) vcan0 284#25BB4F752E622467
(1502935213.062677) vcan0 284#89C526157A9B073E
(1502935213.073007) vcan0 284#12B65D22A2AEB216
(1502935213.083163) vcan0 284#8D3219585DAAFF40
(1502935213.093422) vcan0 284#0DCBCE2AA7460A32
(1502935213.103707) vcan0 284#82FD2E6F75B4083F
(1502935213.113948) vcan0 284#810BC76D0F803C7C
(1502935213.124260) vcan0 284#C7899A79D1DF2313
(1502935213.134556) vcan0 284#5D85CD323446E671
(1502935213.144809) vcan0 284#28AC9F28AD3D5557
(1502935213.155135) vcan0 284#D18867585834A752
(1502935213.165439) vcan0 284#AD1A2A7DDCFDBD50
(1502935213.175708) vcan0 284#E967533C0C5CF71B
(1502935213.186019) vcan0 284#5180A875D19F312C
(1502935213.196296) vcan0 284#A553826602DB2752
(1502935213.206507) vcan0 284#8DD3E304CA0ED25B
(1502935213.216848) vcan0 284#303D4C3916990A1A
(1502935213.227162) vcan0 284#45AAD91943F3A95B
(1502935213.237435) vcan0 284#B847BD30D2DCF271
(1502935213.247780) vcan0 284#A09DA91CC6128C5B
(1502935213.258093) vcan0 284#7923FD23229BD80B
(1502935213.268312) vcan0 284#3BC7941AFB2EC411
(1502935213.278638) vcan0 284#321B150802512F14
(1502935213.288947) vcan0 284#CC0EE8248FA0E23A
(1502935213.299208) vcan0 284#36971506F4BA874D
(1502935213.309576) vcan0 284#3DDE371207207D5E
(1502935213.319896) vcan0 284#4DEF2E20EAF8610F
(1502935213.330154) vcan0 284#E31D3B2F3657825C
(1502935213.340473) vcan0 284#F654592B349EE324
(1502935213.350756) vcan0 284#07F7B3089CA8DB11
(1502935213.360935) vcan0 284#37790B7795CA970D
(1502935213.371236) vcan0 284#66B7AD6D67B65730
