(1502932415.764517) vcan0 284#AE10384574844F01
(1502932415.864795) vcan0 284#B875D017DD52B30C
(1502932415.965064) vcan0 284#DC33A05E3652CA17
(1502932416.065357) vcan0 284#3AA9F73970EFDC00
(1502932416.165626) vcan0 284#2AFEC475B7AD2F17
(1502932416.265896) vcan0 284#AB381542EE2EEC7A
(1502932416.366165) vcan0 284#072BB246BEDF2C1A
(1502932416.466436) vcan0 284#F41DC4320A358C5A
(1502932416.566706) vcan0 284#9DDF3519A81D580A
(1502932416.666976) vcan0 284#F3C00B05AB433164
(1502932416.767245) vcan0 284#F53ACC217ED13515
(1502932416.867511) vcan0 284#6241CE177BEB6362
(1502932416.967777) vcan0 284#FDF74F5A9C216441
(1502932417.068042) vcan0 284#A2D133325660B214
(1502932417.168319) vcan0 284#6D38554288305F7C
(1502932417.268594) vcan0 284#B47A39401B498D07
(1502932417.368865) vcan0 284#FCB4AE7D6CF00958
(1502932417.469131) vcan0 284#F99B4014D9E84E5C
(1502932417.569399) vcan0 284#A242D46F3345384E
(1502932417.669674) vcan0 284#49D82B5DCC409965
(1502932417.769944) vcan0 284#EAF26765F410411F
(1502932417.870213) vcan0 284#BB6F8560F21D1A2C
(1502932417.970479) vcan0 284#B3F06D39AF8D4913
(1502932418.070745) vcan0 284#FC52A60650D0A352
(1502932418.171009) vcan0 284#57ABA11DF013B20B
(1502932418.271255) vcan0 284#FB13D5364DE66D3F
(1502932418.371496) vcan0 284#6EE5E7205D55A34E
(1502932418.471760) vcan0 284#C8D1D1216BDD377B
(1502932418.572031) vcan0 284#FA7607106AA30554
(1502932418.672292) vcan0 284#C23DEA0F67AF5C52
(1502932418.772550) vcan0 284#F2D3645076B82350
(1502932418.872813) vcan0 284#83F8E959EE88134E
(1502932418.973138) vcan0 284#E3A82D287C942A6E
(1502932419.073419) vcan0 284#C771622A85EB0118
(1502932419.173698) vcan0 284#AFD9623C104A8E07
(1502932419.273968) vcan0 284#522C9B7D99CCCA21
(1502932419.374237) vcan0 284#055BCF260D9C205E
(1502932419.474512) vcan0 284#8BEAE44DB84B3D60
(1502932419.574780) vcan0 284#BC296A71883D8B54
(1502932419.675052) vcan0 284#081CE13214D50B0F
(1502932419.775322) vcan0 284#78513D600330B669
(1502932419.875597) vcan0 284#61BB794EE6362501
(1502932419.975857) vcan0 284#61855938298D4B70
(1502932420.076126) vcan0 284#51145D7C5BFC6048
(1502932420.176403) vcan0 284#933051441352470C
(1502932420.276670) vcan0 284#C2ABBD1A8504B614
(1502932420.376932) vcan0 284#8A0A6B5C45A4A774
(1502932420.477204) vcan0 284#738DC9626DB39804
(1502932420.577475) vcan0 284#C138D2623BFF2B0D
(1502932420.677747) vcan0 284#F29E9A1C7012351F
(1502932420.778016) vcan0 284#4B49BA1444CB351A
(1502932420.878283) vcan0 284#0ADFFF4050A4893B
(1502932420.978554) vcan0 284#5167567895C9E40E
(1502932421.078824) vcan0 284#08F0C61B0E91C069
(1502932421.179096) vcan0 284#1D077063100CA84E
(1502932421.279363) vcan0 284#2266CC789558AD43
(1502932421.379629) vcan0 284#143C5E3883214647
(1502932421.479890) vcan0 284#7B8FD24475C1B770
(1502932421.580155) vcan0 284#ACAE9137CDA32F41
(1502932421.680427) vcan0 284#D0BD18393FDFE27B
(1502932421.780692) vcan0 284#E0F5764D9269D653
(1502932421.880957) vcan0 284#C4E398106A00E229
(1502932421.981230) vcan0 284#D80D7E4837716273
(1502932422.081495) vcan0 284#D7B37A2E9946502B
(1502932422.181766) vcan0 284#72708E00CA52154B
(1502932422.282027) vcan0 284#0A59854ABEB94815
(1502932422.382300) vcan0 284#0E1E4B651438850B
(1502932422.482568) vcan0 284#0E5ED2506085A15D
(1502932422.582905) vcan0 284#A9016A1A174E996C
(1502932422.683167) vcan0 284#6E166247C708DA7D
(1502932422.783456) vcan0 284#275A413B907C2E40
(1502932422.883721) vcan0 284#5C6187413B969F73
(1502932422.983983) vcan0 284#139E7407D8F05906
(1502932423.084270) vcan0 284#B0575764BF4C063F
(1502932423.184541) vcan0 284#A59489478015701D
(1502932423.284821) vcan0 284#FE2BE93A858A0015
(1502932423.385089) vcan0 284#137F4671C20F824B
(1502932423.485367) vcan0 284#F08AE23EEB8CC439
(1502932423.585642) vcan0 284#F980E43EC73E5D6D
(1502932423.685910) vcan0 284#84D314656CF1723F
(1502932423.786179) vcan0 284#919172388E2C9A2F
(1502932423.886446) vcan0 284#2AABBB54A0AFBD1D
(1502932423.986718) vcan0 284#A2641F3B38098E25
(1502932424.086977) vcan0 284#00355F7B4C668955
(1502932424.187236) vcan0 284#4F5727126E4BC142
(1502932424.287494) vcan0 284#136F635377B1684D
(1502932424.387748) vcan0 284#FEC7EF026FD0EA14
(1502932424.487987) vcan0 284#B24708411166640A
(1502932424.588236) vcan0 284#47C1441B639F5F25
(1502932424.688509) vcan0 284#D0B26A49EC55CE62
(1502932424.788781) vcan0 284#E3B4CF42CEDE5304
(1502932424.889054) vcan0 284#72E0CE77F6331634
(1502932424.989321) vcan0 284#90EED54F626BB136
(1502932425.089586) vcan0 284#E1C0DA6D896FBA0E
(1502932425.189858) vcan0 284#29AA0E246694EF52
(1502932425.290133) vcan0 284#F5602D4EBB3B815C
(1502932425.390406) vcan0 284#F4C089021F0CE922
(1502932425.490682) vcan0 284#5BEB3E7A9725A93D
(1502932425.590964) vcan0 284#581577485B209E75
(1502932425.691243) vcan0 284#E38B3213A76C9E5A
