(1502934681.808760) vcan0 284#F8757F100E16B507
(1502934681.819130) vcan0 284#FF39CD376908CD60
(1502934681.829474) vcan0 284#8506C0073D956525
(1502934681.839664) vcan0 284#7021E13072CFC931
(1502934681.850098) vcan0 284#2FD4BC753E8C0E09
(1502934681.860745) vcan0 284#6DDC0D70DB713909
(1502934681.871511) vcan0 284#578BBF1655AB5A51
(1502934681.882237) vcan0 284#E8930E09518D7529
(1502934681.893238) vcan0 284#BDDDDB37C6FA0F18
(1502934681.903836) vcan0 284#8BDF9566A9C85E20
(1502934681.914212) vcan0 284#D823DF1551673133
(1502934681.924428) vcan0 284#01645A74D0F82B5B
(1502934681.934552) vcan0 284#716400214331EB65
(1502934681.944735) vcan0 284#FF126617C88FC53F
(1502934681.954949) vcan0 284#550C324E9A2A7171
(1502934681.965137) vcan0 284#96D7F6414D82B15E
(1502934681.975331) vcan0 284#A94026799511C479
(1502934681.985532) vcan0 284#B68A7E3F2E47E600
(1502934681.995704) vcan0 284#D2A6291F27AC5F70
(1502934682.005887) vcan0 284#A016B032027BE614
(1502934682.016078) vcan0 284#65386E790DF3BD22
(1502934682.026204) vcan0 284#DDEC1F1EBCC32D10
(1502934682.036386) vcan0 284#629E1874C6802E27
(1502934682.046598) vcan0 284#0E51A3391F7CF42B
(1502934682.056728) vcan0 284#8C7B3E3F99303920
(1502934682.066917) vcan0 284#C844534C649F1D55
(1502934682.077130) vcan0 284#EA976A53C9A8AD40
(1502934682.087315) vcan0 284#359849305BFC6A74
(1502934682.097517) vcan0 284#0CDA982634ABAF47
(1502934682.107726) vcan0 284#238C303461E6CA74
(1502934682.117850) vcan0 284#CFD52039B9632776
(1502934682.128043) vcan0 284#AF687C5378164732
(1502934682.138258) vcan0 284#4E75EB6F65F3FA12
(1502934682.148386) vcan0 284#A65D2D33211C150F
(1502934682.158583) vcan0 284#8C9F5A034674DD65
(1502934682.168798) vcan0 284#2397FB23F2D7C87C
(1502934682.178929) vcan0 284#53679B0800841B42
(1502934682.189111) vcan0 284#AE9BF60CB505B47C
(1502934682.199314) vcan0 284#C6044A69BCEC9946
(1502934682.209435) vcan0 284#D481A82852808828
(1502934682.219621) vcan0 284#561DD3669DC6FB74
(1502934682.229832) vcan0 284#B71FA67D40B53D3A
(1502934682.239956) vcan0 284#666FA935ECB7EF2D
(1502934682.250147) vcan0 284#9CB1A82E7349425C
(1502934682.260425) vcan0 284#20639F75BF3DD962
(1502934682.270572) vcan0 284#D42F0D51EF38C02E
(1502934682.280761) vcan0 284#79A1005983988924
(1502934682.290978) vcan0 284#674F0761C716EC48
(1502934682.301109) vcan0 284#E98B84370DAD3414
(1502934682.311303) vcan0 284#E8320158752BDF3A
(1502934682.321516) vcan0 284#5321127A0BCAFC7B
(1502934682.331642) vcan0 284#6703A837A688AD02
(1502934682.341835) vcan0 284#0C4E183E169F9E44
(1502934682.352046) vcan0 284#5B8E617FD2526227
(1502934682.362245) vcan0 284#D28B380B30100A28
(1502934682.372442) vcan0 284#25D3EA4F28A90B72
(1502934682.382645) vcan0 284#CDD6051DDCF2904D
(1502934682.392848) vcan0 284#695E492C3346AF52
(1502934682.403049) vcan0 284#C8AA807B0510F25A
(1502934682.413254) vcan0 284#A68FF12EE80D2071
(1502934682.423375) vcan0 284#C44DCB3D7BBFFE7F
(1502934682.433558) vcan0 284#D846E01F3DEFCB16
(1502934682.443750) vcan0 284#FE5788243F96E700
(1502934682.453878) vcan0 284#0506B85FE7E30C5C
(1502934682.464103) vcan0 284#4D431C15ED38B937
(1502934682.474304) vcan0 284#5D0FEC16A0642E0F
(1502934682.484491) vcan0 284#F902B633C412944E
(1502934682.494692) vcan0 284#47EDDB110551CE71
(1502934682.504910) vcan0 284#DAB13213A27B3D11
(1502934682.515034) vcan0 284#D7A33019AD3D6B1E
(1502934682.525223) vcan0 284#D28B4739FC761B69
(1502934682.535439) vcan0 284#D5E676109F624D56
(1502934682.545565) vcan0 284#D869AC363E45C03C
(1502934682.555745) vcan0 284#D3A8FC28A0142D32
(1502934682.565963) vcan0 284#4355B2177938EE57
(1502934682.576131) vcan0 284#89224D2308A37D55
(1502934682.586398) vcan0 284#F4F7EC5761692D43
(1502934682.596693) vcan0 284#4592496CF34F757C
(1502934682.606923) vcan0 284#A0FF14444A98014C
(1502934682.617284) vcan0 284#DA338258ED423159
(1502934682.627692) vcan0 284#38D1BA0337436E6F
(1502934682.637898) vcan0 284#8EA75F6831D47037
(1502934682.648254) vcan0 284#FC55023ED5943B7A
(1502934682.658631) vcan0 284#36253F29D6073551
(1502934682.668906) vcan0 284#7710790B0DC96F42
(1502934682.679251) vcan0 284#8345A06F4A9CC044
(1502934682.689563) vcan0 284#0A408B2B592C1700
(1502934682.699747) vcan0 284#E9FE0D1BE2A93762
(1502934682.710046) vcan0 284#9771D73CBCA70A44
(1502934682.720371) vcan0 284#83BE6414DBC68954
(1502934682.730629) vcan0 284#36E0F81B0CE1B137
(1502934682.740984) vcan0 284#E369072A2AD8E573
(1502934682.751301) vcan0 284#6D4ADF7A28FC5016
(1502934682.761492) vcan0 284#1D285B700D4AF43E
(1502934682.771818) vcan0 284#73945262F85BDD48
(1502934682.782145) vcan0 284#FB8C2518AB650D66
(1502934682.792431) vcan0 284#2F9F4B3889348500
(1502934682.802796) vcan0 284#DC397E1D2BF54D76
(1502934682.813180) vcan0 284#5EC9C07A125FBD46
(1502934682.823373) vcan0 284#02FD8247D5D93906
