(1502935127.318138) vcan0 284#15964D4F7FD90C5C
(1502935127.328494) vcan0 284#C435767A55D2EA3E
(1502935127.338767) vcan0 284#1DFE1D285C5F706D
(1502935127.349131) vcan0 284#59BD2B705B267D0E
(1502935127.359465) vcan0 284#0FD9FB0267D23C0E
(1502935127.369733) vcan0 284#C53D475590D2ED0D
(1502935127.380034) vcan0 284#9E3F793B59443C56
(1502935127.390355) vcan0 284#43948A03BA4ED94C
(1502935127.400703) vcan0 284#7AF661051971BA26
(1502935127.411219) vcan0 284#BDEEFD08333F8D57
(1502935127.421644) vcan0 284#9CE94B3EC191A07A
(1502935127.431829) vcan0 284#3C1AE342C81DF34E
(1502935127.441942) vcan0 284#CDDBF8542AC7E248
(1502935127.452260) vcan0 284#B33AFE4136A08C70
(1502935127.462460) vcan0 284#E2430C7BABD01A2D
(1502935127.472577) vcan0 284#28DA1E61F7D9594A
(1502935127.482965) vcan0 284#2AAA2709EC0F955B
(1502935127.493176) vcan0 284#4CAC440947A84531
(1502935127.503293) vcan0 284#486F0549A6697079
(1502935127.513698) vcan0 284#A3CEC23F5848014C
(1502935127.523933) vcan0 284#0D3CAD07680C0A15
(1502935127.534063) vcan0 284#E81AEF59AB7B2643
(1502935127.544437) vcan0 284#C150466B2BAF795D
(1502935127.554661) vcan0 284#65CAFF0F3C47A870
(1502935127.564784) vcan0 284#4420340422B9FD18
(1502935127.575105) vcan0 284#6F863548E0098042
(1502935127.585308) vcan0 284#E34A9E13ABA0180B
(1502935127.595477) vcan0 284#A8277311B0269768
(1502935127.605819) vcan0 284#D567FB535B627153
(1502935127.616036) vcan0 284#E6C62359B7AB074F
(1502935127.626153) vcan0 284#06338C000EA1423A
(1502935127.636443) vcan0 284#AE85611931DDB309
(1502935127.646644) vcan0 284#FBB0D715FB31A622
(1502935127.656758) vcan0 284#7885F93A4320DD5E
(1502935127.667141) vcan0 284#A19B161C1B54BC7A
(1502935127.677332) vcan0 284#9B68DE2AAED7C323
(1502935127.687508) vcan0 284#8360C60F8383CD04
(1502935127.697837) vcan0 284#5953EA6645B10C7B
(1502935127.708049) vcan0 284#AF324762BF1DEA76
(1502935127.718172) vcan0 284#81F8B46BF3527B66
(1502935127.728495) vcan0 284#E1D6E70FF07EEA33
(1502935127.738686) vcan0 284#D45CFB28C5218623
(1502935127.748837) vcan0 284#9C1F033F7C846E3A
(1502935127.759170) vcan0 284#75481D0C7187FE12
(1502935127.769364) vcan0 284#D8E6DF0D5C0F4165
(1502935127.779524) vcan0 284#29330662DE196C0E
(1502935127.789835) vcan0 284#6AB0831FD7B8677B
(1502935127.800088) vcan0 284#0FF71F1865615B35
(1502935127.810240) vcan0 284#D2EA0D1E887C1953
(1502935127.820594) vcan0 284#A98138147386243A
(1502935127.830791) vcan0 284#A3D0D54D44EA163F
(1502935127.840918) vcan0 284#215EE85D27319C5D
(1502935127.851362) vcan0 284#C86DE4437BB1D244
(1502935127.861555) vcan0 284#6CE2A85877A02B26
(1502935127.871675) vcan0 284#3ACFBC3BEDDA5D44
(1502935127.882000) vcan0 284#6AF3A60C1BA6A44B
(1502935127.892214) vcan0 284#DD5948783E50A235
(1502935127.902329) vcan0 284#E0C72A6F79794B37
(1502935127.912650) vcan0 284#BBD410705610487B
(1502935127.922903) vcan0 284#EB004A4A93BBF07D
(1502935127.933019) vcan0 284#B21F89601434502C
(1502935127.943333) vcan0 284#71D55C0C1CD00C00
(1502935127.953553) vcan0 284#EBECB72781CC7C24
(1502935127.963665) vcan0 284#82316835BED7C545
(1502935127.973992) vcan0 284#094996772BB3A049
(1502935127.984255) vcan0 284#315EEA7FAC196C45
(1502935127.994435) vcan0 284#6F9DB70853BCD25D
(1502935128.004780) vcan0 284#D34A0823370B9C4C
(1502935128.014981) vcan0 284#CE6DA5223F2DB17B
(1502935128.025091) vcan0 284#AEABC772083D625E
(1502935128.035448) vcan0 284#2C080F40199F6E7F
(1502935128.045635) vcan0 284#23E3062A0A625738
(1502935128.055788) vcan0 284#57EF103504AB3119
(1502935128.066120) vcan0 284#83DBA26F12C42125
(1502935128.076316) vcan0 284#5ABB79146EDCEC39
(1502935128.086427) vcan0 284#A57F12230CDB0275
(1502935128.096750) vcan0 284#82103D6617556F2F
(1502935128.106938) vcan0 284#28AB0F756EFDF40D
(1502935128.117159) vcan0 284#9821EC53AADC772A
(1502935128.127484) vcan0 284#2CD5BA53A16A824B
(1502935128.137776) vcan0 284#D58F18745D33A553
(1502935128.147946) vcan0 284#4D84EE10452DD07C
(1502935128.158297) vcan0 284#B0EF773121CFF633
(1502935128.168590) vcan0 284#7C386C497E5D1D54
(1502935128.178759) vcan0 284#60FCA72F2BE4333C
(1502935128.189066) vcan0 284#869A7F328D04B76F
(1502935128.199346) vcan0 284#4483A23BAA7D865C
(1502935128.209534) vcan0 284#97660E289B72B370
(1502935128.219809) vcan0 284#AE28B8751A42B117
(1502935128.230190) vcan0 284#AE36D51508E4310A
(1502935128.240370) vcan0 284#891E9E5153B6E738
(1502935128.250652) vcan0 284#14BF347F0B2FDB37
(1502935128.260966) vcan0 284#6A0B57683C6A4474
(1502935128.271142) vcan0 284#792CD045022D433C
(1502935128.281467) vcan0 284#E746BC1EA5018B19
(1502935128.291757) vcan0 284#A397C507BCD6D412
(1502935128.301938) vcan0 284#0335306DF11BB418
(1502935128.312252) vcan0 284#0104A50FB324A81E
(1502935128.322603) vcan0 284#12EBAA4C7E3C1159
(1502935128.332784) vcan0 284#3282C57272E7527C
