(1502932520.026573) vcan0 284#47AB2D4C652A5538
(1502932520.037057) vcan0 284#55431B122787317E
(1502932520.047358) vcan0 284#8EC410689A58F83C
(1502932520.057555) vcan0 284#F8FD257AD3375C28
(1502932520.067908) vcan0 284#86964635590D2140
(1502932520.078222) vcan0 284#B5259401C7F87658
(1502932520.088438) vcan0 284#5D6185602299C75A
(1502932520.098600) vcan0 284#8E60371B81337011
(1502932520.108833) vcan0 284#537D78617F8D672A
(1502932520.119025) vcan0 284#657DA62A8818127B
(1502932520.129170) vcan0 284#D505A569B1492729
(1502932520.139427) vcan0 284#B1CC4C7628168D25
(1502932520.149625) vcan0 284#0BD0C524E1B74661
(1502932520.159792) vcan0 284#8ACF1405BC06455E
(1502932520.170027) vcan0 284#3C391C10BB54BC7C
(1502932520.180226) vcan0 284#378CEA0883E4495C
(1502932520.190342) vcan0 284#207F11358CCF051B
(1502932520.200585) vcan0 284#AB6B7B5AAE43221D
(1502932520.210793) vcan0 284#2628FE57A369A154
(1502932520.220964) vcan0 284#817B7E45ADBE440D
(1502932520.231217) vcan0 284#FC76C21436A11247
(1502932520.241428) vcan0 284#74B7BB655AD84775
(1502932520.251548) vcan0 284#583ADA210318F300
(1502932520.261791) vcan0 284#DB0BB806ABB75203
(1502932520.271999) vcan0 284#82A55A2B40895E31
(1502932520.282177) vcan0 284#33D0647E58ABFF14
(1502932520.292422) vcan0 284#F1D2855AE49CB174
(1502932520.302631) vcan0 284#80C18C3AFDA24B7F
(1502932520.312750) vcan0 284#C554F8550A91A13F
(1502932520.323042) vcan0 284#B9A9905D028E1466
(1502932520.333257) vcan0 284#C5E55D3CF0357B66
(1502932520.343378) vcan0 284#85725E42E5646F71
(1502932520.353582) vcan0 284#7C05810130DED91C
(1502932520.363796) vcan0 284#93A8910EA32D7F59
(1502932520.373915) vcan0 284#D3477B7114241054
(1502932520.384119) vcan0 284#50ECC366D0BE3D06
(1502932520.394324) vcan0 284#4AC5221BC4A37F4C
(1502932520.404446) vcan0 284#2A97857BA2FFFC3C
(1502932520.414655) vcan0 284#C7BB724D05A33D02
(1502932520.424855) vcan0 284#4EB74F404A61CD78
(1502932520.434970) vcan0 284#452C9C338187B43E
(1502932520.445183) vcan0 284#A20CCD0D37FF210E
(1502932520.455394) vcan0 284#6624663322CE5948
(1502932520.465513) vcan0 284#34A26D0D2B795E09
(1502932520.475728) vcan0 284#2C5FFB07ED4BFE6A
(1502932520.485943) vcan0 284#2D07736FF1445944
(1502932520.496062) vcan0 284#DE817951B379D131
(1502932520.506278) vcan0 284#D6A9C8355A87FA52
(1502932520.516469) vcan0 284#E357AB4E69525A44
(1502932520.526652) vcan0 284#FDB4792CB79F2640
(1502932520.536887) vcan0 284#7D766A184DA13D13
(1502932520.547090) vcan0 284#875E6446C73B8D33
(1502932520.557206) vcan0 284#1245BD5FB1F5E941
(1502932520.567428) vcan0 284#693B8A70D900302D
(1502932520.577617) vcan0 284#B6982744B7F2D930
(1502932520.587784) vcan0 284#2362FD25FBC4C377
(1502932520.598019) vcan0 284#397A8E6FC56ECA33
(1502932520.608222) vcan0 284#32C4E5059F9EF422
(1502932520.618338) vcan0 284#E73C247C66665313
(1502932520.628564) vcan0 284#CA17532C139C1F04
(1502932520.638774) vcan0 284#54B2517EF81EC61B
(1502932520.648892) vcan0 284#04E178483234CB4F
(1502932520.659113) vcan0 284#AB98974DDA8A417E
(1502932520.669327) vcan0 284#8CBBC5228EF0421C
(1502932520.679511) vcan0 284#43DD9B428A703F4F
(1502932520.689750) vcan0 284#4590695CC053065B
(1502932520.699952) vcan0 284#D7117D62CCEECD22
(1502932520.710070) vcan0 284#878F930EE9563A42
(1502932520.720265) vcan0 284#7DE4B764F1CA1D7F
(1502932520.730473) vcan0 284#C3576A6F337DDF28
(1502932520.740595) vcan0 284#A8BDF72FE6B96715
(1502932520.750817) vcan0 284#2F42A320E137861F
(1502932520.761052) vcan0 284#AC28324961068926
(1502932520.771211) vcan0 284#80D67A4293655645
(1502932520.781475) vcan0 284#C86CDC394BEECD6E
(1502932520.791807) vcan0 284#A70176491C1F2E38
(1502932520.801996) vcan0 284#430D940AABE2EE11
(1502932520.812270) vcan0 284#4E53F907EEA52B58
(1502932520.822535) vcan0 284#866D3010DA0EBF2A
(1502932520.832788) vcan0 284#7C966E74C94ACC52
(1502932520.843116) vcan0 284#647FFE79C226D850
(1502932520.853411) vcan0 284#8A9ED22D3C917B5C
(1502932520.863645) vcan0 284#8E15A673112E663C
(1502932520.873897) vcan0 284#25E8B51E0CFA5D58
(1502932520.884287) vcan0 284#02F9833BE83F200E
(1502932520.894551) vcan0 284#3F773D01ABB67B6B
(1502932520.904821) vcan0 284#CFF987236EB9E021
(1502932520.915220) vcan0 284#8CEE010B7B22BA6C
(1502932520.925500) vcan0 284#D0BF69480DC57C4D
(1502932520.935777) vcan0 284#0E881032982C4602
(1502932520.946090) vcan0 284#58B34A3CB589867B
(1502932520.956273) vcan0 284#B44B743A9BC0DE46
(1502932520.966566) vcan0 284#616C750D029F6D42
(1502932520.976978) vcan0 284#89660A1FE7D9A51D
(1502932520.987239) vcan0 284#DCAD2C6D05FD7813
(1502932520.997520) vcan0 284#B0247270412D2B67
(1502932521.007828) vcan0 284#C72351643AC3441E
(1502932521.018041) vcan0 284#7DBEA6435639F757
(1502932521.028345) vcan0 284#4CF1AA5AA2A65C62
(1502932521.038787) vcan0 284#623355304EEA2E16
