(1502934409.050631) vcan0 284#87A0FD3F6C7AAC5D
(1502934409.060848) vcan0 284#66117E0C75DB4242
(1502934409.071185) vcan0 284#2CC30C0C40919D52
(1502934409.081381) vcan0 284#3803F7648CF77771
(1502934409.091616) vcan0 284#788F3B046BB8E967
(1502934409.101832) vcan0 284#69AB4D1DEE65CC6F
(1502934409.111956) vcan0 284#A4651359E645BA05
(1502934409.122143) vcan0 284#2AFDC52730329201
(1502934409.132400) vcan0 284#EA5C854B4C39816B
(1502934409.142533) vcan0 284#C932123E3123DF04
(1502934409.152732) vcan0 284#8D65C47ED138692A
(1502934409.162935) vcan0 284#38118F5DDFDF8905
(1502934409.173048) vcan0 284#FC0CA46BB23AF552
(1502934409.183234) vcan0 284#E27CC815AF32010B
(1502934409.193435) vcan0 284#B140CB7D30EABC7E
(1502934409.203594) vcan0 284#B628CB6538E1C83D
(1502934409.213811) vcan0 284#9C64695C1C3A4972
(1502934409.224177) vcan0 284#ADBC0B00C8277668
(1502934409.234442) vcan0 284#5DCBE644E5BF0265
(1502934409.244684) vcan0 284#551FEE59D55A2249
(1502934409.254979) vcan0 284#5178EC4CBECA3B77
(1502934409.265221) vcan0 284#C3C0EE38F5DDFF25
(1502934409.275470) vcan0 284#A410F67CEDBDB460
(1502934409.285782) vcan0 284#251092278E6D7B48
(1502934409.296105) vcan0 284#39F7354CEF42A465
(1502934409.306414) vcan0 284#BF905A4DC65CFA4A
(1502934409.316717) vcan0 284#C07B0D10F8A1E92A
(1502934409.326950) vcan0 284#A53C8450BC88B17B
(1502934409.337200) vcan0 284#AADCDE7D87B94C66
(1502934409.347501) vcan0 284#6BBBB2065B1DAA7B
(1502934409.357735) vcan0 284#B8A3096522E47D6C
(1502934409.367974) vcan0 284#93FE723954087341
(1502934409.378303) vcan0 284#3E1EC75E40BB7E39
(1502934409.388539) vcan0 284#1D30E9299BE9AD23
(1502934409.398789) vcan0 284#257B811E724FD703
(1502934409.409183) vcan0 284#7044D06C76F36D6B
(1502934409.419365) vcan0 284#301A137B3405BF25
(1502934409.429570) vcan0 284#6BD16D11D42A0978
(1502934409.439753) vcan0 284#21C3730691E1FF38
(1502934409.449865) vcan0 284#639884405BBAA952
(1502934409.460067) vcan0 284#8024A41E2229DF0D
(1502934409.470253) vcan0 284#2117A41D40A0B12E
(1502934409.480360) vcan0 284#1ACBC838C753286E
(1502934409.490553) vcan0 284#FC28632AC4A7A736
(1502934409.500742) vcan0 284#4E0D755468E41531
(1502934409.510851) vcan0 284#1FC5513206B17E39
(1502934409.521069) vcan0 284#8AC8931DB2C3C46B
(1502934409.531262) vcan0 284#5BB9F17AC8E65A7C
(1502934409.541410) vcan0 284#F27E432578E9DA24
(1502934409.551613) vcan0 284#64D0082018FAC443
(1502934409.561799) vcan0 284#EA38B228D414D90C
(1502934409.571908) vcan0 284#8EED322F1A53C523
(1502934409.582123) vcan0 284#081A9832FABEA040
(1502934409.592324) vcan0 284#EE7DCE1B2ADD0B39
(1502934409.602440) vcan0 284#8BA0A0795116535C
(1502934409.612635) vcan0 284#8597B50B0BC54418
(1502934409.622811) vcan0 284#743F326AA6AE5929
(1502934409.632981) vcan0 284#4B65F6468E0AFB22
(1502934409.643171) vcan0 284#6D028217478E5971
(1502934409.653368) vcan0 284#53B2A259BC0FF76B
(1502934409.663486) vcan0 284#AF726F227277F40B
(1502934409.673665) vcan0 284#C2C07525393B0340
(1502934409.683835) vcan0 284#253BB9771D7A6720
(1502934409.693939) vcan0 284#02225E3C17BAFC1C
(1502934409.704121) vcan0 284#9563424566F2665C
(1502934409.714323) vcan0 284#2FB4C1607F9CF46D
(1502934409.724471) vcan0 284#3A074069BEA1F40F
(1502934409.734661) vcan0 284#99EFB9114321D81B
(1502934409.744850) vcan0 284#B8609550886D882D
(1502934409.754961) vcan0 284#6DFEE3544301364A
(1502934409.765137) vcan0 284#D983DB09F2959960
(1502934409.775318) vcan0 284#4EC67A624DC30D74
(1502934409.785466) vcan0 284#9844F309992B7129
(1502934409.795658) vcan0 284#DCCD081706477521
(1502934409.805842) vcan0 284#E0B9CA1A2F80AB70
(1502934409.815964) vcan0 284#C2566C0D902C3A3D
(1502934409.826145) vcan0 284#A1F79F7C8417E232
(1502934409.836378) vcan0 284#C9673D7DC6325974
(1502934409.846518) vcan0 284#A2914953CB899B39
(1502934409.856710) vcan0 284#DEEC551137F58B18
(1502934409.866889) vcan0 284#317C02160DA11772
(1502934409.877002) vcan0 284#B79180066C83427F
(1502934409.887174) vcan0 284#CB420C0250813A18
(1502934409.897358) vcan0 284#AFA41A1B83A3A152
(1502934409.907464) vcan0 284#D8EEC2451CA3FE6F
(1502934409.917657) vcan0 284#C6A4D71CB2729E4F
(1502934409.927835) vcan0 284#0E399850146B527F
(1502934409.937997) vcan0 284#FF35AC43A67D8B5A
(1502934409.948210) vcan0 284#AD96C328DB03B55A
(1502934409.958397) vcan0 284#ACC4007C8E508E43
(1502934409.968505) vcan0 284#0A84604B6E1B6D09
(1502934409.978697) vcan0 284#1E7DC800AC7B0048
(1502934409.988869) vcan0 284#F3324F3CE7E4057E
(1502934409.998976) vcan0 284#72AE593C95C4980F
(1502934410.009178) vcan0 284#B36EA137509BAF4D
(1502934410.019361) vcan0 284#CCB92428E4EAA34D
(1502934410.029520) vcan0 284#5E3CC73F834BA52E
(1502934410.039710) vcan0 284#506EE64C297FD341
(1502934410.049895) vcan0 284#D4CCDF46FF120168
(1502934410.060103) vcan0 284#AD227514ACBBA20C
