(1502930378.241759) vcan0 284#1C1AC600C0107633
(1502930378.252013) vcan0 284#CBF7237723296A7D
(1502930378.262249) vcan0 284#AAE81336844D971E
(1502930378.272630) vcan0 284#4DABBA733ED4DE33
(1502930378.282896) vcan0 284#04C4D253AB8FA16D
(1502930378.293033) vcan0 284#D9288453671AEF7A
(1502930378.303209) vcan0 284#F4254B015260BF4B
(1502930378.313405) vcan0 284#EFEBC549A82B493C
(1502930378.323528) vcan0 284#F0BE0A271378721C
(1502930378.333721) vcan0 284#4ABC28647D27C15E
(1502930378.343921) vcan0 284#EFF9560A22817401
(1502930378.354045) vcan0 284#80A2781F9C8C6353
(1502930378.364264) vcan0 284#3C249753100A5F57
(1502930378.374487) vcan0 284#ADA16A33D9DCEE46
(1502930378.384673) vcan0 284#5F2ECA6B218BBF07
(1502930378.394861) vcan0 284#942F19237B48906C
(1502930378.405333) vcan0 284#E19B353B5F273D1A
(1502930378.415779) vcan0 284#9F71FA698C844971
(1502930378.430232) vcan0 284#E374D438EC1CB55D
(1502930378.440889) vcan0 284#CA582825E738A70C
(1502930378.451359) vcan0 284#97AC564BA481AC78
(1502930378.461661) vcan0 284#4F5396078BD2A14C
(1502930378.471949) vcan0 284#F6E16B443E3F5C51
(1502930378.482188) vcan0 284#33FEEA08E6A0766B
(1502930378.492453) vcan0 284#51B7CE6D7EBA136D
(1502930378.502666) vcan0 284#63C8374A40B12578
(1502930378.512790) vcan0 284#A03B886EE36AB069
(1502930378.523003) vcan0 284#DC3D894BDC5F1F42
(1502930378.533262) vcan0 284#F3740F4189DFF37E
(1502930378.543445) vcan0 284#B53C0E0952A3D92C
(1502930378.553831) vcan0 284#AA6AB3064A6C272C
(1502930378.564149) vcan0 284#CEEB69198C06E941
(1502930378.574429) vcan0 284#A99364466D5D6403
(1502930378.584761) vcan0 284#188B32338D08397F
(1502930378.595047) vcan0 284#597A1961E2E35A58
(1502930378.605245) vcan0 284#7441E00BF026702C
(1502930378.615601) vcan0 284#86650751C3947613
(1502930378.625911) vcan0 284#7CF911797C477315
(1502930378.636167) vcan0 284#02D4D264AFF7FC01
(1502930378.646564) vcan0 284#62E8E900538BA152
(1502930378.656876) vcan0 284#2DB2106FC5B0214B
(1502930378.667153) vcan0 284#943CC74ACEED985D
(1502930378.677587) vcan0 284#A81BD234707A5016
(1502930378.687913) vcan0 284#AA4DB81F9C90E175
(1502930378.698092) vcan0 284#FA594415608AC628
(1502930378.708462) vcan0 284#EE33BB22A4C4F71B
(1502930378.718742) vcan0 284#AAF6ED54BC1F253C
(1502930378.728978) vcan0 284#30CBE05D538A521B
(1502930378.739380) vcan0 284#297D893F48561311
(1502930378.749673) vcan0 284#E0928B1A82F7A220
(1502930378.759860) vcan0 284#2B3A6E6955D46B26
(1502930378.770176) vcan0 284#731E134DB19F753A
(1502930378.780481) vcan0 284#1869E239EF172546
(1502930378.790722) vcan0 284#2EE7E84F1A3DB51E
(1502930378.801105) vcan0 284#9E0F224890CFD250
(1502930378.811418) vcan0 284#6EC85671CCC13237
(1502930378.821633) vcan0 284#5680F41B02051E3C
(1502930378.831908) vcan0 284#9AAFCB14FE9BC650
(1502930378.842225) vcan0 284#727F6E5244FD8334
(1502930378.852430) vcan0 284#9A2CA8466CD9B267
(1502930378.862783) vcan0 284#A4874A5D89606369
(1502930378.873120) vcan0 284#119EAA034E7E3832
(1502930378.883317) vcan0 284#4580882541698B61
(1502930378.893624) vcan0 284#A2088B4D6FFD1165
(1502930378.903922) vcan0 284#8ABF9E72829B1668
(1502930378.914174) vcan0 284#F1F4B405B5F90C5C
(1502930378.924558) vcan0 284#D76F820E6413C852
(1502930378.934807) vcan0 284#66998216F0D86448
(1502930378.945021) vcan0 284#532BED1894806B66
(1502930378.955467) vcan0 284#0A161A67F23A0F61
(1502930378.965669) vcan0 284#25503E3778DE7058
(1502930378.975843) vcan0 284#BEFC41187BD03253
(1502930378.986221) vcan0 284#7AE38E1458AC0D2D
(1502930378.996422) vcan0 284#796CF923ED62FD66
(1502930379.006576) vcan0 284#9CA991611499A16A
(1502930379.016780) vcan0 284#593CB04E4131DC3E
(1502930379.026993) vcan0 284#9DF904546ADA5A52
(1502930379.037168) vcan0 284#8FAF1471E2798D79
(1502930379.047570) vcan0 284#AC43E63331B89F3E
(1502930379.057778) vcan0 284#51779F5E36038526
(1502930379.067963) vcan0 284#B453B626436C5464
(1502930379.078423) vcan0 284#EBFC91028BC33835
(1502930379.088622) vcan0 284#A77F1C3751961419
(1502930379.098776) vcan0 284#7B9C9D7DFBAA0950
(1502930379.109160) vcan0 284#E616807F86B2B764
(1502930379.119354) vcan0 284#EDE518310B67BE36
(1502930379.129502) vcan0 284#FE90283DABE25A49
(1502930379.139712) vcan0 284#8637F1097974B751
(1502930379.149889) vcan0 284#038F6876FFA3EA2D
(1502930379.160003) vcan0 284#66D7B4389F38FA57
(1502930379.170381) vcan0 284#133D8C18BF136507
(1502930379.180598) vcan0 284#E069D616B036916C
(1502930379.190756) vcan0 284#2AEEBF597019EB07
(1502930379.201148) vcan0 284#93B01E66D631A60D
(1502930379.211343) vcan0 284#A1D18A46E427BE44
(1502930379.221463) vcan0 284#0C352B345525416D
(1502930379.231826) vcan0 284#27941229F731BD36
(1502930379.242038) vcan0 284#E1E87922CF132F60
(1502930379.252213) vcan0 284#48C8D14F5C851720
(1502930379.262494) vcan0 284#CABE38302EDF514F
(1502930379.272771) vcan0 284#E237CF04B7A45161
(1502930379.283059) vcan0 284#39461006E1C8F741
(1502930379.293380) vcan0 284#6287AC2ABF7D0110
(1502930379.303597) vcan0 284#5A3DAF1365161521
(1502930379.313757) vcan0 284#BF21EC3DC014644C
(1502930379.323933) vcan0 284#044F0F79D25E7856
(1502930379.334110) vcan0 284#7F28C953E5B8E50F
(1502930379.344294) vcan0 284#83950943A916892D
(1502930379.354538) vcan0 284#55D2D01716462829
(1502930379.364754) vcan0 284#7F482F3BF6A35B5E
(1502930379.375060) vcan0 284#FA6DE66D8B7D5A6F
(1502930379.385514) vcan0 284#4CC99C4B2202F916
(1502930379.395727) vcan0 284#82AF17262DB2166E
(1502930379.405899) vcan0 284#F1152877CB77E975
(1502930379.416301) vcan0 284#89372E0EBBD46027
(1502930379.426517) vcan0 284#F9563B456C6FFD12
(1502930379.436673) vcan0 284#7279B208339D4B4B
(1502930379.446900) vcan0 284#4D38F554D4005F33
(1502930379.457078) vcan0 284#F21A4D5BA775A468
(1502930379.467369) vcan0 284#39177454B13C3919
(1502930379.477579) vcan0 284#678A08353D66834D
(1502930379.487806) vcan0 284#849BB16FE6B2D108
(1502930379.498033) vcan0 284#221F695D0731BB32
(1502930379.508380) vcan0 284#90C95A3677F13975
(1502930379.520293) vcan0 284#1D77E35B0F128A71
(1502930379.530716) vcan0 284#6E95955317E5C949
(1502930379.541079) vcan0 284#9B8FE460BA5E321F
(1502930379.551277) vcan0 284#39E7C2601D3FFC06
(1502930379.561455) vcan0 284#E710490D2AFDEA57
(1502930379.571632) vcan0 284#E8B6E57C7048771B
(1502930379.581833) vcan0 284#E5D14B7FE20D2142
(1502930379.592035) vcan0 284#DCB7742E574BFE07
(1502930379.602194) vcan0 284#15AB6C0D29F06903
(1502930379.612390) vcan0 284#2B4C5D3B07C6B968
(1502930379.622596) vcan0 284#D0650E6C6463D10F
(1502930379.632714) vcan0 284#B902F30137F01621
(1502930379.643259) vcan0 284#A2C9545D3D9EA471
(1502930379.653573) vcan0 284#1EA3E829C4E8BD3A
(1502930379.663764) vcan0 284#44CF5F24AE6C4360
(1502930379.674166) vcan0 284#3CDAF72F61464300
(1502930379.684486) vcan0 284#BD7ECD51AA6F8D03
(1502930379.694732) vcan0 284#782B0D4A580EB232
(1502930379.705175) vcan0 284#64CEBF22B212D02A
(1502930379.715534) vcan0 284#764DAE394BDF0830
(1502930379.725721) vcan0 284#DC0FBB025E049436
(1502930379.736329) vcan0 284#BB27804BC2E10602
(1502930379.746675) vcan0 284#4012B57898DFF479
(1502930379.756882) vcan0 284#192D050A55BD2106
(1502930379.767239) vcan0 284#C1CF5E7D45796245
(1502930379.777528) vcan0 284#5D83DB6E92356D69
(1502930379.787721) vcan0 284#A9DC33551686CE70
(1502930379.798085) vcan0 284#C925840A4BA68832
(1502930379.808397) vcan0 284#53247362E7C86C34
(1502930379.818573) vcan0 284#108F466D97F3D206
(1502930379.828923) vcan0 284#9535B0144C693E1D
(1502930379.839222) vcan0 284#F839160753B47D66
(1502930379.849409) vcan0 284#F6D8CB2070652351
(1502930379.859719) vcan0 284#ABC22F195AA78B43
(1502930379.869914) vcan0 284#2278F37B2110DE52
(1502930379.880092) vcan0 284#A5869473FF87AE7E
(1502930379.890519) vcan0 284#8014720960AE143F
(1502930379.900741) vcan0 284#C169B500C0262702
(1502930379.910854) vcan0 284#F88D0939DA96BA0A
(1502930379.921193) vcan0 284#16E44808BA5D6836
(1502930379.931382) vcan0 284#1F101D5073672477
(1502930379.941559) vcan0 284#4C93D51FC9EC5025
(1502930379.951902) vcan0 284#89EDF26715B9592A
(1502930379.962123) vcan0 284#1493D957DC11664A
(1502930379.972310) vcan0 284#FD81C65E24222045
(1502930379.982531) vcan0 284#7305395192B77673
(1502930379.992736) vcan0 284#708B5E626B3F4F58
(1502930380.002902) vcan0 284#E56BF45966642A03
(1502930380.013250) vcan0 284#DBA47229912E2473
(1502930380.023484) vcan0 284#C00BB646FE1C6625
(1502930380.033658) vcan0 284#B23E024665924A3A
(1502930380.043960) vcan0 284#FDA414243253744F
(1502930380.054205) vcan0 284#C6405F79BE0ECA24
(1502930380.064374) vcan0 284#F3799B51BECE6832
(1502930380.074769) vcan0 284#98A5842F095EE459
(1502930380.084985) vcan0 284#782CD168B8B5A17F
(1502930380.095162) vcan0 284#7CC50851C4BFA608
(1502930380.105528) vcan0 284#81A2F22405B3FB38
(1502930380.115751) vcan0 284#DA7800339535CC7C
(1502930380.125926) vcan0 284#E1C46103D7FAC611
(1502930380.136056) vcan0 284#BA57EC4154CA9A54
(1502930380.146231) vcan0 284#69B23D052AE34A24
(1502930380.156417) vcan0 284#BF09EA2C4F1E325F
(1502930380.166753) vcan0 284#914775279AAE5C56
(1502930380.176977) vcan0 284#E04C565251532B6E
(1502930380.187147) vcan0 284#98CBC27B928B5818
(1502930380.197512) vcan0 284#B7E575289570D71F
(1502930380.207750) vcan0 284#C5DECC677D26D521
(1502930380.217935) vcan0 284#537FA144B8586839
(1502930380.228151) vcan0 284#3BF53D54EC242674
(1502930380.238502) vcan0 284#C1B64C13B4210F3D
(1502930380.248713) vcan0 284#A4DAC7733D7C5564
(1502930380.258924) vcan0 284#78E1B545257DBA18
(1502930380.269108) vcan0 284#422F511D525AB678
(1502930380.279281) vcan0 284#BAB2861523F4B220
(1502930380.289597) vcan0 284#29557D0A740A7357
(1502930380.299799) vcan0 284#77BE4D759307BB0F
(1502930380.309913) vcan0 284#9FEDBD7B36C83722
(1502930380.320225) vcan0 284#E225ED6E30353323
(1502930380.330388) vcan0 284#D0769478C2724341
(1502930380.340534) vcan0 284#81885E1169425774
(1502930380.350856) vcan0 284#54FE9B59386ED439
(1502930380.361027) vcan0 284#FEB22E1419DD6841
(1502930380.371138) vcan0 284#B594A95B5232D058
(1502930380.381338) vcan0 284#D135D17AF189E72F
(1502930380.391531) vcan0 284#3E57F64C92EC1D0E
(1502930380.401681) vcan0 284#A5ABF66CE231BE40
(1502930380.411981) vcan0 284#CF6873721D8DAC32
(1502930380.422161) vcan0 284#07AF78591198C40F
(1502930380.432327) vcan0 284#70E7622BC161FF6E
(1502930380.442622) vcan0 284#348C7730993CE035
(1502930380.452892) vcan0 284#366C7246AB4AC525
(1502930380.463065) vcan0 284#2C449B45D5593042
(1502930380.473344) vcan0 284#E112FD470E6A8834
(1502930380.483552) vcan0 284#058F6365B2899140
(1502930380.493724) vcan0 284#D0DCCB758617C276
(1502930380.504020) vcan0 284#1BCCE83425DB674F
(1502930380.514237) vcan0 284#BF859630197F1749
(1502930380.524401) vcan0 284#3EB8D010741A400C
(1502930380.534630) vcan0 284#6BB1E72110EEA10B
(1502930380.544828) vcan0 284#65A4273CA908DE6E
(1502930380.555048) vcan0 284#A2DABF190A501E29
(1502930380.565478) vcan0 284#8B3A9C2F7243330C
(1502930380.575752) vcan0 284#28DDCA5B92E91409
(1502930380.586004) vcan0 284#83DBF71B98C42D07
(1502930380.596301) vcan0 284#544B1478B8676F4C
(1502930380.606578) vcan0 284#31010E3D8AB7863E
(1502930380.616788) vcan0 284#63B234725E45A902
(1502930380.627126) vcan0 284#5F11B70045C5313A
(1502930380.637392) vcan0 284#6CAF313764A01A66
(1502930380.647639) vcan0 284#F74EC37A3D8CFD2C
(1502930380.658014) vcan0 284#EAB7DC5C121BAC2F
(1502930380.668270) vcan0 284#6267657CA93D730D
(1502930380.678535) vcan0 284#2B9AC378A01F360D
(1502930380.688920) vcan0 284#1E58B319974BAB1A
(1502930380.699235) vcan0 284#B00DD81883FCDA55
(1502930380.709431) vcan0 284#4054890953E89732
(1502930380.719794) vcan0 284#8E4CF97ECC8E2539
(1502930380.730083) vcan0 284#C52BCB3EB629C45A
(1502930380.740258) vcan0 284#5E783A424807C35A
(1502930380.750631) vcan0 284#4EEEF161B2C34E3A
(1502930380.760935) vcan0 284#006F32277FEFFF1E
(1502930380.771120) vcan0 284#3C7BD57864216719
(1502930380.781471) vcan0 284#DD34A9219B8C8C79
(1502930380.791791) vcan0 284#A9E698534AE4DA58
(1502930380.802025) vcan0 284#FF2CA75FA0355C4E
(1502930380.812393) vcan0 284#8770D805EAE4833C
(1502930380.822675) vcan0 284#B250087EE9D73D02
(1502930380.832926) vcan0 284#9322F749DDEACB76
(1502930380.843321) vcan0 284#89F7730FB17AAA63
(1502930380.853535) vcan0 284#743677113A054C28
(1502930380.863678) vcan0 284#35778539B58A001B
(1502930380.873884) vcan0 284#8DEDE35AC3C37E38
(1502930380.884056) vcan0 284#811926545219AF19
(1502930380.894216) vcan0 284#79ED4213DF916016
(1502930380.904426) vcan0 284#9A207274C7DB3475
(1502930380.914685) vcan0 284#9255AF509B8FA41B
(1502930380.924807) vcan0 284#46CB3414CED08449
(1502930380.934981) vcan0 284#FFB00B352400DE35
(1502930380.945152) vcan0 284#6A5D1143A897A408
(1502930380.955307) vcan0 284#6EE4B80E698AB822
(1502930380.965535) vcan0 284#48CD0057F5549114
(1502930380.975711) vcan0 284#536F3C5FFA1D0955
(1502930380.985872) vcan0 284#DE2CCF16E7913329
(1502930380.996135) vcan0 284#D708D54B67244326
(1502930381.006314) vcan0 284#980CDE0C4C3F4C5D
(1502930381.016423) vcan0 284#A1298F4ECD836346
(1502930381.026728) vcan0 284#01CA4C782E177329
(1502930381.036895) vcan0 284#9047E27E82E3724C
(1502930381.047073) vcan0 284#8030224309352512
(1502930381.057285) vcan0 284#6175D3621B519437
(1502930381.067483) vcan0 284#D0105A07F3CA8233
(1502930381.077602) vcan0 284#B6E0385317DC8E1B
(1502930381.087891) vcan0 284#C29B077DB5914408
(1502930381.098097) vcan0 284#3BDC6C512CF91840
(1502930381.108225) vcan0 284#5D29E910A9C02560
(1502930381.118402) vcan0 284#9583D162A5F6E967
(1502930381.128620) vcan0 284#9E15B774E9F20D42
(1502930381.138775) vcan0 284#9F14F33C7C42860B
(1502930381.148961) vcan0 284#D084416B761DC808
(1502930381.159142) vcan0 284#E366C93168911F78
(1502930381.169303) vcan0 284#C25C146685905800
(1502930381.179519) vcan0 284#3615833EC326615E
(1502930381.189704) vcan0 284#B3A7CB29C65C653D
(1502930381.199883) vcan0 284#450AD42A34D8ED6C
(1502930381.210094) vcan0 284#D0918A4FA77FA70D
(1502930381.220257) vcan0 284#4F298224A0A2E456
(1502930381.230366) vcan0 284#9A4A2A41050ABB77
(1502930381.240601) vcan0 284#B77E73725CE6313E
(1502930381.250796) vcan0 284#BA9BFF7FF25AE043
(1502930381.260915) vcan0 284#88DF4A7E17C5E810
(1502930381.271121) vcan0 284#9B1B06241E631C61
(1502930381.281352) vcan0 284#BCBBD2783931BD18
(1502930381.291518) vcan0 284#07562A235BD0C535
(1502930381.301802) vcan0 284#B5734324D7DA6B0E
(1502930381.311990) vcan0 284#D1ED8D3E99DA0C56
(1502930381.322101) vcan0 284#3F6C8B06944AA224
(1502930381.332302) vcan0 284#1E6B655675810E45
(1502930381.342430) vcan0 284#57710303D1123100
(1502930381.352587) vcan0 284#3CDE73029D7BD72D
(1502930381.362809) vcan0 284#05EB1E6D0C70FE51
(1502930381.372981) vcan0 284#44FB7E3B5414A111
(1502930381.383155) vcan0 284#AC12E328DE45A97C
(1502930381.393371) vcan0 284#591E5C096491561B
(1502930381.403547) vcan0 284#3B2CDB3A13BA5B09
(1502930381.413660) vcan0 284#56EC365FC30B2639
(1502930381.423859) vcan0 284#2A7F441AF2073D03
(1502930381.433983) vcan0 284#E16E421AE63A1713
(1502930381.444080) vcan0 284#2B39FA1BE8C46C3D
(1502930381.454389) vcan0 284#410BDD48E1AC3D40
(1502930381.464526) vcan0 284#BF9FD84B13F96A07
(1502930381.474630) vcan0 284#7A874A16FF0B6452
(1502930381.484822) vcan0 284#A7430D2C98F2AF6C
(1502930381.495021) vcan0 284#748D7217FEB4102F
(1502930381.505195) vcan0 284#6905E16CB06BE619
(1502930381.515414) vcan0 284#9B30E85C6FF0FF59
(1502930381.525561) vcan0 284#BCDBE46BDF2B6718
(1502930381.535659) vcan0 284#C304A16B69EEC714
(1502930381.545859) vcan0 284#BE7110151D23FD74
(1502930381.556094) vcan0 284#CD7F1E30F99DEB4F
(1502930381.566258) vcan0 284#30DD587E236C550F
(1502930381.576658) vcan0 284#BCA911095B5C9D18
(1502930381.586936) vcan0 284#157492129E185423
(1502930381.597187) vcan0 284#4197B42B41AD8C2E
(1502930381.607559) vcan0 284#86DDC06083A29174
(1502930381.617869) vcan0 284#225ACA6E467D992C
(1502930381.628040) vcan0 284#969BFC7B9CE11405
(1502930381.638498) vcan0 284#4589FD7E3DDF0928
(1502930381.648795) vcan0 284#34D4C471B9167016
(1502930381.659063) vcan0 284#3B941A579DD9A55E
(1502930381.669402) vcan0 284#6A825630D7C40234
(1502930381.679693) vcan0 284#0CCAA538265E3B1C
(1502930381.689960) vcan0 284#B6F0694CD0CE4624
(1502930381.700324) vcan0 284#8F4C033174627A61
(1502930381.710597) vcan0 284#EDF143195CCC2161
(1502930381.720871) vcan0 284#6D0066311DCF9C17
(1502930381.731286) vcan0 284#803877702AAA773A
(1502930381.741582) vcan0 284#782B3A3095AC0903
(1502930381.751810) vcan0 284#C8C2CB5DBAC2EE5B
(1502930381.762185) vcan0 284#D65996314EA08C3E
(1502930381.772467) vcan0 284#3D658050F8B36020
(1502930381.782640) vcan0 284#941D266BD3007D4C
(1502930381.793058) vcan0 284#94957525D9A6236A
(1502930381.803381) vcan0 284#10E08674C8693A17
(1502930381.813556) vcan0 284#93BD93004B74A14B
(1502930381.823857) vcan0 284#6643E075FD3FEA30
(1502930381.834153) vcan0 284#2239A47F720D862E
(1502930381.844320) vcan0 284#239E254DD9290E4C
(1502930381.854656) vcan0 284#42DCCC52B3EA287E
(1502930381.864922) vcan0 284#4D8C882D2FCE106C
(1502930381.875054) vcan0 284#0FB74A5FBB8CEE5E
(1502930381.885220) vcan0 284#4D9DAD038FEFC14F
(1502930381.895389) vcan0 284#E5366619C5C8E733
(1502930381.905547) vcan0 284#259CCB52ADF93177
(1502930381.915754) vcan0 284#7F8BD60FFBF56104
(1502930381.925880) vcan0 284#FB99BE35BCF05660
(1502930381.935978) vcan0 284#F4A9C22490B7E420
(1502930381.946174) vcan0 284#8FF1D32C883F384A
(1502930381.956440) vcan0 284#695E080B9FD15A21
(1502930381.966552) vcan0 284#51A97261FC1B9C0B
(1502930381.976746) vcan0 284#EB45FC6CB7EC5257
(1502930381.986947) vcan0 284#F95B863C0D7FA06C
(1502930381.997099) vcan0 284#29FAD8051DFAAB09
(1502930382.007305) vcan0 284#E6A8AE386CD6A558
(1502930382.017433) vcan0 284#D0E4D40734353766
(1502930382.027530) vcan0 284#9BA4B644DF9B1F67
(1502930382.037721) vcan0 284#EFC12545E8416448
(1502930382.047847) vcan0 284#6F8BE136D4F88B5E
(1502930382.058014) vcan0 284#AE0A4C7C9427AD09
(1502930382.068214) vcan0 284#81F2BD552D96220C
(1502930382.078343) vcan0 284#8F1D0F0E7C8C7C0B
(1502930382.088532) vcan0 284#EA86796C83C7D132
(1502930382.098747) vcan0 284#0C44612C79784D19
(1502930382.108922) vcan0 284#0C070A7D76A26937
(1502930382.119035) vcan0 284#194AA83A5DB07C5E
(1502930382.129234) vcan0 284#72BE05430490A427
(1502930382.139361) vcan0 284#149DCF356C1A8C7F
(1502930382.149460) vcan0 284#110F45143D97A83B
(1502930382.159660) vcan0 284#89143809F8B7F34C
(1502930382.169788) vcan0 284#A96D4E1459F90C11
(1502930382.179888) vcan0 284#2CED2A3345120559
(1502930382.190069) vcan0 284#38952C781BAF5078
(1502930382.200205) vcan0 284#2D546921A7200E2F
(1502930382.210354) vcan0 284#EFA7DC56DB5EB51D
(1502930382.220565) vcan0 284#3B48BB38709A9A2C
(1502930382.230739) vcan0 284#09F5D729CB65CA46
(1502930382.240850) vcan0 284#EC261738F37B5116
(1502930382.251044) vcan0 284#4E2D9C79F96A7864
(1502930382.261228) vcan0 284#6CF49E2F5A34A676
(1502930382.271342) vcan0 284#6F0DE21B853E476A
(1502930382.281538) vcan0 284#B7E42255E1CBE75E
(1502930382.291726) vcan0 284#89CEEB11CB81F20A
(1502930382.301844) vcan0 284#4DE6735E9BDD3026
(1502930382.312036) vcan0 284#09199B46D6FAAB67
(1502930382.322164) vcan0 284#93952473B286E95A
(1502930382.332265) vcan0 284#2FF4B878BF824F26
(1502930382.342459) vcan0 284#F798EE336889E570
(1502930382.352619) vcan0 284#DA31A01E25ED5755
(1502930382.362777) vcan0 284#0FAAF31FC9D97C75
(1502930382.372986) vcan0 284#004C0D734BF2AE58
(1502930382.383172) vcan0 284#397417220941E51C
(1502930382.393370) vcan0 284#1658791F259B2E5A
(1502930382.403582) vcan0 284#FCBC363364851519
(1502930382.413765) vcan0 284#1E06A73E69B1D562
(1502930382.423881) vcan0 284#BFB9BB0F8D13895A
(1502930382.434071) vcan0 284#EEEF1C4D769EDE64
(1502930382.444196) vcan0 284#6FDF703978BE085F
(1502930382.454383) vcan0 284#4220D16FBCC5E417
(1502930382.464590) vcan0 284#139C39054B396C36
(1502930382.474721) vcan0 284#93C0907FA6315E78
(1502930382.484817) vcan0 284#FDBF5511C2B44978
(1502930382.495025) vcan0 284#65B4AD1EF5584445
(1502930382.505158) vcan0 284#2A3E2F693FE64D3D
(1502930382.515306) vcan0 284#1A469C1A3AE82209
(1502930382.525522) vcan0 284#08C0CA321A92A90D
(1502930382.535644) vcan0 284#85DAD1614134E254
(1502930382.545745) vcan0 284#24D38E2A9B324B01
(1502930382.555938) vcan0 284#66CF102F2090C55D
(1502930382.566064) vcan0 284#FFB7601A85D5B76D
(1502930382.576203) vcan0 284#89419B40BE711C2A
(1502930382.586537) vcan0 284#12E940487831B80D
(1502930382.596816) vcan0 284#3510FB0E81C8B101
(1502930382.607051) vcan0 284#F0EFC06C7730CC7E
(1502930382.617387) vcan0 284#3E8E9619038CFA71
(1502930382.627630) vcan0 284#C2693835D14E2719
(1502930382.637794) vcan0 284#A9BD586ABF298E46
(1502930382.648132) vcan0 284#930371110E720609
(1502930382.658461) vcan0 284#B482D20BBE41A07A
(1502930382.668629) vcan0 284#4D585446CEC86E26
(1502930382.678953) vcan0 284#F829C30355181F79
(1502930382.689274) vcan0 284#E95A18347D049565
(1502930382.699526) vcan0 284#964C014E0D2EA75E
(1502930382.709867) vcan0 284#1837E066FC1B127D
(1502930382.720163) vcan0 284#2DBE6C3C17EF4001
(1502930382.730336) vcan0 284#81F1C96AB7FF077D
(1502930382.740667) vcan0 284#D6605D2B94DA0A33
(1502930382.750960) vcan0 284#2F31C00A0B71583A
(1502930382.761211) vcan0 284#15A3BC341F218177
(1502930382.771584) vcan0 284#82A124395331534E
(1502930382.781858) vcan0 284#22AD7B69440B5D6E
(1502930382.792059) vcan0 284#24807A67CB6AD453
(1502930382.802277) vcan0 284#0335EB34B883EB78
(1502930382.812452) vcan0 284#D9DCDA5CB8B7BD40
(1502930382.822563) vcan0 284#76C58B7326352F23
(1502930382.832758) vcan0 284#86802C676EEF4E77
(1502930382.842890) vcan0 284#7B4D4E1C6FDB441B
(1502930382.852993) vcan0 284#EBF3E35C119A4F6A
(1502930382.863181) vcan0 284#7C09EC79032BC443
(1502930382.873316) vcan0 284#0DB66167AAC75836
(1502930382.883414) vcan0 284#1A1A05458FA72B52
(1502930382.893604) vcan0 284#61C76033F07A6270
(1502930382.903788) vcan0 284#2382360590F8203E
(1502930382.913942) vcan0 284#FBEBBA2A3825F339
(1502930382.924145) vcan0 284#AF19A2357D8DDF63
(1502930382.934271) vcan0 284#8C564608D1C61D1F
(1502930382.944439) vcan0 284#C1983C52B0D6C06F
(1502930382.954638) vcan0 284#9C31F272C5CD2707
(1502930382.964817) vcan0 284#685AAC68750ECD4F
(1502930382.974934) vcan0 284#7D85E547DE1F385C
(1502930382.985106) vcan0 284#9B43FC720306122F
(1502930382.995297) vcan0 284#4C0F875316914A0F
(1502930383.005415) vcan0 284#73E1564A37036B30
(1502930383.015612) vcan0 284#272B9A79EFEA4244
(1502930383.025744) vcan0 284#3A2E2F7434E1FB60
(1502930383.035839) vcan0 284#99B29B7A55483439
(1502930383.046036) vcan0 284#C3882733FA79FC2D
(1502930383.056163) vcan0 284#45C39629E60A5E38
(1502930383.066327) vcan0 284#8A721D6C41AF5154
(1502930383.076536) vcan0 284#1F305172398CBF21
(1502930383.086656) vcan0 284#BE3C3138AB86977A
(1502930383.096831) vcan0 284#0A53DD4080D56D0A
(1502930383.107046) vcan0 284#5B5D586AA684CF33
(1502930383.117216) vcan0 284#45A39511C4B70453
(1502930383.127362) vcan0 284#1B939C03C2287B59
(1502930383.137563) vcan0 284#A2D73C2FB6D69876
(1502930383.147683) vcan0 284#C52E8D08EFE6C302
(1502930383.157849) vcan0 284#CC67E3053810E452
(1502930383.168047) vcan0 284#26EA2E33F3927D7F
(1502930383.178164) vcan0 284#28FB261761185E27
(1502930383.188262) vcan0 284#28747960C1ADC211
(1502930383.198481) vcan0 284#B6609260EBFCA013
(1502930383.208659) vcan0 284#BC27BF3FFB23290A
(1502930383.218812) vcan0 284#D207FF4B469ADC2B
(1502930383.229008) vcan0 284#3CD37A5EF137503E
(1502930383.239131) vcan0 284#80269C4DFB0FAC16
(1502930383.249229) vcan0 284#9CBEE7388A79790E
(1502930383.259413) vcan0 284#7BE51921F71B4023
(1502930383.269562) vcan0 284#31FE4842C088AF32
(1502930383.279659) vcan0 284#BBD344764C91E545
(1502930383.289861) vcan0 284#82B12A0C5EAB8125
(1502930383.300051) vcan0 284#03687E3C47E0B714
(1502930383.310198) vcan0 284#4D924528CFCF6142
(1502930383.320400) vcan0 284#80F09B67737C745B
(1502930383.330540) vcan0 284#C362DF41A8EBC27E
(1502930383.340636) vcan0 284#D494D202EBD65822
(1502930383.350838) vcan0 284#699985108AF56463
(1502930383.361020) vcan0 284#D6D3F93525C14450
(1502930383.371133) vcan0 284#86198E6DA8DBF801
(1502930383.381334) vcan0 284#6C5B217CC2EC084C
(1502930383.391504) vcan0 284#99134940EC81BD49
(1502930383.401668) vcan0 284#BDFCB46235D23079
(1502930383.411846) vcan0 284#76FB365838E2CE03
(1502930383.421968) vcan0 284#2DEE701CA7F97F1A
(1502930383.432065) vcan0 284#F86A7E36E8C1B512
(1502930383.442258) vcan0 284#F48A65607A1CA942
(1502930383.452438) vcan0 284#466D3738F7F2E31C
(1502930383.462611) vcan0 284#C2FC605793FF7C60
(1502930383.472815) vcan0 284#C6C2455F42EDFC3E
(1502930383.482998) vcan0 284#077CF13B89252521
(1502930383.493218) vcan0 284#EAD8BF3DDB10C43E
(1502930383.503546) vcan0 284#74FC7D435372454E
(1502930383.513806) vcan0 284#660629224BD07779
(1502930383.523981) vcan0 284#79338A1EEC1FB70F
(1502930383.534339) vcan0 284#F3AB707BE58EAB1A
(1502930383.544607) vcan0 284#AE0CC05B8DBFB93B
(1502930383.554778) vcan0 284#D11069646C09753E
(1502930383.565062) vcan0 284#C291EA34470CA03C
(1502930383.575332) vcan0 284#A4EB4342EF7F5B51
(1502930383.585508) vcan0 284#EF0520579D56C278
(1502930383.595804) vcan0 284#D8411164E3908537
(1502930383.606099) vcan0 284#17736B3B1EAF481C
(1502930383.616337) vcan0 284#DA836954D96FCC12
(1502930383.626672) vcan0 284#B2AEC57CA046AF33
(1502930383.636940) vcan0 284#1B5DC951B92AB738
(1502930383.647106) vcan0 284#2A6CD4540536890F
(1502930383.657414) vcan0 284#943B7B779E685218
(1502930383.667695) vcan0 284#59A8CE5DFA41A419
(1502930383.677861) vcan0 284#E938CA11D2DB587C
(1502930383.688256) vcan0 284#E6615B29DDE43A0D
(1502930383.698477) vcan0 284#B76A0417956E1B05
(1502930383.708600) vcan0 284#6AA4F448887B6D7B
(1502930383.718789) vcan0 284#017890432C36DF7D
(1502930383.728909) vcan0 284#CF870D38A563D405
(1502930383.739006) vcan0 284#1CB63A4FBE8D2D0F
(1502930383.749192) vcan0 284#42BA967EF4F74B33
(1502930383.759310) vcan0 284#A11EB3465A2D023A
(1502930383.769476) vcan0 284#12A7944F7BA21C1B
(1502930383.779672) vcan0 284#339DCE4CC4555A4C
(1502930383.789789) vcan0 284#1CE9CB4E4FFA971E
(1502930383.799965) vcan0 284#7D8011054655A023
(1502930383.810157) vcan0 284#5430212E12BC8C7C
(1502930383.820323) vcan0 284#E4BDF23BADD8EF0B
(1502930383.830432) vcan0 284#0CFE3016CEF6BC4D
(1502930383.840612) vcan0 284#7FB44808F35F8C3F
(1502930383.850730) vcan0 284#ABDBF75A361F4D1F
(1502930383.867379) vcan0 284#88CEA7441580EC23
(1502930383.877814) vcan0 284#BE9ABA1A89463808
(1502930383.888081) vcan0 284#41B6CB218E22C852
(1502930383.898377) vcan0 284#2EAA0C0E5D6C0671
(1502930383.908631) vcan0 284#4CB0F5617164A30C
(1502930383.918808) vcan0 284#51645224EECEA828
(1502930383.929242) vcan0 284#CB91A546640BE773
(1502930383.939674) vcan0 284#6971C543FE2E7413
(1502930383.950018) vcan0 284#28614140855A9112
(1502930383.960734) vcan0 284#4D290C32A6E15245
(1502930383.971116) vcan0 284#CBAF3136A2592D60
(1502930383.981380) vcan0 284#B89DDF41B06D2472
(1502930383.991622) vcan0 284#4F321D6CC49B1058
(1502930384.001831) vcan0 284#7E64E13FCFE66574
(1502930384.011964) vcan0 284#B7FB9C172940D91A
(1502930384.022188) vcan0 284#0506B3133FCA445C
(1502930384.032316) vcan0 284#3EC0C53EC4A06D2E
(1502930384.042415) vcan0 284#C8107D647F769160
(1502930384.052608) vcan0 284#52C33501F7BA8972
(1502930384.062792) vcan0 284#DDE297519E732B63
(1502930384.072911) vcan0 284#681F2D7F2E47EA75
(1502930384.083112) vcan0 284#8C42D40B33B1D245
(1502930384.093251) vcan0 284#9252D169F6B3994F
(1502930384.103437) vcan0 284#31E04659BBB3122A
(1502930384.113650) vcan0 284#7B0E2B627F09530B
(1502930384.123826) vcan0 284#6195656F47BE5C18
(1502930384.133937) vcan0 284#2163806B19334531
(1502930384.144136) vcan0 284#F72B810A70959D57
(1502930384.154273) vcan0 284#DDCE55097590624A
(1502930384.164443) vcan0 284#3F7C034C95CAF220
(1502930384.174672) vcan0 284#9ED03B654582B65F
(1502930384.184840) vcan0 284#D494377DDC900124
(1502930384.194952) vcan0 284#0923240E9DA5B461
(1502930384.205163) vcan0 284#5B0793045BE6590F
(1502930384.215342) vcan0 284#94603E5438EA2A56
(1502930384.225506) vcan0 284#F9598572FC7F6B53
(1502930384.235716) vcan0 284#6731154C869C597E
(1502930384.245840) vcan0 284#2F313E19F983E635
(1502930384.255940) vcan0 284#7C50F34D60118572
(1502930384.266246) vcan0 284#B437F95FF75E1E30
(1502930384.276448) vcan0 284#DF1AD87D15CD5E4F
(1502930384.286558) vcan0 284#3E1D7B48007E5869
(1502930384.296757) vcan0 284#2E00A4003549FC52
(1502930384.306962) vcan0 284#7113F6400CCFF909
(1502930384.317119) vcan0 284#AAD95E1DB08FF90C
(1502930384.327331) vcan0 284#A199EC2A48AA9A02
(1502930384.337461) vcan0 284#F511B06C752E2428
(1502930384.347561) vcan0 284#243B9C26FE34D47A
(1502930384.357761) vcan0 284#12D4D80980422F2B
(1502930384.367948) vcan0 284#591B2E0AA634175E
(1502930384.378062) vcan0 284#B82C5A015375B37C
(1502930384.388264) vcan0 284#A2B482311F5E6F4D
(1502930384.398450) vcan0 284#D9110D7BD1E5C04A
(1502930384.408678) vcan0 284#19E2550355620049
(1502930384.419043) vcan0 284#32F7453DCD194F63
(1502930384.429363) vcan0 284#4CC11E7911121E3B
(1502930384.439536) vcan0 284#E3E6AD328BDE9941
(1502930384.449915) vcan0 284#1290762411E75133
(1502930384.460208) vcan0 284#C027961483A36C65
(1502930384.470465) vcan0 284#1DB64B3D6B01F531
(1502930384.480848) vcan0 284#33336672BE4F3868
(1502930384.491182) vcan0 284#B3AB8F342945165F
(1502930384.501449) vcan0 284#347E5C10D8E62B5B
(1502930384.511829) vcan0 284#277AEA594652351A
(1502930384.522138) vcan0 284#58295B0681951864
(1502930384.532314) vcan0 284#ED864C781056B507
(1502930384.542671) vcan0 284#D40ACC608F3BCF29
(1502930384.553049) vcan0 284#30B42455AD1CD95B
(1502930384.563232) vcan0 284#6121907449967A58
(1502930384.573562) vcan0 284#027FD9249318D631
(1502930384.583859) vcan0 284#16B0C93B4E40F81D
(1502930384.594035) vcan0 284#A42AF46CF996776E
(1502930384.604333) vcan0 284#D91E925FB6BA6A11
(1502930384.614835) vcan0 284#0B7EC9219A462874
(1502930384.625160) vcan0 284#395ED7762834155F
(1502930384.635470) vcan0 284#05481D266D913D69
(1502930384.645904) vcan0 284#E7834D47B8F3AC5A
(1502930384.656204) vcan0 284#96D653481B02AA57
(1502930384.666580) vcan0 284#90DAD835BD503E22
(1502930384.676871) vcan0 284#6154DF71E803343C
(1502930384.687126) vcan0 284#3EE656064EDB2B6A
(1502930384.697438) vcan0 284#F959E94312F12267
(1502930384.707649) vcan0 284#DE16FB13290E0E19
(1502930384.717834) vcan0 284#BF0DFC423F388B08
(1502930384.728028) vcan0 284#72A48871C18CD567
(1502930384.738151) vcan0 284#D250613A8854522D
(1502930384.748288) vcan0 284#10CDCD05767B5527
(1502930384.758476) vcan0 284#82EBC91BE9EB5F65
(1502930384.768647) vcan0 284#2D36C0388D69933D
(1502930384.778797) vcan0 284#833288596694972F
(1502930384.788990) vcan0 284#B59DA81C887AA57F
(1502930384.799109) vcan0 284#D325D5189C21F663
(1502930384.809283) vcan0 284#416E525A69FC2861
(1502930384.819496) vcan0 284#B723A03BD1482B10
(1502930384.829656) vcan0 284#274D670319787F2D
(1502930384.839799) vcan0 284#BA4C5F4C6533BE09
(1502930384.850002) vcan0 284#6753AB17B3A64810
(1502930384.860132) vcan0 284#7824E170456AA62B
(1502930384.870312) vcan0 284#DCB456293732DD33
(1502930384.880513) vcan0 284#84A231344E59DF1A
(1502930384.890629) vcan0 284#F9BEB21B56F3926E
(1502930384.900757) vcan0 284#D6AD3148098C8021
(1502930384.910958) vcan0 284#CD6EE8155899FB63
(1502930384.921126) vcan0 284#F277E006FAA4A84E
(1502930384.931274) vcan0 284#E5028F2176AA6860
(1502930384.941461) vcan0 284#6039407E9BA0373E
(1502930384.951581) vcan0 284#FE240E60345F1517
(1502930384.961712) vcan0 284#37C22D223F93603A
(1502930384.971920) vcan0 284#9D5B3E78EFE5CD5D
(1502930384.982049) vcan0 284#11DC8B4AC4A8A57B
(1502930384.992182) vcan0 284#085E4D0BCB28EB16
(1502930385.002373) vcan0 284#2ADC63056FB1F822
(1502930385.012553) vcan0 284#7ECF3327A2004576
(1502930385.022736) vcan0 284#B51B9F4E5A848A50
(1502930385.032956) vcan0 284#D932222A39BED002
(1502930385.043074) vcan0 284#A8DD696BD2F1D445
(1502930385.053192) vcan0 284#90B163717E8B9B33
(1502930385.063393) vcan0 284#DB7D55675D204C07
(1502930385.073587) vcan0 284#D7249717CEF5356E
(1502930385.083735) vcan0 284#57C5F455BC272639
(1502930385.093928) vcan0 284#44A09E4EB7FE3454
(1502930385.104103) vcan0 284#57C85D7742C5AC2E
(1502930385.114282) vcan0 284#EB5D4A6B8F8A8B19
(1502930385.124499) vcan0 284#82580D6989B98863
(1502930385.134623) vcan0 284#7E70597793349933
(1502930385.144744) vcan0 284#4D622E5F86CEA602
(1502930385.154922) vcan0 284#5E5D844A773E9264
(1502930385.165104) vcan0 284#F57F9F25DC2CB871
(1502930385.175285) vcan0 284#193FD75AAA9B3E74
(1502930385.185484) vcan0 284#36B14242F371F904
(1502930385.195602) vcan0 284#E4590F77DE8EAC2D
(1502930385.205773) vcan0 284#C563CE4A740B7368
(1502930385.215972) vcan0 284#5C1A4861A1E12332
(1502930385.226153) vcan0 284#D12BBF6F333FDF78
(1502930385.236318) vcan0 284#6FD7592028F1B345
(1502930385.246515) vcan0 284#F0660532B377F86E
(1502930385.256634) vcan0 284#DFEFE819472F6329
(1502930385.272051) vcan0 284#F53CA51DCB4D3305
(1502930385.282260) vcan0 284#D6B9EE427795B206
(1502930385.292376) vcan0 284#5407BC68542A483A
(1502930385.302588) vcan0 284#0ACA4B3AA169EA47
(1502930385.312791) vcan0 284#DAF8EE3C6827D004
(1502930385.322974) vcan0 284#19A87C2CD0788E62
(1502930385.333236) vcan0 284#4454887632E75307
(1502930385.343437) vcan0 284#7A14CD567A05CB38
(1502930385.353563) vcan0 284#25594D0C5E6EDC4D
(1502930385.363776) vcan0 284#58947766EBBC1B57
(1502930385.373977) vcan0 284#D2794F36B5AEBF47
(1502930385.384164) vcan0 284#8C9E3F09A3A50E26
(1502930385.394422) vcan0 284#E8ED9E40FB759929
(1502930385.404637) vcan0 284#CB96C26BD854A472
(1502930385.414884) vcan0 284#AEED9118AB86AB05
(1502930385.425149) vcan0 284#2084071CA32A3736
(1502930385.435465) vcan0 284#76D4DE0AF63DF65E
(1502930385.445644) vcan0 284#1BC0E93CCADB9A73
(1502930385.455903) vcan0 284#4B683E19258A3577
(1502930385.466308) vcan0 284#6B45853B25612D56
(1502930385.476577) vcan0 284#8EB1057C84ED0168
(1502930385.486864) vcan0 284#F5D9BB38D2058E72
(1502930385.497171) vcan0 284#B7D4556F70EE880F
(1502930385.507441) vcan0 284#4D0B592BDC2DA37B
(1502930385.517733) vcan0 284#CE5C655DA59FD011
(1502930385.528054) vcan0 284#C7EABE52A1D6B413
(1502930385.538316) vcan0 284#5A4E90595389FE5B
(1502930385.548600) vcan0 284#447CC339433C2F1A
(1502930385.558893) vcan0 284#4EFF970510138625
(1502930385.569069) vcan0 284#1B91D30CFCEC291E
(1502930385.579373) vcan0 284#BB99312B3B15DB28
(1502930385.589714) vcan0 284#A0176154316E1036
(1502930385.599959) vcan0 284#3253D107BBD74A11
(1502930385.610237) vcan0 284#FB49AB297DBB0F21
(1502930385.620652) vcan0 284#E0618008668F3065
(1502930385.630947) vcan0 284#A21C3D776E138604
(1502930385.641277) vcan0 284#EB7C324D98F6F82F
(1502930385.651600) vcan0 284#41191477A251883C
(1502930385.661791) vcan0 284#08E5813F8E246D22
(1502930385.672212) vcan0 284#7E7F2B38D641E71C
(1502930385.682571) vcan0 284#33C43D34466AEA0A
(1502930385.692930) vcan0 284#77189C308E12CE0D
(1502930385.703289) vcan0 284#99F3E866BC945F6A
(1502930385.713514) vcan0 284#D14EFD27E8F2806C
(1502930385.723687) vcan0 284#CCA7E50FECDFD034
(1502930385.733892) vcan0 284#E4DFAA0A8741173B
(1502930385.744103) vcan0 284#28F5AB5D84F70B5F
(1502930385.754226) vcan0 284#B8AF27715A487D65
(1502930385.764410) vcan0 284#3FCF5670B3F9D21A
(1502930385.774603) vcan0 284#D7038D062031D778
(1502930385.784718) vcan0 284#198903007920CA7D
(1502930385.794907) vcan0 284#8E445D7D0406364D
(1502930385.805105) vcan0 284#1117C32DCF5D7174
(1502930385.815285) vcan0 284#A657BE0919FC446D
(1502930385.825491) vcan0 284#5D82DE1625D7E941
(1502930385.835701) vcan0 284#F03D2C0A91461C4B
(1502930385.845821) vcan0 284#6B41D44C6756C83A
(1502930385.856017) vcan0 284#1F59EA580435BD33
(1502930385.866217) vcan0 284#23EB2725F0A7E700
(1502930385.876397) vcan0 284#EC273E20EF920D35
(1502930385.886612) vcan0 284#DC87B835D107E92A
(1502930385.896818) vcan0 284#76D42470047D6413
(1502930385.906939) vcan0 284#55FFF4092E844C61
(1502930385.917133) vcan0 284#5EC5E17895CE4B7A
(1502930385.927320) vcan0 284#E17D1F7C35C96E7F
(1502930385.937437) vcan0 284#B5FF2273FB06237C
(1502930385.947634) vcan0 284#AFE9387D43448070
(1502930385.957833) vcan0 284#FF0C5949C000FC2A
(1502930385.967952) vcan0 284#13A2F164A6641753
(1502930385.978139) vcan0 284#DAFC40187024D07B
(1502930385.988344) vcan0 284#CB3B0115CA3A6D22
(1502930385.998463) vcan0 284#016BEC46367DD561
(1502930386.008652) vcan0 284#3191355D20C4D61F
(1502930386.018850) vcan0 284#3AB29215557C5D02
(1502930386.029029) vcan0 284#106CBE2027DAD035
(1502930386.039231) vcan0 284#440F6B37EDF37656
(1502930386.049427) vcan0 284#F8E1B960BBE38F27
(1502930386.059545) vcan0 284#F170DB694DE1AE6A
(1502930386.069742) vcan0 284#E967DC085036BD62
(1502930386.079941) vcan0 284#E2AFFA64CBE5FB04
(1502930386.090057) vcan0 284#85FF2B6297AF1D58
(1502930386.100254) vcan0 284#C6EC1E0134E9645F
(1502930386.110448) vcan0 284#DBF39D48C5F9774A
(1502930386.120610) vcan0 284#F5E9600AEE958F2D
(1502930386.130866) vcan0 284#6B5E8F1DCFE6A122
(1502930386.141059) vcan0 284#5EBA5F29369A9032
(1502930386.151181) vcan0 284#99210F4560254C70
(1502930386.161378) vcan0 284#6C176614CAB24422
(1502930386.171579) vcan0 284#80E92210A7C9F829
(1502930386.181766) vcan0 284#1F2FA2249155E130
(1502930386.191974) vcan0 284#CEA3C95F643E0D5C
(1502930386.202172) vcan0 284#7E495807C6858340
(1502930386.212345) vcan0 284#1F229D036FBA3371
(1502930386.222552) vcan0 284#1367322B088A790C
(1502930386.232743) vcan0 284#BFF0F053F6162D10
(1502930386.242860) vcan0 284#D36F751145F01C36
(1502930386.253044) vcan0 284#8DC64A68995C9412
(1502930386.263240) vcan0 284#79D9811568BAE830
(1502930386.273365) vcan0 284#5F560C5D6EC3E21F
(1502930386.283559) vcan0 284#5650785ECAB49B7A
(1502930386.293776) vcan0 284#3DAA8442B50AD807
(1502930386.303897) vcan0 284#014F2C2DD6CB9307
(1502930386.314154) vcan0 284#153024786D669241
(1502930386.324359) vcan0 284#A17ED82995194708
(1502930386.334522) vcan0 284#14308B6BC0AD7A4E
(1502930386.344728) vcan0 284#266F2839E2D3544B
(1502930386.354940) vcan0 284#24EC872AA4B88040
(1502930386.365061) vcan0 284#A859D80B430E252E
(1502930386.375281) vcan0 284#1473B431BCC00A37
(1502930386.385477) vcan0 284#4C989E3AD363A505
(1502930386.395603) vcan0 284#B2D737471F08144C
(1502930386.405791) vcan0 284#1854C23B3F9E822F
(1502930386.415995) vcan0 284#B964A85E922D4451
(1502930386.426212) vcan0 284#A8586B6018BBB43B
(1502930386.436602) vcan0 284#00F12671FEA8E33E
(1502930386.446932) vcan0 284#E26F50363E9BAB33
(1502930386.457185) vcan0 284#B3B3BB46E3BE7C63
(1502930386.467601) vcan0 284#14673F3BC8E3DF3E
(1502930386.477900) vcan0 284#51250F25B5E51765
(1502930386.488091) vcan0 284#5EFD264765559A10
(1502930386.498475) vcan0 284#76939233846C4F00
(1502930386.508790) vcan0 284#4829EF5B9A7F1A5E
(1502930386.519072) vcan0 284#2925D040F082C767
(1502930386.529399) vcan0 284#DE8D3F0C3D988472
(1502930386.539720) vcan0 284#AC43D21E2A26DE46
(1502930386.549912) vcan0 284#10FC29785E1B0A66
(1502930386.560314) vcan0 284#492EF2122950EC33
(1502930386.570634) vcan0 284#9EB98C1502939A71
(1502930386.580896) vcan0 284#BB7D30054612F875
(1502930386.591320) vcan0 284#1A4E4F2DBB6E5776
(1502930386.601595) vcan0 284#44BBDB34FDBD9F63
(1502930386.611806) vcan0 284#F909032AF86E977B
(1502930386.622338) vcan0 284#E07C1C470E714265
(1502930386.632611) vcan0 284#C052773A31A22B6C
(1502930386.642792) vcan0 284#C3565A4A1E509E01
(1502930386.653140) vcan0 284#97F7C57C39EAEC7D
(1502930386.663419) vcan0 284#A3BCED01DF20B558
(1502930386.673591) vcan0 284#D469075CCCE1BD42
(1502930386.683901) vcan0 284#CFA37C40B2F74668
(1502930386.694237) vcan0 284#097A42357CE74E5F
(1502930386.704445) vcan0 284#DC1D252F19766C2D
(1502930386.714812) vcan0 284#DA025945254C1742
(1502930386.725020) vcan0 284#42C6586178BCE55A
(1502930386.735176) vcan0 284#28DFB133FD438966
(1502930386.745452) vcan0 284#BECEDD50422D0161
(1502930386.755626) vcan0 284#B9B2E05C038AB905
(1502930386.765735) vcan0 284#3FEBA044B2BCE306
(1502930386.776000) vcan0 284#FBF850012068BD0B
(1502930386.786202) vcan0 284#C02D266CBB4BC83B
(1502930386.796314) vcan0 284#510AE97784848036
(1502930386.806572) vcan0 284#DA9B663DE801AF74
(1502930386.816767) vcan0 284#BD6E6D347D58543F
(1502930386.826934) vcan0 284#C722644D91D87410
(1502930386.837237) vcan0 284#493A120297C6E00D
(1502930386.847397) vcan0 284#43D0BB7852B45437
(1502930386.857506) vcan0 284#13AE2F6D1FEEE027
(1502930386.867772) vcan0 284#6B2AC164EDB08832
(1502930386.877938) vcan0 284#453AF869AEF01946
(1502930386.888104) vcan0 284#666D6E0D6D19AA1D
(1502930386.898416) vcan0 284#AB34A32C243C4C5E
(1502930386.908580) vcan0 284#AF46AB7E64E78309
(1502930386.918720) vcan0 284#27C60564EF314C43
(1502930386.928900) vcan0 284#17A4671022BF5665
(1502930386.939063) vcan0 284#0F9A094FD7D18D7C
(1502930386.949213) vcan0 284#DE0A1F2160A4F246
(1502930386.959498) vcan0 284#5B560E33B8A6855E
(1502930386.969674) vcan0 284#49A6A13B19C57B67
(1502930386.979838) vcan0 284#35FFD91D10C90509
(1502930386.990179) vcan0 284#AA9DF0777E39EC1F
(1502930387.000350) vcan0 284#A78FE616EE6DAC70
(1502930387.010458) vcan0 284#D0ED4057BA3D1604
(1502930387.020756) vcan0 284#0D5C8D183B18023C
(1502930387.030960) vcan0 284#A8EE9E3652968502
(1502930387.041107) vcan0 284#E9081C020E5C0D44
(1502930387.051379) vcan0 284#BFAF2F20953DBF2E
(1502930387.061597) vcan0 284#329859226FF6DA1E
(1502930387.071701) vcan0 284#F92443385A5E5F06
(1502930387.081870) vcan0 284#5E28276210C9AA48
(1502930387.092059) vcan0 284#7C1DB66B6DC23031
(1502930387.102171) vcan0 284#E89A38455A28D50C
(1502930387.112375) vcan0 284#CD66237843F14678
(1502930387.122623) vcan0 284#12CF5A6B160DC533
(1502930387.132860) vcan0 284#5CB6C25F47CE3409
(1502930387.143163) vcan0 284#27D6CA3C0754B357
(1502930387.153370) vcan0 284#C5072129CE65B153
(1502930387.163483) vcan0 284#F5C15F4895F56100
(1502930387.173793) vcan0 284#89A3C757021EED60
(1502930387.184015) vcan0 284#D10D643C3192660E
(1502930387.194138) vcan0 284#55B47263BA16803E
(1502930387.204442) vcan0 284#3FEE73521464A203
(1502930387.214626) vcan0 284#4F543F6D7186CD74
(1502930387.224795) vcan0 284#835A7D2249798225
(1502930387.234980) vcan0 284#CBE42C7BE182A404
(1502930387.245183) vcan0 284#59422D6E4802E366
(1502930387.255300) vcan0 284#4E45D53541DD6533
(1502930387.265597) vcan0 284#A22AB8731CACF82D
(1502930387.275794) vcan0 284#85CEAC2BB5F9125F
(1502930387.285973) vcan0 284#32B9BD61E1846F0B
(1502930387.296282) vcan0 284#FCC74768598F881E
(1502930387.306484) vcan0 284#E8D82263C2CF6811
(1502930387.316651) vcan0 284#28F53972DD9A822B
(1502930387.326963) vcan0 284#57C5CA11B198014A
(1502930387.337179) vcan0 284#E0B86F0C28D32E4E
(1502930387.347294) vcan0 284#E22A6858356DE26F
(1502930387.357582) vcan0 284#E3E9AE0C2119DC2A
(1502930387.367770) vcan0 284#49D18473323EEE79
(1502930387.377884) vcan0 284#929FA91FCD2B0216
(1502930387.388091) vcan0 284#7BB7701F5E84D61A
(1502930387.398309) vcan0 284#AEAEA61AD5F99D0D
(1502930387.408429) vcan0 284#A686B901FDF37B50
(1502930387.418661) vcan0 284#16D7034148B17175
(1502930387.428920) vcan0 284#19A0747E9BA5B06C
(1502930387.439142) vcan0 284#FDAA84544B593260
(1502930387.449587) vcan0 284#7D2A2078FA72CC3C
(1502930387.459888) vcan0 284#A5E8BA7E6503435B
(1502930387.470075) vcan0 284#BC42354ECDDDF470
(1502930387.480592) vcan0 284#439EC50613080060
(1502930387.490918) vcan0 284#7E76F63A23573513
(1502930387.501102) vcan0 284#3CDB2E2E60A15E13
(1502930387.511497) vcan0 284#58C417031FC5DD3A
(1502930387.521802) vcan0 284#81BA3A3EA1959C76
(1502930387.532075) vcan0 284#5103CC34135AE45D
(1502930387.542589) vcan0 284#6EC19E0CCDBA3C54
(1502930387.552988) vcan0 284#71DEBA781D704527
(1502930387.563194) vcan0 284#A2B4DA611765747A
(1502930387.573579) vcan0 284#1A64C177B88BDE22
(1502930387.583887) vcan0 284#6016E66F33043676
(1502930387.594089) vcan0 284#54318F0F5DC16A44
(1502930387.604480) vcan0 284#7E5D6856D15BAF07
(1502930387.614792) vcan0 284#5734370123462355
(1502930387.625043) vcan0 284#365FF26213776C4F
(1502930387.635535) vcan0 284#F023184679FDB769
(1502930387.645863) vcan0 284#277F6C2F6E9A0E01
(1502930387.656049) vcan0 284#9C54ED7C635A9B5D
(1502930387.666459) vcan0 284#CE3B6D14F4180500
(1502930387.676775) vcan0 284#821F79184FF6A752
(1502930387.687035) vcan0 284#96AEA176D322454D
(1502930387.697407) vcan0 284#63508C3004704003
(1502930387.707714) vcan0 284#A0DD8121D42E4729
(1502930387.717907) vcan0 284#21E0852A42925C03
(1502930387.728294) vcan0 284#EC93BB233B444722
(1502930387.738686) vcan0 284#FB1D3B264CAAA113
(1502930387.748913) vcan0 284#6E487D184F4FCA35
(1502930387.759284) vcan0 284#A96B0C58EDA5E56E
(1502930387.769588) vcan0 284#20AB793D01A04359
(1502930387.779766) vcan0 284#10EC0844560A6C20
(1502930387.790118) vcan0 284#1417B0280110210A
(1502930387.800499) vcan0 284#D007240A3B961C58
(1502930387.810678) vcan0 284#6FAA2F0B6C5C1107
(1502930387.820959) vcan0 284#9EF0B7353EE69C1F
(1502930387.831274) vcan0 284#617516072010314E
(1502930387.841481) vcan0 284#8DDC4472F723B87D
(1502930387.851689) vcan0 284#F432761BF02CD122
(1502930387.861832) vcan0 284#FB93F8009410F83C
(1502930387.871942) vcan0 284#C55B184C1D747E2B
(1502930387.882146) vcan0 284#D7A25440B1EFD36F
(1502930387.892343) vcan0 284#58B8C54DD2C08F66
(1502930387.902462) vcan0 284#FD997503C7004366
(1502930387.912663) vcan0 284#21105A1CA605825B
(1502930387.922897) vcan0 284#B4A6285541BBD359
(1502930387.933077) vcan0 284#A7A5C534C4923119
(1502930387.943368) vcan0 284#97C53F7ABCBC755D
(1502930387.953521) vcan0 284#C5A2522367CD6304
(1502930387.963627) vcan0 284#F7529235354D822E
(1502930387.973815) vcan0 284#D429750B96434A6B
(1502930387.983960) vcan0 284#73331F4E359F8B12
(1502930387.994143) vcan0 284#B6537B3900106440
(1502930388.004364) vcan0 284#2CC34310AA86F154
(1502930388.014497) vcan0 284#F13C356327573C11
(1502930388.024652) vcan0 284#3F97E911B6984D2F
(1502930388.034938) vcan0 284#44CBBA3C163A3E52
(1502930388.045145) vcan0 284#6788211F9D83800A
(1502930388.055259) vcan0 284#E8FACD3864229722
(1502930388.065469) vcan0 284#6484C370090B2855
(1502930388.075611) vcan0 284#0A28197E182BEC45
(1502930388.085715) vcan0 284#4AC6FB2EB2CDDE32
(1502930388.096018) vcan0 284#DCBD1D5FE18B3B29
(1502930388.106197) vcan0 284#6E8A5410A2607002
(1502930388.116317) vcan0 284#49599F2D65DDE645
(1502930388.126531) vcan0 284#D7ADF2301D831439
(1502930388.136721) vcan0 284#FB2031314AE1117F
(1502930388.146885) vcan0 284#5222A04BB274AC6A
(1502930388.157103) vcan0 284#4AF1753F7EE5E35B
(1502930388.167239) vcan0 284#5CFB9D3F3B2EAB22
(1502930388.177348) vcan0 284#A53C206D9B928751
(1502930388.187607) vcan0 284#F1C6F851EA07DB29
(1502930388.197803) vcan0 284#B1CCC523584F1A71
(1502930388.207918) vcan0 284#878B5B3499C7935C
(1502930388.218121) vcan0 284#BC71B113EB0F1F25
(1502930388.228304) vcan0 284#A2D2BB31C799CA11
(1502930388.238485) vcan0 284#033B0B6BEC98B760
(1502930388.248704) vcan0 284#7967A944DFF8284A
(1502930388.258840) vcan0 284#CE24F309E7F1FD54
(1502930388.268942) vcan0 284#8159994C177E9237
(1502930388.279149) vcan0 284#4CCFE41A58078C7D
(1502930388.289343) vcan0 284#3401A77048F0154C
(1502930388.299463) vcan0 284#A2E89D7C8623473C
(1502930388.309669) vcan0 284#FA64C236EDD9133C
(1502930388.319804) vcan0 284#04092B1856606076
(1502930388.329952) vcan0 284#2808BF5EA9454B05
(1502930388.340170) vcan0 284#F2F2E7471ACFB730
(1502930388.350354) vcan0 284#934D262FA3BFAD6B
(1502930388.360467) vcan0 284#721ED2211AD98163
(1502930388.370673) vcan0 284#3D8741482F908335
(1502930388.380815) vcan0 284#05E9A008DF59FD79
(1502930388.390988) vcan0 284#F6294E470824AC73
(1502930388.401227) vcan0 284#CCF2B45A6F91F70B
(1502930388.411373) vcan0 284#E81CD53D9A17A864
(1502930388.421486) vcan0 284#5683F56069766E0A
(1502930388.431695) vcan0 284#B1953A1CA252DA7B
(1502930388.441885) vcan0 284#C27DFA07E596E10C
(1502930388.452002) vcan0 284#EA42F04764669804
(1502930388.462386) vcan0 284#6BBA2849E4A7B27E
(1502930388.472567) vcan0 284#5140AC406FC35361
