(1502935102.759677) vcan0 284#3EACB538BEB9A477
(1502935102.769938) vcan0 284#FE441200D6BE5648
(1502935102.780239) vcan0 284#B12D54683ECC754F
(1502935102.790513) vcan0 284#5317DF605435F819
(1502935102.800841) vcan0 284#26F9400485DAAF36
(1502935102.811314) vcan0 284#9689BA1E0FA16256
(1502935102.821557) vcan0 284#647E517E4D3F6E2F
(1502935102.831846) vcan0 284#469ECD1DFDF4CB42
(1502935102.842096) vcan0 284#0C89D2556C3CDB09
(1502935102.852311) vcan0 284#FE7B1D21F86E7910
(1502935102.862438) vcan0 284#FE879B7D599C970E
(1502935102.872622) vcan0 284#2EB419279D0CB865
(1502935102.882887) vcan0 284#842A9833804E443A
(1502935102.893062) vcan0 284#D492431F0BA96952
(1502935102.903224) vcan0 284#C8CC0A40A135B670
(1502935102.913407) vcan0 284#27A9C7730679C078
(1502935102.923528) vcan0 284#5FEF5A6825EED973
(1502935102.933702) vcan0 284#DC371741111DAF50
(1502935102.943892) vcan0 284#63BA4F43304FF621
(1502935102.954022) vcan0 284#6552A76A8AB39047
(1502935102.964193) vcan0 284#B529A658FBDB6109
(1502935102.974413) vcan0 284#9954F31D19A8F756
(1502935102.984535) vcan0 284#481BD038DFF2C03B
(1502935102.994721) vcan0 284#179DC31955A4A20E
(1502935103.004916) vcan0 284#4C2F9C451519E13A
(1502935103.015033) vcan0 284#4D131C1F4AB73743
(1502935103.025214) vcan0 284#6EB578497BC73546
(1502935103.035416) vcan0 284#E7C3EF28F2DF107D
(1502935103.045605) vcan0 284#FB157A00BC563348
(1502935103.055804) vcan0 284#FD887A4FC3E28440
(1502935103.066008) vcan0 284#5D8CE93824324243
(1502935103.076129) vcan0 284#CA5B4539BD7B4421
(1502935103.086321) vcan0 284#4A201C37A6935C7A
(1502935103.096539) vcan0 284#CE98F371ADDA6B7A
(1502935103.106670) vcan0 284#D6E2521C33EB9A5C
(1502935103.116852) vcan0 284#378EFC418B0CF974
(1502935103.127052) vcan0 284#2FC7FC65D0E2EF5F
(1502935103.137176) vcan0 284#A5B4F04B77E2CC1E
(1502935103.147372) vcan0 284#B0D5B01BBC51B465
(1502935103.157584) vcan0 284#CC866F2DFC044D61
(1502935103.167712) vcan0 284#D16A95201A9A8B4C
(1502935103.177893) vcan0 284#46BC84243F200E6A
(1502935103.188104) vcan0 284#9561C1122E80744D
(1502935103.198277) vcan0 284#32001F6791773B13
(1502935103.208480) vcan0 284#EAD6A7152F899936
(1502935103.218687) vcan0 284#545AC0534763914E
(1502935103.228811) vcan0 284#54BBDB791EB6050D
(1502935103.238987) vcan0 284#04DFD56F9EDBF730
(1502935103.249194) vcan0 284#C5496207D277C961
(1502935103.259317) vcan0 284#4BB6632B9B2CB523
(1502935103.269507) vcan0 284#0663643E8344606D
(1502935103.279688) vcan0 284#2739AE18352A6124
(1502935103.289811) vcan0 284#5327504DCCED9E64
(1502935103.299999) vcan0 284#AC0C2E4303FD0069
(1502935103.310221) vcan0 284#883F534A79939D70
(1502935103.320346) vcan0 284#FF014E4A59AAE86A
(1502935103.330530) vcan0 284#932D293D46BED26E
(1502935103.340730) vcan0 284#98CAF654288FEA4F
(1502935103.350903) vcan0 284#743E473CCACA153C
(1502935103.361107) vcan0 284#B90626635E15EF51
(1502935103.371321) vcan0 284#FA53AF720E61E636
(1502935103.381443) vcan0 284#A57880204E0F8B6C
(1502935103.391625) vcan0 284#2C17EC43AA575610
(1502935103.401830) vcan0 284#ECEA821DF1604E4B
(1502935103.411946) vcan0 284#7CCF1F7237A1E648
(1502935103.422124) vcan0 284#8D8D036F82328430
(1502935103.432322) vcan0 284#BAE54636B4C6B107
(1502935103.442497) vcan0 284#B75CE5540E0D9703
(1502935103.452705) vcan0 284#80B4506C64691318
(1502935103.462967) vcan0 284#110A986C08F4A336
(1502935103.473090) vcan0 284#DDFCB008110CE636
(1502935103.483284) vcan0 284#619E8C21702ADA45
(1502935103.493493) vcan0 284#57CAB825F9688376
(1502935103.503638) vcan0 284#98B9C415CB080062
(1502935103.513818) vcan0 284#C433993252C0EA78
(1502935103.524092) vcan0 284#291EEF33BE874825
(1502935103.534286) vcan0 284#6021D12FCE966F54
(1502935103.544575) vcan0 284#0C97D3118C38BD73
(1502935103.554856) vcan0 284#78EEC564F881562F
(1502935103.565137) vcan0 284#7E990B3FF5BDE556
(1502935103.575387) vcan0 284#2F233D780B270F2E
(1502935103.585663) vcan0 284#77F06907EA08842E
(1502935103.595920) vcan0 284#BFEDC0352F4D4F5C
(1502935103.606160) vcan0 284#F8151B323FA21122
(1502935103.616464) vcan0 284#93B662740920B31E
(1502935103.626727) vcan0 284#4796B55870B3137D
(1502935103.636971) vcan0 284#1A2C9955A834427A
(1502935103.647282) vcan0 284#E0DDED4271F6517B
(1502935103.657568) vcan0 284#A19DC5707897B258
(1502935103.667817) vcan0 284#3CFF515D65D15E23
(1502935103.678098) vcan0 284#CA579D51651D4111
(1502935103.688373) vcan0 284#2359A7482A796E01
(1502935103.698630) vcan0 284#34B4B0652FF07A5A
(1502935103.708920) vcan0 284#B7B12B75ACA2764A
(1502935103.719194) vcan0 284#2772D109354B3734
(1502935103.729443) vcan0 284#A1605C2157950E02
(1502935103.739721) vcan0 284#407246621951C628
(1502935103.749991) vcan0 284#419E9230FF5F0718
(1502935103.760231) vcan0 284#489E150539B4AD62
(1502935103.770552) vcan0 284#3E02193ADB547879
