(1502932448.552098) vcan0 284#8948D742471B1B6D
(1502932448.652291) vcan0 284#9F1DE33E9ED44701
(1502932448.752506) vcan0 284#F214C53F3CDFD85C
(1502932448.852733) vcan0 284#40E9A04C9AFCB66C
(1502932448.952966) vcan0 284#D162CF37FFB2B766
(1502932449.053246) vcan0 284#9FFE6C528ECEB306
(1502932449.153472) vcan0 284#CD5F813E723DAA47
(1502932449.253752) vcan0 284#64A9BF78F3074F13
(1502932449.354045) vcan0 284#7EB08F567B776A1D
(1502932449.454309) vcan0 284#9BE8BA19CA20E00E
(1502932449.554554) vcan0 284#FD7D4B547E8B0F1B
(1502932449.654812) vcan0 284#9084D74EB48E8E30
(1502932449.755342) vcan0 284#77B0431662BB411A
(1502932449.855785) vcan0 284#CC67A125C722DE10
(1502932449.956073) vcan0 284#0A9E514D57A7B01D
(1502932450.056358) vcan0 284#F3877A0093E62810
(1502932450.156645) vcan0 284#9EC2CB0A92A55D3F
(1502932450.256917) vcan0 284#31BB701190D7904A
(1502932450.357190) vcan0 284#CF84361C72A4115E
(1502932450.457446) vcan0 284#2BD44737A0E70554
(1502932450.557708) vcan0 284#7157C944CAD2B409
(1502932450.657974) vcan0 284#2FB6B95A3EB74A03
(1502932450.758229) vcan0 284#3C105F51935F7953
(1502932450.858486) vcan0 284#31BF9916BAC0EE27
(1502932450.958747) vcan0 284#0ED7E370CCA75430
(1502932451.059012) vcan0 284#84E1CE360B552F45
(1502932451.159275) vcan0 284#4A33644B1566A605
(1502932451.259526) vcan0 284#BFE3BD75C2E3A761
(1502932451.359781) vcan0 284#7721E81F8B4B5F1B
(1502932451.460038) vcan0 284#8906867282BF396D
(1502932451.560301) vcan0 284#E2F20F397C8E0073
(1502932451.660567) vcan0 284#15A6627D81B5DB43
(1502932451.760836) vcan0 284#0F345E324761D30E
(1502932451.861109) vcan0 284#118D6C0EDEB8944E
(1502932451.961384) vcan0 284#B905E56C3C61B445
(1502932452.061657) vcan0 284#7EA09A222A5DAE31
(1502932452.161921) vcan0 284#0634694FAD56547D
(1502932452.262174) vcan0 284#6914F9344344C820
(1502932452.362434) vcan0 284#40B6CD509AD3924B
(1502932452.462706) vcan0 284#FD04B7484E8DB141
(1502932452.563049) vcan0 284#677BE77B82E6857F
(1502932452.663327) vcan0 284#59E2E006B1AE4B47
(1502932452.763599) vcan0 284#974C2C0519C69E7C
(1502932452.863880) vcan0 284#7392F3280E6E1425
(1502932452.964153) vcan0 284#A411FE17FD98791B
(1502932453.064421) vcan0 284#902D4E1287040E51
(1502932453.164680) vcan0 284#79277A0EA6D3B00F
(1502932453.264945) vcan0 284#08BAE914885BD840
(1502932453.365220) vcan0 284#ED34841E19475623
(1502932453.465480) vcan0 284#66146D0FA63A690B
(1502932453.565738) vcan0 284#56A80A69E5B40732
(1502932453.666007) vcan0 284#D097173D5CDC7338
(1502932453.766276) vcan0 284#920B5C2F39AC1072
(1502932453.866551) vcan0 284#9F203C59D3C12900
(1502932453.966816) vcan0 284#D47FA33D9D25F321
(1502932454.067085) vcan0 284#214FDB413BFB8A39
(1502932454.167356) vcan0 284#1F0C79217B31BC48
(1502932454.267631) vcan0 284#ECA9D600B658A526
(1502932454.367896) vcan0 284#94F75A45603CCA29
(1502932454.468163) vcan0 284#C4C6B94B3809595D
(1502932454.568430) vcan0 284#5DD5434555F4075E
(1502932454.668700) vcan0 284#BF0D672ED6FCBD53
(1502932454.768961) vcan0 284#FBC7B86DC7C75043
(1502932454.869233) vcan0 284#5F589614E8FC3C0C
(1502932454.969505) vcan0 284#E10EA766C56C0324
(1502932455.069764) vcan0 284#8E37A61737B7B14F
(1502932455.170030) vcan0 284#AA210B565ECFBD54
(1502932455.270292) vcan0 284#939325083D2D6705
(1502932455.370558) vcan0 284#987BCE4633B46161
(1502932455.470822) vcan0 284#10EF90056CFB7104
(1502932455.571065) vcan0 284#D0D95403313E6C47
(1502932455.671309) vcan0 284#A7F6FC3DEFE5CD24
(1502932455.771564) vcan0 284#AC6F281093A0D33E
(1502932455.871816) vcan0 284#A53E734B40678355
(1502932455.972079) vcan0 284#F3DC9D6869052D17
(1502932456.072360) vcan0 284#7970DC3250B2E12D
(1502932456.172626) vcan0 284#BEF93475387E4361
(1502932456.272982) vcan0 284#27AF9F01B9C1ED62
(1502932456.373260) vcan0 284#0046942486073616
(1502932456.473533) vcan0 284#A1BE2A6FE1543B0B
(1502932456.573797) vcan0 284#4B74393A2FF6D006
(1502932456.674086) vcan0 284#180CED5AF6954410
(1502932456.774348) vcan0 284#8EC58E5BAB9F1263
(1502932456.874608) vcan0 284#33C3AB1526415D22
(1502932456.974872) vcan0 284#DE53744443B23C1B
(1502932457.075142) vcan0 284#923CCF26AE2DC947
(1502932457.175410) vcan0 284#74F0A8623933CC64
(1502932457.275676) vcan0 284#9D13976C2160D172
(1502932457.375942) vcan0 284#CCD39F2342520A38
(1502932457.476221) vcan0 284#61C75448C0B03D0C
(1502932457.576492) vcan0 284#AC57374FDA37317B
(1502932457.676753) vcan0 284#10631F3A6A516C44
(1502932457.777006) vcan0 284#13B6745C3712BF3B
(1502932457.877267) vcan0 284#24135A2713FC0801
(1502932457.977532) vcan0 284#BD19F551C5D18416
(1502932458.077797) vcan0 284#F450440C098E2E0C
(1502932458.178063) vcan0 284#F5C7551D0C5D3167
(1502932458.278321) vcan0 284#FF23731C838DE478
(1502932458.378585) vcan0 284#B7FC434A32E71E32
(1502932458.478843) vcan0 284#A9CE411B9650B80E
