(1502935215.397326) vcan0 284#E0195413EF096433
(1502935215.407557) vcan0 284#B37B8D11F890CC07
(1502935215.417778) vcan0 284#FEEEBC54E51DA621
(1502935215.428033) vcan0 284#551A1E4A7264121E
(1502935215.438245) vcan0 284#F1571378904B9D32
(1502935215.448465) vcan0 284#F028744B154E5E0F
(1502935215.458700) vcan0 284#4AD448589D722947
(1502935215.468918) vcan0 284#48BE165B4011D14F
(1502935215.479172) vcan0 284#A1AD72454D601C59
(1502935215.489391) vcan0 284#0BFB177BDB63000D
(1502935215.499612) vcan0 284#ADC8101B86E7FA66
(1502935215.509836) vcan0 284#A540437B94AE1969
(1502935215.520048) vcan0 284#C22D721B444D0C01
(1502935215.530170) vcan0 284#9962B11FDF6AB618
(1502935215.540346) vcan0 284#7AB61627E5F63119
(1502935215.550558) vcan0 284#5885171D5BD06A3A
(1502935215.560714) vcan0 284#D400964C0C01A52E
(1502935215.570886) vcan0 284#53613742D2EF5221
(1502935215.581095) vcan0 284#F11E4B50A87B550C
(1502935215.591264) vcan0 284#4554653FE2765E48
(1502935215.601452) vcan0 284#38C7F23E357DD90A
(1502935215.611662) vcan0 284#F7C4BC57829B3B17
(1502935215.621819) vcan0 284#D2EF02524083D332
(1502935215.631999) vcan0 284#C2AC0C67739D7517
(1502935215.642204) vcan0 284#8DE3EF0BCEA72462
(1502935215.652325) vcan0 284#4E0176243AAC0027
(1502935215.662494) vcan0 284#548F1F49F441B91F
(1502935215.672709) vcan0 284#CE5A1A1016BD9164
(1502935215.682863) vcan0 284#388FC52067BDCB2F
(1502935215.693052) vcan0 284#F627487DB345DC47
(1502935215.703275) vcan0 284#4CB4FD484EAD5F1A
(1502935215.713404) vcan0 284#0E16470220B59315
(1502935215.723561) vcan0 284#5AAE044961777E44
(1502935215.733774) vcan0 284#F3A4E6364CCD4F19
(1502935215.743942) vcan0 284#0AF3D35038F94B76
(1502935215.754117) vcan0 284#2E44AE6142BAC60F
(1502935215.764322) vcan0 284#6D76250126096B39
(1502935215.774439) vcan0 284#C55502273F662853
(1502935215.784598) vcan0 284#668C3E6C87020F0E
(1502935215.794804) vcan0 284#B2039E6AF36F2E78
(1502935215.804918) vcan0 284#55AA33700105140F
(1502935215.815073) vcan0 284#2D1C2F1FA9395339
(1502935215.825246) vcan0 284#F546CD2EFB76492F
(1502935215.835362) vcan0 284#C0F6E41D2DD6924F
(1502935215.845602) vcan0 284#6234155FB61E2D1B
(1502935215.855810) vcan0 284#E01B6F17AFE81228
(1502935215.865926) vcan0 284#04CC8C35EE31B619
(1502935215.876090) vcan0 284#CF9DA63D5F7A917E
(1502935215.886278) vcan0 284#50A9345EC2428D74
(1502935215.896444) vcan0 284#AB47E1175A9C082F
(1502935215.906621) vcan0 284#FA3BD96AD98B8F79
(1502935215.916828) vcan0 284#9C56CF3E67B2FE6B
(1502935215.926981) vcan0 284#FF94FA3261ACD165
(1502935215.937162) vcan0 284#A618273F6521391F
(1502935215.947375) vcan0 284#E9AEE073591CC529
(1502935215.957536) vcan0 284#589167173E591464
(1502935215.967722) vcan0 284#5A21D93885AD9636
(1502935215.977936) vcan0 284#E892671D4F68A667
(1502935215.988056) vcan0 284#8024E065A8894C3B
(1502935215.998251) vcan0 284#7C3E3937E358F544
(1502935216.008471) vcan0 284#5EA879565D5AA84E
(1502935216.018590) vcan0 284#9241086D6274060C
(1502935216.028760) vcan0 284#4B8C5E6861DFAE2A
(1502935216.038974) vcan0 284#C1EE970A9B359346
(1502935216.049129) vcan0 284#24223C1F6C367922
(1502935216.059317) vcan0 284#F5D19B751E5E150A
(1502935216.069527) vcan0 284#46C2081C92286B34
(1502935216.079650) vcan0 284#861014764557034F
(1502935216.089817) vcan0 284#F3D43C1A2C293B35
(1502935216.100004) vcan0 284#AB783C6EDC831D0E
(1502935216.110159) vcan0 284#8545005F030AA405
(1502935216.120400) vcan0 284#1BDD3172DF66D917
(1502935216.130677) vcan0 284#89B73A3C0370990F
(1502935216.140972) vcan0 284#2ECF7F7F09DC1A22
(1502935216.151212) vcan0 284#ABF9E54AAB0DB936
(1502935216.161479) vcan0 284#EC34106709A25F21
(1502935216.171772) vcan0 284#086861057E761854
(1502935216.181990) vcan0 284#6B16662D53F4BF6D
(1502935216.192239) vcan0 284#E055C77E2D05FE37
(1502935216.202493) vcan0 284#EF2953340478031E
(1502935216.212705) vcan0 284#993B775AE4FBEE29
(1502935216.223067) vcan0 284#22D61828DFFD7F76
(1502935216.233373) vcan0 284#76245A5EA8E62C1E
(1502935216.243614) vcan0 284#255583456AF99678
(1502935216.253880) vcan0 284#D50F6853D0CDBF33
(1502935216.264155) vcan0 284#467DB4065A556832
(1502935216.274373) vcan0 284#D3D76339615AE678
(1502935216.284632) vcan0 284#3ABC414A5C8F9E75
(1502935216.294890) vcan0 284#64CA7F08688BC149
(1502935216.305108) vcan0 284#666BB9170FC46553
(1502935216.315377) vcan0 284#13997A0052A0C97E
(1502935216.325655) vcan0 284#1866C5741B01DC05
(1502935216.335854) vcan0 284#D116E252847C2B22
(1502935216.346118) vcan0 284#6FF59B73B16CA951
(1502935216.356408) vcan0 284#B181295A5E1FEF27
(1502935216.366640) vcan0 284#B5E4AC6F4ABDA034
(1502935216.376917) vcan0 284#421BDE51D7BAC517
(1502935216.387199) vcan0 284#2ABB202BB93F3830
(1502935216.397461) vcan0 284#80A1F2354F10A470
(1502935216.407730) vcan0 284#2339CF2855B15A09
