(1502932537.394365) vcan0 284#87C3C959B4FF553F
(1502932537.404706) vcan0 284#CE31684D2864BF57
(1502932537.415074) vcan0 284#CC449968699F406B
(1502932537.425444) vcan0 284#DC8B4332FF79B716
(1502932537.435644) vcan0 284#8801795FE3D73B13
(1502932537.445968) vcan0 284#6297A2616F32F047
(1502932537.456149) vcan0 284#C383E73B3AA68329
(1502932537.466254) vcan0 284#B1D4C0351A96C97E
(1502932537.476482) vcan0 284#60270955C018E974
(1502932537.486688) vcan0 284#54332213A3643C37
(1502932537.496800) vcan0 284#B114091F6BFFA322
(1502932537.507011) vcan0 284#E24F290695F92F77
(1502932537.517224) vcan0 284#F5A9C65484D72A47
(1502932537.527380) vcan0 284#B569183DE29F140A
(1502932537.537568) vcan0 284#4F6B401058FAC777
(1502932537.547760) vcan0 284#252E0248D72E0A6A
(1502932537.557874) vcan0 284#0CFA1D37F35F6A15
(1502932537.568065) vcan0 284#FF92C941D83EB71F
(1502932537.578261) vcan0 284#5CFFAA00DC1E0D74
(1502932537.588376) vcan0 284#D7B86E36E4002460
(1502932537.598570) vcan0 284#BFF6480739501118
(1502932537.608768) vcan0 284#54331428827A3043
(1502932537.618888) vcan0 284#73F694410508D55D
(1502932537.629068) vcan0 284#9D10FA41D31D9E16
(1502932537.639260) vcan0 284#C520BE52F1431C55
(1502932537.649382) vcan0 284#7682DA4D7635C771
(1502932537.659562) vcan0 284#5C43C07759D20354
(1502932537.669750) vcan0 284#0B2FF76852ED864C
(1502932537.679865) vcan0 284#DDA92E1BC0980F26
(1502932537.690099) vcan0 284#348D9B562C156F2B
(1502932537.700322) vcan0 284#1893D71D59BB9D1E
(1502932537.710471) vcan0 284#03447915258DF554
(1502932537.720639) vcan0 284#4C1B083403D74257
(1502932537.730815) vcan0 284#FDCBAC74A91AB334
(1502932537.740928) vcan0 284#DFF54F4BD5841B2B
(1502932537.751031) vcan0 284#8D1BD7149EEC9852
(1502932537.761122) vcan0 284#0ED52C43E14EEB3C
(1502932537.771212) vcan0 284#2167C91582CBC104
(1502932537.781303) vcan0 284#E756C01ABE77C357
(1502932537.791391) vcan0 284#55E95F1BAC777E6D
(1502932537.801550) vcan0 284#AFBBDF2CCC6B3A69
(1502932537.811659) vcan0 284#23AD455F0BFF9F24
(1502932537.821815) vcan0 284#253E3E3D2EDC3C48
(1502932537.831999) vcan0 284#5DEC267102E86C58
(1502932537.842169) vcan0 284#EF744C6E9179C247
(1502932537.852411) vcan0 284#2EFDDB030708240C
(1502932537.862620) vcan0 284#EA34606632415519
(1502932537.872741) vcan0 284#2C9519613750681A
(1502932537.882863) vcan0 284#351898702A61C655
(1502932537.893058) vcan0 284#E06A1B4F140EE83B
(1502932537.903241) vcan0 284#FFE5E1006D86F263
(1502932537.913360) vcan0 284#B2FA800E0DBB0E44
(1502932537.923574) vcan0 284#4FD5DD20D3614A24
(1502932537.933755) vcan0 284#8F86D048362C9E3B
(1502932537.943865) vcan0 284#91D90D7CE56F3064
(1502932537.954033) vcan0 284#E2A31C294095ED28
(1502932537.964162) vcan0 284#B1DB6A4D05516208
(1502932537.974258) vcan0 284#4C948D4DD619A90A
(1502932537.984448) vcan0 284#342D9F50A980B43E
(1502932537.994571) vcan0 284#D801166323A2EB3E
(1502932538.004740) vcan0 284#3BFA760606FFF166
(1502932538.014945) vcan0 284#2AAA0F4B252FD76C
(1502932538.025125) vcan0 284#38404700573F292C
(1502932538.035277) vcan0 284#5C7F3F076D58DF70
(1502932538.045479) vcan0 284#81A0EF013CEA5A56
(1502932538.055609) vcan0 284#8166C72C8086D102
(1502932538.065704) vcan0 284#AA704D3A3461483B
(1502932538.075894) vcan0 284#8D41E046F9452B5B
(1502932538.086024) vcan0 284#07C3925F1DC8B00F
(1502932538.096118) vcan0 284#2F72C916999CA05B
(1502932538.106326) vcan0 284#0238E1731116E63F
(1502932538.116518) vcan0 284#D9318E04B3134C41
(1502932538.126657) vcan0 284#1767484825C61B52
(1502932538.136913) vcan0 284#892DF54B4B94E718
(1502932538.147192) vcan0 284#CF46D010612F0B2F
(1502932538.157350) vcan0 284#6E36D3570A414717
(1502932538.167650) vcan0 284#672EFD1598E0E222
(1502932538.177929) vcan0 284#2F701E04A06E4416
(1502932538.188089) vcan0 284#EF1F0C4F8CEF5D0B
(1502932538.198375) vcan0 284#0DC7230770C0FB50
(1502932538.208640) vcan0 284#C8D9B8618F2DEB33
(1502932538.218796) vcan0 284#F046CD53724A061C
(1502932538.229075) vcan0 284#C38E336F7E88AD1A
(1502932538.239351) vcan0 284#6B903177CA51C64E
(1502932538.249510) vcan0 284#9B505E2A9A02FB0D
(1502932538.259800) vcan0 284#63EE662A9D883F1E
(1502932538.270054) vcan0 284#AC18E14D3D20F52E
(1502932538.280201) vcan0 284#509C8B5FC37F2916
(1502932538.290493) vcan0 284#62E61001D9C9802B
(1502932538.300710) vcan0 284#0E14112F312DE111
(1502932538.310956) vcan0 284#3AF98B5A7C4AE406
(1502932538.321257) vcan0 284#3B6E2829A1278970
(1502932538.331509) vcan0 284#142BC7296BDE462D
(1502932538.341740) vcan0 284#4196CD06044BD378
(1502932538.352041) vcan0 284#F7CDA4384F5DF10D
(1502932538.362280) vcan0 284#740BCF49BFA75D1A
(1502932538.372453) vcan0 284#DE8ADC4165529C1D
(1502932538.382746) vcan0 284#32F26336A1191031
(1502932538.392985) vcan0 284#E3DA49389D82952D
(1502932538.403232) vcan0 284#6B6BD67F7E2BA862
