(1502932529.703796) vcan0 284#14931A7A8786D448
(1502932529.714105) vcan0 284#47276621A46F261D
(1502932529.724372) vcan0 284#DE62837A144C2121
(1502932529.734712) vcan0 284#F1FEA56BCBDB9F75
(1502932529.745047) vcan0 284#92D24D60B9C4DA2B
(1502932529.755315) vcan0 284#2526F060040E285C
(1502932529.765534) vcan0 284#E61C681C4F37DE59
(1502932529.775734) vcan0 284#0117C93247228E49
(1502932529.785852) vcan0 284#4F2D5744F121E821
(1502932529.796057) vcan0 284#0F86053A81048A2E
(1502932529.806192) vcan0 284#D2659F2A058B6C48
(1502932529.816293) vcan0 284#33D12E49C15CB941
(1502932529.826488) vcan0 284#AF5A9457495DB704
(1502932529.836622) vcan0 284#71551B16D6A4B25A
(1502932529.846722) vcan0 284#68AB023D8C625F06
(1502932529.857010) vcan0 284#C72419197C3E1D37
(1502932529.867154) vcan0 284#13E9334F0F4C7F3A
(1502932529.877335) vcan0 284#20AE4354F14BB749
(1502932529.887533) vcan0 284#2398A05B11ADE93F
(1502932529.897664) vcan0 284#BD27573FB56AEE3B
(1502932529.907761) vcan0 284#CB71C46BE24D4720
(1502932529.917961) vcan0 284#B9781618B18E2C08
(1502932529.928086) vcan0 284#3285257ABA8FDF4A
(1502932529.938180) vcan0 284#F8B0BA5181B27C3E
(1502932529.948379) vcan0 284#ABB1C76C0837C00B
(1502932529.958560) vcan0 284#02B7066D7E176717
(1502932529.968672) vcan0 284#0DC22C5436883536
(1502932529.978890) vcan0 284#3F742059BC1CC12B
(1502932529.989029) vcan0 284#7FE5EC3AB1C93B6F
(1502932529.999129) vcan0 284#93C17306E790EF77
(1502932530.009320) vcan0 284#3D2C9B755AE68C1F
(1502932530.019449) vcan0 284#64CF0C2F5015CF44
(1502932530.029548) vcan0 284#69320C5A847D5003
(1502932530.039745) vcan0 284#4161860E8DCAAC35
(1502932530.049877) vcan0 284#962A3A43FE88DD4D
(1502932530.060034) vcan0 284#42359B71619CFE2E
(1502932530.070233) vcan0 284#E1D6246EFCADB109
(1502932530.080440) vcan0 284#122B2B37135C4A68
(1502932530.090554) vcan0 284#B63D91540ADCE508
(1502932530.100755) vcan0 284#940EC72662EF5841
(1502932530.110929) vcan0 284#1213A61496C5CD13
(1502932530.121040) vcan0 284#E006C05820D5D268
(1502932530.131237) vcan0 284#CC4D034A1F7BE031
(1502932530.141362) vcan0 284#DCF193144B33F004
(1502932530.151462) vcan0 284#D0441C216FB3071B
(1502932530.161666) vcan0 284#33C4DF7C0D71B716
(1502932530.171807) vcan0 284#CA99943A9793EC2B
(1502932530.181980) vcan0 284#5D86865B33CCA014
(1502932530.192192) vcan0 284#1B113D2F9FE70C6A
(1502932530.202327) vcan0 284#C0964D4AB13B7772
(1502932530.212425) vcan0 284#9D70EA3703CCE83B
(1502932530.222614) vcan0 284#12D875217E470F26
(1502932530.232740) vcan0 284#FF799A452403A158
(1502932530.242859) vcan0 284#91A3590EB5B72B1A
(1502932530.253060) vcan0 284#2FDF866125B22035
(1502932530.263254) vcan0 284#17A7845B41F22C76
(1502932530.273369) vcan0 284#BC77EE48F7AD4434
(1502932530.283681) vcan0 284#61C7FF5E88C5F112
(1502932530.293856) vcan0 284#172925663EB99373
(1502932530.303961) vcan0 284#D4F8E117E76D4107
(1502932530.314162) vcan0 284#AD6C9B0E07BDC114
(1502932530.324304) vcan0 284#F5DEF81D77063049
(1502932530.334402) vcan0 284#9E50AE4052657F79
(1502932530.344601) vcan0 284#ABD2D05DB961EB6F
(1502932530.354747) vcan0 284#F14C8C636B691E28
(1502932530.364900) vcan0 284#6B9D62628FBD761B
(1502932530.375114) vcan0 284#6E3507647D75D803
(1502932530.385307) vcan0 284#0D0586416DAFA129
(1502932530.395420) vcan0 284#A278795C9FA8DF4F
(1502932530.405621) vcan0 284#2367CD43D157003E
(1502932530.415751) vcan0 284#C45A00053A0E521F
(1502932530.425848) vcan0 284#124A2D3480D2EE4D
(1502932530.436049) vcan0 284#32BC965374112D13
(1502932530.446177) vcan0 284#0998E06049E5BB39
(1502932530.456343) vcan0 284#B2CAC006DD90C278
(1502932530.466662) vcan0 284#3053FD405F375C15
(1502932530.476971) vcan0 284#E44D840D2532F65E
(1502932530.487229) vcan0 284#D73D8C5E829E324E
(1502932530.497477) vcan0 284#7897755882105D3C
(1502932530.507782) vcan0 284#3B001E3E69E4013C
(1502932530.517981) vcan0 284#ED797B64A69D8020
(1502932530.528242) vcan0 284#F8A178575CAF8248
(1502932530.538527) vcan0 284#2413592406A7FE18
(1502932530.548777) vcan0 284#C95E2472C68BD200
(1502932530.559094) vcan0 284#A54FDE68ECC5F135
(1502932530.569321) vcan0 284#97E3D23E69AADE6D
(1502932530.579509) vcan0 284#27D44355A92D0073
(1502932530.589726) vcan0 284#EA7CCD3B5990DA28
(1502932530.599870) vcan0 284#1D3F2D06F314AE1C
(1502932530.609975) vcan0 284#A2759662CF09EE0C
(1502932530.620213) vcan0 284#D0A57015D2C89323
(1502932530.630390) vcan0 284#2F414A22B4F3F422
(1502932530.640499) vcan0 284#F8FA8902067FD600
(1502932530.650698) vcan0 284#369227717092FF5A
(1502932530.660870) vcan0 284#888F333D7192452F
(1502932530.670984) vcan0 284#D97601177509AF21
(1502932530.681178) vcan0 284#1830C64FD2187A6E
(1502932530.691310) vcan0 284#D1B8316A3C431F74
(1502932530.701410) vcan0 284#D8BF78079B17565C
(1502932530.711602) vcan0 284#02CFF1747D0F5770
