(1502935123.494049) vcan0 284#D7F15C72D924E43A
(1502935123.504369) vcan0 284#D4091F1C5A0CD121
(1502935123.514593) vcan0 284#4050DF035C851326
(1502935123.524976) vcan0 284#7008821EBA846C73
(1502935123.535453) vcan0 284#E0A7A7686AEF1A7B
(1502935123.551406) vcan0 284#6440AD79219F875C
(1502935123.561896) vcan0 284#6C3BF54964DB6933
(1502935123.572101) vcan0 284#3A3D6555320ADF43
(1502935123.582324) vcan0 284#CF8D381BFE29104A
(1502935123.592533) vcan0 284#5497BE24217FD018
(1502935123.602671) vcan0 284#0DAFB45D9EDD091F
(1502935123.612920) vcan0 284#BFF7B86E36F42046
(1502935123.623137) vcan0 284#1A6CC949E896782E
(1502935123.633260) vcan0 284#9D05D8324EC7525B
(1502935123.643435) vcan0 284#CE729B4F631DB94F
(1502935123.653660) vcan0 284#95D4E134A564F841
(1502935123.663873) vcan0 284#3C429D0A69DE0051
(1502935123.674072) vcan0 284#0071C9637C927C0E
(1502935123.684273) vcan0 284#C563147770794B02
(1502935123.694390) vcan0 284#3717E901A50BBC5F
(1502935123.704575) vcan0 284#DA68667D9B57967B
(1502935123.714798) vcan0 284#C6AA433C47A45B47
(1502935123.724974) vcan0 284#FF32002F00E8A811
(1502935123.735168) vcan0 284#79AE3A0BCFC0384A
(1502935123.745397) vcan0 284#FF11B95BCD45F92F
(1502935123.755525) vcan0 284#F03F09630CC16D39
(1502935123.765767) vcan0 284#6B23034FAF37C251
(1502935123.775983) vcan0 284#43B58E7F868FCC18
(1502935123.786150) vcan0 284#97CE3A00E0BA6632
(1502935123.796339) vcan0 284#D4561F746641D64F
(1502935123.806553) vcan0 284#43D81F02692B0129
(1502935123.816681) vcan0 284#0BA6CE11801ABD0C
(1502935123.826870) vcan0 284#D209027A0B179875
(1502935123.837071) vcan0 284#FCAC391B976D1671
(1502935123.847196) vcan0 284#7B90E37733C4221D
(1502935123.857379) vcan0 284#3C79D25056F94975
(1502935123.867579) vcan0 284#CF1BB9180324160D
(1502935123.877703) vcan0 284#9D9DA53CCE4EB947
(1502935123.887964) vcan0 284#030CBF1E164CE047
(1502935123.898177) vcan0 284#9D0FF211021E787A
(1502935123.908308) vcan0 284#E391D9778D4FFB74
(1502935123.918497) vcan0 284#0FDFE5334EB5DC46
(1502935123.928693) vcan0 284#3D87BD4652947433
(1502935123.938813) vcan0 284#D444A95FD455F846
(1502935123.949005) vcan0 284#324FDB65A89BC853
(1502935123.959217) vcan0 284#3A97CE167627FB67
(1502935123.969409) vcan0 284#11C7C97C463D9D28
(1502935123.979599) vcan0 284#F641B874E3D0CB76
(1502935123.989787) vcan0 284#5154351EF2EEF10F
(1502935123.999906) vcan0 284#7A3EE267CDE41816
(1502935124.010091) vcan0 284#26B3142DB7B7B438
(1502935124.020290) vcan0 284#23DE620BF5CECD45
(1502935124.030458) vcan0 284#BADBCA45C07B0848
(1502935124.040661) vcan0 284#C31D870DBDE78964
(1502935124.050855) vcan0 284#D6C7E80F612D791F
(1502935124.060980) vcan0 284#C005025FB959C207
(1502935124.071165) vcan0 284#EE7C7414CFE4E712
(1502935124.081379) vcan0 284#070F9F4E2B04325B
(1502935124.091548) vcan0 284#21795C46DC53482E
(1502935124.101749) vcan0 284#005A2A2253C8372C
(1502935124.111962) vcan0 284#84EF10023AF1F838
(1502935124.122085) vcan0 284#C9EF321496B6DA7E
(1502935124.132277) vcan0 284#802E9661BF31EB08
(1502935124.142496) vcan0 284#7987A675D282CB7F
(1502935124.152616) vcan0 284#B220DD18F4C5885D
(1502935124.162800) vcan0 284#9F67E415D8D3F145
(1502935124.173119) vcan0 284#AB7D3D16C2454721
(1502935124.183310) vcan0 284#CDA2BF0B6559085C
(1502935124.193647) vcan0 284#82C14F6990C04619
(1502935124.204068) vcan0 284#2241924058893879
(1502935124.214264) vcan0 284#F1EDBF38E246941F
(1502935124.224650) vcan0 284#11E3FA00E06A344D
(1502935124.235135) vcan0 284#B12B7C3218F2994F
(1502935124.245339) vcan0 284#0B6F6628D2A4D878
(1502935124.255677) vcan0 284#F445E27D0BC9904A
(1502935124.266043) vcan0 284#266D10257935F37F
(1502935124.276328) vcan0 284#46BA8903EF5C4339
(1502935124.286649) vcan0 284#0FECCD7EC6E81F65
(1502935124.297124) vcan0 284#AF8E2E4288737474
(1502935124.307332) vcan0 284#986BEB6461AF0B5B
(1502935124.317689) vcan0 284#7C39FD5137D3CF7A
(1502935124.328038) vcan0 284#3983FD2027B73A68
(1502935124.338241) vcan0 284#F918171C0626BD2C
(1502935124.348603) vcan0 284#8C1043447BDA6605
(1502935124.359022) vcan0 284#96E60346AF51D504
(1502935124.369304) vcan0 284#D3639F7E88D4C37E
(1502935124.379615) vcan0 284#91986924E4469A7F
(1502935124.389940) vcan0 284#683FF84B43C4E556
(1502935124.400149) vcan0 284#FD38344F73AE5E74
(1502935124.410467) vcan0 284#1569BE4FF17E164D
(1502935124.420784) vcan0 284#7F77EF3E3BD6CE74
(1502935124.431039) vcan0 284#6AB4094DC5317942
(1502935124.441359) vcan0 284#2B33122E79A0D74B
(1502935124.451683) vcan0 284#8B1A9927DAC14070
(1502935124.461878) vcan0 284#02144C402486840C
(1502935124.472253) vcan0 284#3B714C4B7E4D4912
(1502935124.482742) vcan0 284#5B59540774F4496C
(1502935124.493109) vcan0 284#A604847A55726B23
(1502935124.503504) vcan0 284#7A1A07193215C73E
(1502935124.513893) vcan0 284#D04CD22810010B5F
