(1502930364.419983) vcan0 284#D3C79533784D6451
(1502930364.430202) vcan0 284#3F22A42ED832B677
(1502930364.440423) vcan0 284#C9AA213661A4BB71
(1502930364.450718) vcan0 284#7772775D2EB40E3A
(1502930364.460950) vcan0 284#124B8078145A5151
(1502930364.471140) vcan0 284#D25DF6664AE1242F
(1502930364.481417) vcan0 284#BD89E84FECEBD404
(1502930364.491647) vcan0 284#6988A065806C9031
(1502930364.501830) vcan0 284#8F52A82A98B15B48
(1502930364.512007) vcan0 284#78891B41D6D82D7B
(1502930364.522190) vcan0 284#51912A2BD6870E6F
(1502930364.532422) vcan0 284#1439812FD6025445
(1502930364.542626) vcan0 284#7EE79E0C687D5845
(1502930364.552818) vcan0 284#C490F32C5B2CA06F
(1502930364.563072) vcan0 284#434D212997127D75
(1502930364.573268) vcan0 284#09812E691615B75C
(1502930364.583509) vcan0 284#0F60E14648A3D217
(1502930364.593826) vcan0 284#EE476D54D90A037D
(1502930364.604110) vcan0 284#A9478E0966BAE431
(1502930364.614397) vcan0 284#07BF1137BC920E02
(1502930364.624685) vcan0 284#7A143603D91C081E
(1502930364.634945) vcan0 284#06743331379E1E53
(1502930364.645144) vcan0 284#C608DD226FFCD316
(1502930364.655455) vcan0 284#B70AAF04555B854D
(1502930364.665734) vcan0 284#08AE2F5F3094CA45
(1502930364.675992) vcan0 284#2B34B348593F5A0A
(1502930364.686202) vcan0 284#061CD9343F6D3478
(1502930364.696420) vcan0 284#2F42AE4F84037841
(1502930364.706610) vcan0 284#A7EA8C3DF3D2A17C
(1502930364.716818) vcan0 284#E02F1831EA37AE66
(1502930364.726960) vcan0 284#8BE51E72E9B0461A
(1502930364.737103) vcan0 284#004D65439A450039
(1502930364.747366) vcan0 284#31541932EF94D217
(1502930364.757498) vcan0 284#73500336DA9BA73B
(1502930364.767633) vcan0 284#554FB7497A0F156D
(1502930364.777845) vcan0 284#962EB63DCF63ED4C
(1502930364.788023) vcan0 284#542C1D0B9DA2E96E
(1502930364.798186) vcan0 284#07020C201A35FA2D
(1502930364.808403) vcan0 284#0C9FBD05BE0CBB24
(1502930364.818536) vcan0 284#6F907F7B144DED64
(1502930364.828682) vcan0 284#EEA0856A9BC43244
(1502930364.838897) vcan0 284#6E8C476FF5BC5E1F
(1502930364.849028) vcan0 284#DA31673C9DCEF53E
(1502930364.859165) vcan0 284#79C0D660821CF479
(1502930364.869393) vcan0 284#91A1973B59F0EE11
(1502930364.879580) vcan0 284#6C54A2601C87B62D
(1502930364.889742) vcan0 284#42A1352C6DA10724
(1502930364.899973) vcan0 284#B6CCB66673F54E5E
(1502930364.910152) vcan0 284#5C36DA3B2A1DBA1C
(1502930364.920317) vcan0 284#4E91F619B1859105
(1502930364.930511) vcan0 284#A42CCF09E4BFAC57
(1502930364.940650) vcan0 284#80E97E52F858EC14
(1502930364.950791) vcan0 284#8162964687EB8A72
(1502930364.961014) vcan0 284#128EE6428E01544C
(1502930364.971144) vcan0 284#46F84517821E663E
(1502930364.981324) vcan0 284#A24E41313499CB01
(1502930364.991561) vcan0 284#1DE3980210DB8820
(1502930365.001688) vcan0 284#29562A21F714003F
(1502930365.011856) vcan0 284#AEA97E5FA3160102
(1502930365.022091) vcan0 284#7931F4383F4B161B
(1502930365.032224) vcan0 284#FC06F013E6859619
(1502930365.042359) vcan0 284#5BD2CC483FA82540
(1502930365.052587) vcan0 284#53279E3D119F832F
(1502930365.062716) vcan0 284#B29D741EAF5D7879
(1502930365.072911) vcan0 284#3BBC3D4C002F6B38
(1502930365.083129) vcan0 284#60E3097FE0E80C56
(1502930365.093342) vcan0 284#E5EE1710E0CC8851
(1502930365.103503) vcan0 284#D841F96A6651AE56
(1502930365.113699) vcan0 284#68B81344EBCFDF2D
(1502930365.123904) vcan0 284#F4520223AEB0595B
(1502930365.134067) vcan0 284#6DEE456C97A14354
(1502930365.144334) vcan0 284#E249255D8AD1DE6E
(1502930365.154483) vcan0 284#A77CCC740CA04F7E
(1502930365.164621) vcan0 284#81E6DE2D55264B54
(1502930365.174847) vcan0 284#AFB65000FB17D366
(1502930365.185025) vcan0 284#9471616FABBD4014
(1502930365.195208) vcan0 284#E19D6900EF432E38
(1502930365.205435) vcan0 284#EA65665434C5073E
(1502930365.215591) vcan0 284#01E3B1679D03DB72
(1502930365.225795) vcan0 284#E32280373C9FEF33
(1502930365.236030) vcan0 284#9D32462B43068A36
(1502930365.246186) vcan0 284#1C88FC0982215E3B
(1502930365.256359) vcan0 284#23D31208F5C9F574
(1502930365.266605) vcan0 284#E9720C128B8B264C
(1502930365.276745) vcan0 284#E099D522DDC50E35
(1502930365.286921) vcan0 284#393C80274D881B0F
(1502930365.297145) vcan0 284#746752091C86A504
(1502930365.307353) vcan0 284#D759FA7D1CE41E7E
(1502930365.317517) vcan0 284#2826F5025840D92B
(1502930365.327731) vcan0 284#710A6A52D7DC4503
(1502930365.337881) vcan0 284#5358AC12067CCB41
(1502930365.348029) vcan0 284#829A861734F61513
(1502930365.358266) vcan0 284#F5BFF9796D00ED6B
(1502930365.368430) vcan0 284#68BB1D51F6A2AB61
(1502930365.378598) vcan0 284#0A04C85E4BDE9D08
(1502930365.388841) vcan0 284#33429B15A7360E0A
(1502930365.399050) vcan0 284#8EE4273F4FCA971F
(1502930365.409300) vcan0 284#2A586C45B2B73A47
(1502930365.419737) vcan0 284#44948D1413CB7857
(1502930365.430167) vcan0 284#3D436113242E6337
(1502930365.440478) vcan0 284#F090870C777FE13A
(1502930365.450802) vcan0 284#71B67E4665F8D915
(1502930365.461118) vcan0 284#9305873F48107944
(1502930365.471517) vcan0 284#81DCF813BB2B7C42
(1502930365.481842) vcan0 284#A1505270F2E66266
(1502930365.492122) vcan0 284#9208C245F4A8FE02
(1502930365.502398) vcan0 284#F8622E2814A3485D
(1502930365.512647) vcan0 284#299F1416EE222822
(1502930365.522800) vcan0 284#81A33549915A3267
(1502930365.532997) vcan0 284#E4C5D3038BA7FD27
(1502930365.543206) vcan0 284#DD38D06F17086F19
(1502930365.553403) vcan0 284#33DE0B326B1DF82E
(1502930365.563602) vcan0 284#67D206395D367877
(1502930365.573806) vcan0 284#1DD53276AB66944D
(1502930365.583997) vcan0 284#7001F14E5B189409
(1502930365.594192) vcan0 284#D094F7046092785B
(1502930365.604398) vcan0 284#D2977544414B764B
(1502930365.614588) vcan0 284#C58A5271659DFC03
(1502930365.624788) vcan0 284#8A5BEF0F46674B05
(1502930365.634994) vcan0 284#20C978462BAC4100
(1502930365.645171) vcan0 284#394EAE6BB2D13A0C
(1502930365.655378) vcan0 284#1F55400331B1DC13
(1502930365.665613) vcan0 284#C674836948F45419
(1502930365.675818) vcan0 284#1FD404364818B932
(1502930365.686034) vcan0 284#DA4E8700049AD839
(1502930365.696279) vcan0 284#D3BFB65AB7875770
(1502930365.706465) vcan0 284#1BA24753069EC20C
(1502930365.716668) vcan0 284#22A54F1F82744E0C
(1502930365.726901) vcan0 284#63D43A04407A8215
(1502930365.737085) vcan0 284#2EDBE259D3D52B53
(1502930365.747312) vcan0 284#9B92161FFE6FDA5E
(1502930365.757541) vcan0 284#3468A42E6D2A8C63
(1502930365.767718) vcan0 284#3FBB502AF9F2F61F
(1502930365.781143) vcan0 284#D2C78867C916403A
(1502930365.791363) vcan0 284#405A4225F290012E
(1502930365.801481) vcan0 284#F4C2813A79A8F010
(1502930365.811744) vcan0 284#A4623C3A1418C23D
(1502930365.821963) vcan0 284#AA59CD246AD7BF23
(1502930365.832088) vcan0 284#5C0C1757CA2DD25A
(1502930365.842366) vcan0 284#B2EF7856365B9E57
(1502930365.852581) vcan0 284#CEC7AA1486AF2F31
(1502930365.862708) vcan0 284#EDE2F547E969F267
(1502930365.873055) vcan0 284#8C4DF23D10884567
(1502930365.883268) vcan0 284#6CDE4074F0212D42
(1502930365.893489) vcan0 284#5002C87C9AB9234E
(1502930365.903726) vcan0 284#C3F75815EB94DE1B
(1502930365.913945) vcan0 284#9829FE2CF75FFD43
(1502930365.924065) vcan0 284#58BF6A7FD7E44E57
(1502930365.934347) vcan0 284#F152F4632A87F366
(1502930365.944563) vcan0 284#A1FB8E1131AD3609
(1502930365.954680) vcan0 284#1C18F51495BE104C
(1502930365.964966) vcan0 284#AA55271AC07A314F
(1502930365.975180) vcan0 284#A9D6D20954AFF43E
(1502930365.985348) vcan0 284#2A52F17206E3E960
(1502930365.995661) vcan0 284#1EDDC619DD416A49
(1502930366.005876) vcan0 284#3C3E8838ECA4712E
(1502930366.016040) vcan0 284#63F1997A2A217E00
(1502930366.026343) vcan0 284#D60E6416EF3E8C38
(1502930366.036573) vcan0 284#3AA9C36742EDA40A
(1502930366.046701) vcan0 284#DF60B97A8AAB8B64
(1502930366.056975) vcan0 284#DCA6C858A3581210
(1502930366.067194) vcan0 284#75406A0074D0C605
(1502930366.077320) vcan0 284#9AB80F54CDFFD47F
(1502930366.087624) vcan0 284#4BB5155D8B0B0438
(1502930366.097848) vcan0 284#F786C866ECB0A46E
(1502930366.107978) vcan0 284#BCB83A41139FBD7B
(1502930366.118258) vcan0 284#826FB53A660E625B
(1502930366.128499) vcan0 284#D319EF4A2B468844
(1502930366.138622) vcan0 284#BBBD561AFD6BE03D
(1502930366.148892) vcan0 284#31297225D99A1D34
(1502930366.159113) vcan0 284#DAAD4A076E67FA5D
(1502930366.169240) vcan0 284#C63F8F623D9FE401
(1502930366.179519) vcan0 284#9888785E9C4EF378
(1502930366.189749) vcan0 284#2DDE703AD2313C46
(1502930366.199927) vcan0 284#DE3B98030C3F2A35
(1502930366.210199) vcan0 284#5CDDC72ABAE2605C
(1502930366.220556) vcan0 284#AF973C45D11D322B
(1502930366.230837) vcan0 284#2EB327624A504C19
(1502930366.241140) vcan0 284#9E1D072B79683D3F
(1502930366.251689) vcan0 284#D55B505195A4CF11
(1502930366.261952) vcan0 284#6619E22D92148B12
(1502930366.272252) vcan0 284#A8438D0DE8889768
(1502930366.282620) vcan0 284#F822ED6D7B5D7C58
(1502930366.292985) vcan0 284#13CF1F2DB3E04308
(1502930366.303257) vcan0 284#78C95C1645F89152
(1502930366.313584) vcan0 284#8D7B613C5377A71D
(1502930366.323863) vcan0 284#B35F8C3053BBF01E
(1502930366.334160) vcan0 284#90168C1F4BE8040F
(1502930366.344594) vcan0 284#EF09E417BDF4FC59
(1502930366.354895) vcan0 284#1D1A4155CD457C1B
(1502930366.365186) vcan0 284#CA33270F79F70800
(1502930366.375556) vcan0 284#8728DD7779CB6354
(1502930366.385872) vcan0 284#4A153B2BB5DB045A
(1502930366.396175) vcan0 284#C31BB06DE8324256
(1502930366.406491) vcan0 284#2E4442199977003F
(1502930366.416684) vcan0 284#7DD71168945D2447
(1502930366.426982) vcan0 284#2B8C8B51251B9F75
(1502930366.437210) vcan0 284#7CE6BB2F23AF783F
(1502930366.447343) vcan0 284#A0781B4E90B5DB5C
(1502930366.457636) vcan0 284#D78FBC4718427864
(1502930366.467859) vcan0 284#D5AD6D2F640B1E04
(1502930366.478044) vcan0 284#6BB91F02880DFA5F
(1502930366.488394) vcan0 284#B7C60E23FCCFAB21
(1502930366.498628) vcan0 284#D3F5FE6EA6D0F23A
(1502930366.508748) vcan0 284#B9C4A87BF00F4044
(1502930366.518998) vcan0 284#73166F5683F8CF0A
(1502930366.529217) vcan0 284#69074944FA3E4C4E
(1502930366.539431) vcan0 284#FDC3335FB31C846F
(1502930366.549683) vcan0 284#AF1A5128C0DFE34C
(1502930366.559876) vcan0 284#9B4FC645DD5E9341
(1502930366.570002) vcan0 284#5957E40B1827D82D
(1502930366.580244) vcan0 284#72BCB70884E36F5D
(1502930366.590465) vcan0 284#3D427723EEA27338
(1502930366.600649) vcan0 284#A892E81CDDBA9271
(1502930366.610950) vcan0 284#7E584F157F22A564
(1502930366.621194) vcan0 284#F5FC0A565306BD44
(1502930366.631451) vcan0 284#E32DC36861B62A58
(1502930366.641710) vcan0 284#DB13B7249AF4D10B
(1502930366.652048) vcan0 284#5D86D679AE09B613
(1502930366.662315) vcan0 284#40C5C446164B7F75
(1502930366.672574) vcan0 284#9E19F657B3DB331D
(1502930366.682818) vcan0 284#9A434F0007213F1C
(1502930366.693077) vcan0 284#AD1A806B9707835F
(1502930366.703306) vcan0 284#BA3DC30B5C35D113
(1502930366.713516) vcan0 284#57E7662C558D8951
(1502930366.723735) vcan0 284#39946455B13E4B38
(1502930366.733966) vcan0 284#6DB4617FAB501C5E
(1502930366.744194) vcan0 284#3522BB15AAF6D822
(1502930366.754427) vcan0 284#9AF38F16DDB4A332
(1502930366.764695) vcan0 284#87B16B14184CDF2B
(1502930366.774909) vcan0 284#5CD748177DAE766A
(1502930366.785121) vcan0 284#6C529C703F050C00
(1502930366.795404) vcan0 284#DE64A14247665315
(1502930366.805613) vcan0 284#D9F9DD0B3BEB773C
(1502930366.815833) vcan0 284#F66F092919BFA252
(1502930366.826101) vcan0 284#5136F7319489FF00
(1502930366.836314) vcan0 284#CC9AD66FEB794632
(1502930366.846557) vcan0 284#9CAA3E1D79B5565B
(1502930366.856821) vcan0 284#8281C91156E80129
(1502930366.867033) vcan0 284#D5EA276FDA68303E
(1502930366.877261) vcan0 284#AC758B7A0F7F8C44
(1502930366.887509) vcan0 284#8BA77B76192AED79
(1502930366.897740) vcan0 284#BACFA822C0C9360C
(1502930366.907971) vcan0 284#C420C61C54C33839
(1502930366.918211) vcan0 284#9E7EDA3E4BD23131
(1502930366.928441) vcan0 284#6D0F1865FA552356
(1502930366.938682) vcan0 284#C880A81BD961B455
(1502930366.948949) vcan0 284#3A5B2F56A6E5495E
(1502930366.959158) vcan0 284#20C8076B13550D62
(1502930366.969387) vcan0 284#E1D0C11A16381114
(1502930366.979662) vcan0 284#2D14B0343307B94C
(1502930366.989895) vcan0 284#ABC11015F9AE8624
(1502930367.000119) vcan0 284#1E81FF7E476C4F32
(1502930367.010366) vcan0 284#7364DD7FA102C910
(1502930367.020577) vcan0 284#9D54515B484F056F
(1502930367.030787) vcan0 284#7B6BF94E49CADC55
(1502930367.041048) vcan0 284#57CE913306137545
(1502930367.051258) vcan0 284#63F4C94F129E3A56
(1502930367.061526) vcan0 284#C6DCAB512715906C
(1502930367.071785) vcan0 284#6661730F645B8610
(1502930367.082001) vcan0 284#72E7C11DD3708B74
(1502930367.092211) vcan0 284#5FB1A9663B686A39
(1502930367.102496) vcan0 284#ACD23F4A990CD93C
(1502930367.112756) vcan0 284#E14DB417CD9A4735
(1502930367.122999) vcan0 284#AC61E61EC31E7632
(1502930367.133211) vcan0 284#E3D25849D9759653
(1502930367.143401) vcan0 284#F6252F7F8E94695E
(1502930367.153613) vcan0 284#D3241D7814A72E7E
(1502930367.163847) vcan0 284#D500B9104689FA77
(1502930367.174040) vcan0 284#B5A9F70E73550A6C
(1502930367.184205) vcan0 284#8ED8FF663015F15D
(1502930367.194427) vcan0 284#BC1FE741E6A6911A
(1502930367.204653) vcan0 284#362866231F14B111
(1502930367.214849) vcan0 284#F844CC70FD041275
(1502930367.225118) vcan0 284#4629417E5EA63F00
(1502930367.235343) vcan0 284#61609805B910031C
(1502930367.245569) vcan0 284#3217CB74C011426C
(1502930367.255844) vcan0 284#F4786D55DEE90A3F
(1502930367.266059) vcan0 284#591E1B29D5C6216D
(1502930367.276280) vcan0 284#AB84527406800148
(1502930367.286561) vcan0 284#98E5971F8F57AB3D
(1502930367.296829) vcan0 284#DFF5971B8E0BC71E
(1502930367.307074) vcan0 284#1DEC141CB21AB513
(1502930367.317342) vcan0 284#A3B2F51CF3ECCD2C
(1502930367.327590) vcan0 284#F8A3AF0B585CED2B
(1502930367.337822) vcan0 284#6642D818877CAF72
(1502930367.348105) vcan0 284#8971DE092262BF5A
(1502930367.358338) vcan0 284#6D23410DBF99442D
(1502930367.368488) vcan0 284#4276706C65680D7E
(1502930367.378725) vcan0 284#BC9E5622889FB16A
(1502930367.388925) vcan0 284#C30E4D7E1EFFEE27
(1502930367.399115) vcan0 284#41B0B406F5251873
(1502930367.409370) vcan0 284#DE1031143529225C
(1502930367.419593) vcan0 284#D40F2332382F4C3D
(1502930367.429783) vcan0 284#0BF043497F947526
(1502930367.440029) vcan0 284#3EAF4D05A3D5DB68
(1502930367.450233) vcan0 284#0EEC20641DA5E520
(1502930367.460421) vcan0 284#32E1A2072CD83500
(1502930367.470681) vcan0 284#D0BF9A34D5939824
(1502930367.480911) vcan0 284#1FC5032DC8634A40
(1502930367.491132) vcan0 284#2DF085508507DC45
(1502930367.501399) vcan0 284#4FE0F932B661645A
(1502930367.511632) vcan0 284#A7699B20BC033B40
(1502930367.521866) vcan0 284#76FBA807E9DF0B0D
(1502930367.532134) vcan0 284#216C483E329AFF29
(1502930367.542385) vcan0 284#727FBD77E57A953C
(1502930367.552649) vcan0 284#5099EE51B32F727E
(1502930367.562967) vcan0 284#DAA0AD2F2FAA1F66
(1502930367.573160) vcan0 284#E958945AAEB0D061
(1502930367.583381) vcan0 284#67D96B23F448D823
(1502930367.593590) vcan0 284#2E454608A588B928
(1502930367.603788) vcan0 284#971EB40C3C31676C
(1502930367.613977) vcan0 284#C22D9F49C9FF5614
(1502930367.624168) vcan0 284#68099D6C92ED397E
(1502930367.634530) vcan0 284#9E93EF3887CEA019
(1502930367.644740) vcan0 284#5B51843ECC837509
(1502930367.654938) vcan0 284#0CD67C5FAA317E71
(1502930367.665307) vcan0 284#82E5D963B43F1800
(1502930367.675571) vcan0 284#6735B931F8E0826B
(1502930367.685773) vcan0 284#9D1F240D88A10170
(1502930367.696027) vcan0 284#2B7B82150F9FE104
(1502930367.706225) vcan0 284#6D1C972C7B147167
(1502930367.716442) vcan0 284#C3CE530348BD445C
(1502930367.726699) vcan0 284#AABE904DAC27E85D
(1502930367.736921) vcan0 284#F66D153E1198FC70
(1502930367.747155) vcan0 284#A070C00124B35B46
(1502930367.757404) vcan0 284#B620B619378F740E
(1502930367.767650) vcan0 284#61E4C232794E5563
(1502930367.777875) vcan0 284#018FCB22C9ED5F1F
(1502930367.788142) vcan0 284#0B3C8F619F22BB5B
(1502930367.798368) vcan0 284#51BC0039668D1320
(1502930367.808574) vcan0 284#6BA630655D927D18
(1502930367.818793) vcan0 284#11BF9111EE8B0A49
(1502930367.829017) vcan0 284#11D2951878F44A43
(1502930367.839245) vcan0 284#E66C8D34AFF1B925
(1502930367.849482) vcan0 284#00964C3311E80F4A
(1502930367.859705) vcan0 284#BE909B2A6EB2E35F
(1502930367.869904) vcan0 284#8DFC8031815FEF2D
(1502930367.880102) vcan0 284#B66F283C37BB117F
(1502930367.890311) vcan0 284#2D87D70BACDD3D7A
(1502930367.900524) vcan0 284#49530E70CDF7970D
(1502930367.910774) vcan0 284#D1909940FF73C409
(1502930367.921012) vcan0 284#05870C1C32755C73
(1502930367.931219) vcan0 284#78C2196D0616D83E
(1502930367.941453) vcan0 284#FB62BC1284FEA84E
(1502930367.951659) vcan0 284#A538931A4C1FBD4B
(1502930367.961874) vcan0 284#EA8BBC6E11DFC37F
(1502930367.972108) vcan0 284#AAB13A64FB4A4E00
(1502930367.982330) vcan0 284#FF6ACE48BB83D07C
(1502930367.992582) vcan0 284#733F9943E5D75B7D
(1502930368.003024) vcan0 284#6A758A2274D5E576
(1502930368.013245) vcan0 284#F7BF6B472906264D
(1502930368.023451) vcan0 284#E287C95684BCEC78
(1502930368.033726) vcan0 284#AA65157B98F7F112
(1502930368.043944) vcan0 284#BB77FE77D8ECEC06
(1502930368.054164) vcan0 284#44D52F0D04CB0C68
(1502930368.064527) vcan0 284#A5E484141566C94D
(1502930368.074780) vcan0 284#043FD171AA6B9130
(1502930368.084990) vcan0 284#47DB25417C01EB5E
(1502930368.095235) vcan0 284#B081696F433EE253
(1502930368.105456) vcan0 284#0000942D56BAFC09
(1502930368.115676) vcan0 284#8F5D9F1FEB8B501C
(1502930368.125874) vcan0 284#6799C009390FDA03
(1502930368.136062) vcan0 284#E6D69E1C66048F52
(1502930368.146249) vcan0 284#F592AA005A163860
(1502930368.156445) vcan0 284#4BDCEA4F5F083523
(1502930368.166650) vcan0 284#CEEB1D57429C5617
(1502930368.176859) vcan0 284#880E5B70B073E72D
(1502930368.187104) vcan0 284#C65843103374706B
(1502930368.197359) vcan0 284#486BD94082D04108
(1502930368.207586) vcan0 284#0B615D728C40094E
(1502930368.217789) vcan0 284#869B4E70B045E206
(1502930368.228101) vcan0 284#A2A6D21B8ADA1F62
(1502930368.238364) vcan0 284#5BB17337E981F85C
(1502930368.248751) vcan0 284#07DC0A410B33DD26
(1502930368.259058) vcan0 284#2CC0DA3007DC9E6E
(1502930368.269348) vcan0 284#61EDD930BC1D7A50
(1502930368.279578) vcan0 284#F267EF0AC8869A3A
(1502930368.289867) vcan0 284#F52C5454D93E8E27
(1502930368.300067) vcan0 284#2E8B290DEABFFE54
(1502930368.310358) vcan0 284#3355C6077A67145D
(1502930368.320578) vcan0 284#4AC833780141E45E
(1502930368.330782) vcan0 284#BC036B74D2D68E68
(1502930368.341067) vcan0 284#B1B4CB0C835CAE04
(1502930368.351279) vcan0 284#054BFF53F91FA54D
(1502930368.361492) vcan0 284#052DF00C10AC5C46
(1502930368.371878) vcan0 284#8560AE1B8BC83E7D
(1502930368.382099) vcan0 284#C1F13E4D27078137
(1502930368.392317) vcan0 284#16A35E5F1CA3B204
(1502930368.402688) vcan0 284#118979141D7F6920
(1502930368.412977) vcan0 284#27D68F2B3D495445
(1502930368.423136) vcan0 284#245B080F89C3695C
(1502930368.433475) vcan0 284#F966CE1517C3F719
(1502930368.443701) vcan0 284#514A0417EF93226A
(1502930368.453819) vcan0 284#F001864180D52D24
(1502930368.464199) vcan0 284#D953213F23574C49
(1502930368.474397) vcan0 284#FA3C4201231C5537
(1502930368.484517) vcan0 284#24983028B640AD75
(1502930368.494899) vcan0 284#F6F2E31FD54CFC34
(1502930368.505123) vcan0 284#399D5B7AFB3DE373
(1502930368.515306) vcan0 284#CE6CA1023ECA4B07
(1502930368.525636) vcan0 284#0CEA3F3A53CD4F1E
(1502930368.535895) vcan0 284#CA928A04CDDB7E07
(1502930368.546078) vcan0 284#7BD4D055E035E963
(1502930368.556445) vcan0 284#E97E310C8C5D4A6A
(1502930368.566648) vcan0 284#FDB452041055C137
(1502930368.576836) vcan0 284#C9A69E2F21105B13
(1502930368.587256) vcan0 284#99182B14C30D6D45
(1502930368.597594) vcan0 284#38D3522DEB622F2B
(1502930368.607784) vcan0 284#B2A18F2F28D5D86E
(1502930368.618166) vcan0 284#6B385D4F8BF5B06E
(1502930368.628406) vcan0 284#4B2C253865759F50
(1502930368.638600) vcan0 284#AF1106266FC45560
(1502930368.648995) vcan0 284#1BB64C46A504EA45
(1502930368.659220) vcan0 284#441152155553A840
(1502930368.669410) vcan0 284#A042CD39127EF317
(1502930368.679802) vcan0 284#931DF447AC2C0D74
(1502930368.690037) vcan0 284#664B43365DB07E4C
(1502930368.700224) vcan0 284#79088C7BE11F140C
(1502930368.710676) vcan0 284#3DE667306287BD07
(1502930368.720870) vcan0 284#6D7D5E763A9BBA34
(1502930368.731049) vcan0 284#73DC7E3F3624FD25
(1502930368.741426) vcan0 284#5CAB15480CF5A953
(1502930368.751613) vcan0 284#F9316A6B947E6875
(1502930368.761762) vcan0 284#F757D97EABD3F91A
(1502930368.772088) vcan0 284#BD5341646290364E
(1502930368.782290) vcan0 284#37C9AA090880661C
(1502930368.792413) vcan0 284#C705D61EE6DAB02F
(1502930368.802803) vcan0 284#7844BC7CE3BB2265
(1502930368.813053) vcan0 284#8BDF9A75BC550E12
(1502930368.823172) vcan0 284#380FCB252B22682F
(1502930368.833558) vcan0 284#CFD3012ACB2CBF6D
(1502930368.843776) vcan0 284#D84E7523351F4560
(1502930368.853898) vcan0 284#29DD3D3A5157011F
(1502930368.864079) vcan0 284#163F596C66C3A56A
(1502930368.874257) vcan0 284#B4DEBE2683BCB762
(1502930368.884389) vcan0 284#A15E601F27BB3D66
(1502930368.894736) vcan0 284#B9E0B408FD097667
(1502930368.904983) vcan0 284#33B0E739B3121F74
(1502930368.915162) vcan0 284#9188DE5C2B08C138
(1502930368.925571) vcan0 284#5EE6180F4EDC1F41
(1502930368.935804) vcan0 284#8D98F70695AFC318
(1502930368.945966) vcan0 284#575C865D559ECD25
(1502930368.956337) vcan0 284#7B8A7448CFA0425A
(1502930368.966545) vcan0 284#385AF00A066A0F3E
(1502930368.976667) vcan0 284#8BF6506C7069BB30
(1502930368.987057) vcan0 284#328C776D5ACA5216
(1502930368.997265) vcan0 284#3B967A1E0ADBEC10
(1502930369.007447) vcan0 284#8FE997766473B858
(1502930369.017780) vcan0 284#5B32EE2FA528F162
(1502930369.028010) vcan0 284#CB365E430F11AD56
(1502930369.038187) vcan0 284#28E5A8456C95BE62
(1502930369.048663) vcan0 284#36CCEA3CE2C55D4E
(1502930369.058864) vcan0 284#699F344A6A7CD276
(1502930369.068980) vcan0 284#95D87C42FA271327
(1502930369.079338) vcan0 284#9584932FF3BE9551
(1502930369.089535) vcan0 284#49043368221D8B36
(1502930369.099700) vcan0 284#896E596AA060B945
(1502930369.110045) vcan0 284#77BB585C04F9CD32
(1502930369.120250) vcan0 284#6F01FC1FAF154967
(1502930369.130425) vcan0 284#0B63DD70FAF74C0C
(1502930369.140755) vcan0 284#1F7F04183DEF545E
(1502930369.150979) vcan0 284#55C29F225B157F36
(1502930369.161111) vcan0 284#47CA416FE4AB3719
(1502930369.171452) vcan0 284#BF88370FA2FC2F1F
(1502930369.181659) vcan0 284#8AD4287C8ABF9552
(1502930369.191770) vcan0 284#B20DDD75B2B9D141
(1502930369.202034) vcan0 284#F6545435E8D9C732
(1502930369.212232) vcan0 284#947F2F105FF4887F
(1502930369.222476) vcan0 284#52569A292958AC52
(1502930369.232786) vcan0 284#5A1C9C26E7DA2D59
(1502930369.243151) vcan0 284#1D174224A320CF0E
(1502930369.253332) vcan0 284#0AF8B80FA6859B0E
(1502930369.263660) vcan0 284#4381885481B3116C
(1502930369.273912) vcan0 284#AA7E6941B2828474
(1502930369.284132) vcan0 284#31C95A53B5E14632
(1502930369.294561) vcan0 284#AC7AD10050485F6B
(1502930369.304817) vcan0 284#F2D09B10013D7123
(1502930369.315051) vcan0 284#AB5DDE21399BDD7F
(1502930369.325321) vcan0 284#E6E8A83C6BE61531
(1502930369.335561) vcan0 284#DC970D1F70BDD138
(1502930369.345773) vcan0 284#F5A5AB038EA5EA14
(1502930369.356108) vcan0 284#2277A37AECFAFF38
(1502930369.366345) vcan0 284#767FB247B7F6D20A
(1502930369.376563) vcan0 284#4BEF8838C9D54C71
(1502930369.386907) vcan0 284#E04E7F5DA50B255F
(1502930369.397124) vcan0 284#B0B07A4AFD65C101
(1502930369.407334) vcan0 284#482CF46DBAA8335A
(1502930369.417724) vcan0 284#A3EB5C108BAD7C42
(1502930369.427968) vcan0 284#3C5C45464E6AC651
(1502930369.438289) vcan0 284#3D3001376D25A019
(1502930369.448803) vcan0 284#034C0D04EAAAD237
(1502930369.459022) vcan0 284#BD6DFF04F61CA914
(1502930369.469204) vcan0 284#EBE7435B69CBDD26
(1502930369.479568) vcan0 284#2FB88614D1D0EC17
(1502930369.489782) vcan0 284#D4B1F3570B509433
(1502930369.499964) vcan0 284#418EBE50C9579F5B
(1502930369.510175) vcan0 284#99F57E486405624B
(1502930369.520377) vcan0 284#B5529F1410753110
(1502930369.530584) vcan0 284#1BFC34560142284D
(1502930369.540826) vcan0 284#D94A7E01FB4AB433
(1502930369.551035) vcan0 284#A64D4D2C89FBF84B
(1502930369.561214) vcan0 284#F9B07535EF79411A
(1502930369.571512) vcan0 284#44A42C269C9CD245
(1502930369.581883) vcan0 284#7A27BE5C8000726C
(1502930369.592079) vcan0 284#EA069917B857BF13
(1502930369.602355) vcan0 284#ED251206EE52A61B
(1502930369.612568) vcan0 284#A202924BAA93110B
(1502930369.622743) vcan0 284#E46F4F308DEAD526
(1502930369.633047) vcan0 284#135FEF311328D644
(1502930369.643322) vcan0 284#5FBBC23EE710E309
(1502930369.653495) vcan0 284#1F786A78A049810F
(1502930369.663702) vcan0 284#B1688265B86DE940
(1502930369.673886) vcan0 284#044FE35A66BB217A
(1502930369.684045) vcan0 284#C8E21A511F4B1831
(1502930369.694241) vcan0 284#67FD4947A12D9952
(1502930369.704449) vcan0 284#1B96CC640E4B9773
(1502930369.714624) vcan0 284#2B29921E1447421A
(1502930369.724937) vcan0 284#FDC4D80D6FCDBE44
(1502930369.735153) vcan0 284#B0E3146077EC966A
(1502930369.745337) vcan0 284#EFCD30319BEAAD77
(1502930369.755588) vcan0 284#2F44567EDCF34237
(1502930369.765774) vcan0 284#893D5413D146E849
(1502930369.775971) vcan0 284#868754426DADA343
(1502930369.786189) vcan0 284#5F31BE709AE64374
(1502930369.796387) vcan0 284#80D57908BEEC802F
(1502930369.806584) vcan0 284#81F7267E9F4DE400
(1502930369.816801) vcan0 284#5E36023F3260A963
(1502930369.827007) vcan0 284#58BBCD416385E519
(1502930369.837191) vcan0 284#991BCB5D209EE812
(1502930369.847412) vcan0 284#82D0FD4A00191525
(1502930369.857611) vcan0 284#C2CB81659D66CA2F
(1502930369.867777) vcan0 284#0E64AC18EDF41304
(1502930369.878083) vcan0 284#B1AD0C4A0B298526
(1502930369.888292) vcan0 284#5CC2D2486291212A
(1502930369.898441) vcan0 284#83151C114B90037A
(1502930369.908634) vcan0 284#FD7BCF21B259720F
(1502930369.918810) vcan0 284#2784463186B92335
(1502930369.928954) vcan0 284#84A05A59AD0B9B73
(1502930369.939169) vcan0 284#F366C778E3D1184A
(1502930369.949362) vcan0 284#47F2DE67733C4101
(1502930369.959482) vcan0 284#A1BE9979C9E90566
(1502930369.969690) vcan0 284#138A2502FFF49B38
(1502930369.979879) vcan0 284#FB49AF496B45F343
(1502930369.989995) vcan0 284#627A815294657A27
(1502930370.000201) vcan0 284#8BE3DB56E54A7F1D
(1502930370.010411) vcan0 284#957E8F4C4DAF5D3C
(1502930370.020562) vcan0 284#82B1494DA3E23B65
(1502930370.030769) vcan0 284#3AA47140345F5617
(1502930370.041030) vcan0 284#AF0BC10B96664409
(1502930370.051291) vcan0 284#96F077413221DD1C
(1502930370.061717) vcan0 284#E1F64703936C4763
(1502930370.072028) vcan0 284#E47A4F2C087B8E34
(1502930370.082256) vcan0 284#19266B18681BAA05
(1502930370.092655) vcan0 284#B68629280C8D3211
(1502930370.103007) vcan0 284#4BEDC24FFD780810
(1502930370.113260) vcan0 284#7FC97312ECAB5C49
(1502930370.123597) vcan0 284#C6620E7692539914
(1502930370.134017) vcan0 284#ECA0F801C2ACBD3F
(1502930370.144299) vcan0 284#FD988C584E1B7A54
(1502930370.154710) vcan0 284#56123867897C682F
(1502930370.165040) vcan0 284#3366F971EB90C733
(1502930370.175282) vcan0 284#D62BC66BB617433F
(1502930370.185689) vcan0 284#8F73031911D0372C
(1502930370.195993) vcan0 284#EA7699563E7FC424
(1502930370.206221) vcan0 284#A7367C3580671118
(1502930370.216918) vcan0 284#70A0A141892DC438
(1502930370.227315) vcan0 284#13D4587B541BF16D
(1502930370.237567) vcan0 284#91A8526D2CFAC313
(1502930370.247952) vcan0 284#BD369B73472F7C15
(1502930370.258280) vcan0 284#3887F62408245E43
(1502930370.268495) vcan0 284#45A88425B7506A37
(1502930370.278856) vcan0 284#F5CFBA0C0B0B931B
(1502930370.289186) vcan0 284#4AA4034CE170B30E
(1502930370.299419) vcan0 284#CDB7505B473D9024
(1502930370.309743) vcan0 284#2F8C2D6324CA8842
(1502930370.319993) vcan0 284#D0B9F85363F22655
(1502930370.330232) vcan0 284#0F5B5076A7E5BE3F
(1502930370.340640) vcan0 284#190A6A149ECE530F
(1502930370.350945) vcan0 284#B8B5F66B0381036B
(1502930370.361188) vcan0 284#DC4D18345FEC7221
(1502930370.371630) vcan0 284#83E814034CEEB975
(1502930370.381883) vcan0 284#E819375A96BC6D7E
(1502930370.392117) vcan0 284#A109AB637AC28947
(1502930370.402506) vcan0 284#C2B631125E404657
(1502930370.412766) vcan0 284#C1F1055DFA3D2837
(1502930370.423035) vcan0 284#6664A41A069A8A02
(1502930370.433407) vcan0 284#B18E926E5B345F27
(1502930370.443621) vcan0 284#12A51D1EFB32963A
(1502930370.453787) vcan0 284#3CA51236DF5C6E79
(1502930370.464188) vcan0 284#4370265F6C314019
(1502930370.474413) vcan0 284#0327F73B132A1F33
(1502930370.484531) vcan0 284#CF23676E13824732
(1502930370.494920) vcan0 284#BA0FDE72E82DD102
(1502930370.505135) vcan0 284#B1509B4172C5D45E
(1502930370.515329) vcan0 284#EBAED46D8E9EB375
(1502930370.525730) vcan0 284#D2B147006E97E970
(1502930370.535965) vcan0 284#DA8C6D6BBACB7E5A
(1502930370.546145) vcan0 284#0454576F7B96184F
(1502930370.556483) vcan0 284#348E0822C60A8901
(1502930370.566678) vcan0 284#D9D65E26F67F0E7F
(1502930370.576858) vcan0 284#C048B138403B0341
(1502930370.587198) vcan0 284#FC19990171D74327
(1502930370.597519) vcan0 284#9B6F62680EBFB61F
(1502930370.607698) vcan0 284#6D0ADA61D814751E
(1502930370.618095) vcan0 284#EE1B2519B07A0041
(1502930370.628296) vcan0 284#4446B537F1421C55
(1502930370.638409) vcan0 284#C3A41F74136A1C26
(1502930370.648850) vcan0 284#04C563077EB4FD66
(1502930370.659097) vcan0 284#FB97ED28B615FF48
(1502930370.669217) vcan0 284#F079D245E646C216
(1502930370.679859) vcan0 284#44B4B23EC22B1A46
(1502930370.690058) vcan0 284#54DEAB071E41202A
(1502930370.700175) vcan0 284#7DF7982058320377
(1502930370.710552) vcan0 284#9AD73879B185A142
(1502930370.720736) vcan0 284#1E3D8C7873AE971F
(1502930370.730885) vcan0 284#A705B041DE853D31
(1502930370.741190) vcan0 284#B3E99A60A41F4943
(1502930370.751554) vcan0 284#4F5D81584F59FD48
(1502930370.761706) vcan0 284#B2DEFF62BC675B3A
(1502930370.771990) vcan0 284#276E7267A0FA247C
(1502930370.783042) vcan0 284#6CE25B7B6BB4271F
(1502930370.793249) vcan0 284#923D415130877B6F
(1502930370.803691) vcan0 284#7E1E44459602A558
(1502930370.813902) vcan0 284#AE3B795679B6316E
(1502930370.824050) vcan0 284#4C18A4219EB54B1C
(1502930370.834270) vcan0 284#5FFDF30490CC5660
(1502930370.844457) vcan0 284#61E16562B3DB9F0C
(1502930370.854635) vcan0 284#AF0D770ADED8FE02
(1502930370.864851) vcan0 284#0B0EA30349E5AF03
(1502930370.875006) vcan0 284#8F5EA045294B2F7C
(1502930370.885109) vcan0 284#BC93472337645007
(1502930370.895338) vcan0 284#07D16C2D707DE203
(1502930370.905510) vcan0 284#DB83994A562EEE05
(1502930370.915681) vcan0 284#BFD6DF4C8D62992D
(1502930370.926003) vcan0 284#13964940E6445234
(1502930370.936195) vcan0 284#2E5DBE297F78A53B
(1502930370.946338) vcan0 284#51F97953C09AFF7A
(1502930370.956573) vcan0 284#AFFF202BCF17BE18
(1502930370.966721) vcan0 284#569DA4535D3B9A01
(1502930370.976824) vcan0 284#48CEEF06A3B54875
(1502930370.987064) vcan0 284#FCF0E51DA7CBE30B
(1502930370.997263) vcan0 284#33829F555DD24B00
(1502930371.007414) vcan0 284#5AA78318E28F1660
(1502930371.017786) vcan0 284#3BAB4A0365B5261C
(1502930371.027992) vcan0 284#2B75C663CA09EB48
(1502930371.038137) vcan0 284#8E005618E8080E07
(1502930371.048460) vcan0 284#016E3B5095D1C245
(1502930371.058662) vcan0 284#5886F00ADCF1D41A
(1502930371.068805) vcan0 284#EBFFB04B175DD057
(1502930371.079024) vcan0 284#6A546E48FE95FA0B
(1502930371.089183) vcan0 284#FDA1220C98B12C72
(1502930371.099330) vcan0 284#7E0EA0474E9B9C5F
(1502930371.109557) vcan0 284#584C2C6D2D0EC172
(1502930371.119745) vcan0 284#1DB35A78AEE9D040
(1502930371.129916) vcan0 284#8B495B7465814A7F
(1502930371.140140) vcan0 284#519F1936873A4112
(1502930371.150430) vcan0 284#0C4D2E0B8521B90B
(1502930371.160703) vcan0 284#E40C8D1266F4B123
(1502930371.171043) vcan0 284#67B1CF6B1FB8D715
(1502930371.181322) vcan0 284#CBA9D83F9326964F
(1502930371.191504) vcan0 284#E9C1C25E59AA2E58
(1502930371.201724) vcan0 284#7B2FA456EB2FFE2E
(1502930371.212020) vcan0 284#EE7BF11DD3B59461
(1502930371.222346) vcan0 284#C721D349D97BA269
(1502930371.232818) vcan0 284#EA12653931764112
(1502930371.243196) vcan0 284#D8119D75E7B48745
(1502930371.253394) vcan0 284#C9276E0456203D3D
(1502930371.263738) vcan0 284#3550242521749A71
(1502930371.273932) vcan0 284#832EFE2F52037F1D
(1502930371.284055) vcan0 284#D05D6B320E785924
(1502930371.294330) vcan0 284#B784C91C21FD8468
(1502930371.304625) vcan0 284#95B29A36C3D1F727
(1502930371.314815) vcan0 284#A61E3E7479BF2749
(1502930371.325065) vcan0 284#29C6A94B0ED00D60
(1502930371.335248) vcan0 284#9877FF5EF46F820B
(1502930371.345429) vcan0 284#A1F6A32F8239C23D
(1502930371.355740) vcan0 284#4D1AB1631C264806
(1502930371.365933) vcan0 284#6D69C06C3B96A201
(1502930371.376119) vcan0 284#EFDBDC67348B9336
(1502930371.386366) vcan0 284#1412456BD9EE4121
(1502930371.396562) vcan0 284#6601D548EC23E260
(1502930371.406724) vcan0 284#C0A3C9662F29434D
(1502930371.416977) vcan0 284#42441F1EF5F3ED0B
(1502930371.427170) vcan0 284#519DDD3EC6721D4E
(1502930371.437341) vcan0 284#47F76C2921FB4871
(1502930371.447586) vcan0 284#D4EA7672FE7B3646
(1502930371.457783) vcan0 284#42F8CD596A9D1129
(1502930371.467897) vcan0 284#C14D2E6EE9160C4E
(1502930371.478148) vcan0 284#E35C3972EA13D839
(1502930371.488351) vcan0 284#F7E6192E7CD43851
(1502930371.498578) vcan0 284#DE835A4598DDBD5D
(1502930371.508831) vcan0 284#FE0DFB0E2B9E0B29
(1502930371.519069) vcan0 284#B40306646B77BB7B
(1502930371.529267) vcan0 284#6634AE2AA3DFE24B
(1502930371.539486) vcan0 284#9F024F327A46F315
(1502930371.549712) vcan0 284#7CCE246D0504247B
(1502930371.559874) vcan0 284#676AD5763C72EE53
(1502930371.570242) vcan0 284#352D6748A9AEF414
(1502930371.580502) vcan0 284#3166DC5F86CA4407
(1502930371.590725) vcan0 284#6F211263785D4909
(1502930371.600975) vcan0 284#A7C58D78440C8955
(1502930371.611169) vcan0 284#76D97F4FE9BD5B52
(1502930371.621335) vcan0 284#AEA99A7E3727AE3D
(1502930371.631607) vcan0 284#D2D467209106D470
(1502930371.641784) vcan0 284#213B8677C9BB814E
(1502930371.651930) vcan0 284#0DDB0C42FFBEE03C
(1502930371.662161) vcan0 284#61993F2C0BE90751
(1502930371.672357) vcan0 284#2A5DEC65159D4510
(1502930371.682521) vcan0 284#7660C34C90919A10
(1502930371.692756) vcan0 284#B87C285C1663127F
(1502930371.702960) vcan0 284#0AD88D26344B4D49
(1502930371.713137) vcan0 284#1B67367A7142631D
(1502930371.723397) vcan0 284#70BD3B1D50949D42
(1502930371.733603) vcan0 284#1BF15732A123187D
(1502930371.743782) vcan0 284#D65EE2498A126A15
(1502930371.754019) vcan0 284#198161067D247042
(1502930371.764235) vcan0 284#CE1EF36A8F5AE155
(1502930371.774391) vcan0 284#67E2CB147CC88D69
(1502930371.784700) vcan0 284#C6818F1339B73335
(1502930371.794895) vcan0 284#0ECF615AE7BC150B
(1502930371.805063) vcan0 284#0373B5031BAA6E1C
(1502930371.815377) vcan0 284#E67BF647640CF52F
(1502930371.825574) vcan0 284#2793766D10D9E22D
(1502930371.835747) vcan0 284#7AA93A409DF3393A
(1502930371.846088) vcan0 284#A06A7D3E3226631C
(1502930371.856268) vcan0 284#B3564C39AB420B65
(1502930371.866426) vcan0 284#6771B065CFBD8233
(1502930371.876649) vcan0 284#1C856E02D72EEC02
(1502930371.886832) vcan0 284#1F5220763776C634
(1502930371.897004) vcan0 284#79520400F6B00240
(1502930371.907280) vcan0 284#C288304A92D36506
(1502930371.917475) vcan0 284#73D5720290A72335
(1502930371.927592) vcan0 284#222E475CDAB73E17
(1502930371.937983) vcan0 284#0D70B11EE8AFD66F
(1502930371.948207) vcan0 284#146F724C1B3F1379
(1502930371.958377) vcan0 284#D06CEC7A17E22750
(1502930371.968671) vcan0 284#36E98115B6E8E242
(1502930371.978950) vcan0 284#7BEE1C005D7CF802
(1502930371.989203) vcan0 284#C7C1C570F5975740
(1502930371.999566) vcan0 284#FB6F323D672C432F
(1502930372.009848) vcan0 284#28BEBA5CAEC67E76
(1502930372.020104) vcan0 284#126F4E148F2F6B42
(1502930372.030520) vcan0 284#7D84012A2FF4BC16
(1502930372.040819) vcan0 284#665E57459DD62120
(1502930372.051076) vcan0 284#666A834BDFB05B45
(1502930372.061441) vcan0 284#9387246028F3B315
(1502930372.071674) vcan0 284#7284C14B065D9762
(1502930372.081838) vcan0 284#B99AD74A94B20828
(1502930372.092104) vcan0 284#E114D679C60A8969
(1502930372.102293) vcan0 284#7C62DF17F5834846
(1502930372.112448) vcan0 284#E1499C624CCFCB12
(1502930372.122798) vcan0 284#0C66701617331E78
(1502930372.133049) vcan0 284#03B8AE5587548D16
(1502930372.143223) vcan0 284#75AF167BCA797446
(1502930372.153421) vcan0 284#7DECE456701F4938
(1502930372.163604) vcan0 284#31A6B775A5AA9F33
(1502930372.173777) vcan0 284#1EE6C72E4415060A
(1502930372.184013) vcan0 284#34DA0A769C6AC958
(1502930372.194192) vcan0 284#7309C3209A38623B
(1502930372.204300) vcan0 284#3941EB78D973466C
(1502930372.214506) vcan0 284#7AE9BD00CCC80F59
(1502930372.224693) vcan0 284#0267FA01EC6D7F4C
(1502930372.234844) vcan0 284#D225A73BBB01D24C
(1502930372.245051) vcan0 284#80208874B33A7D35
(1502930372.255230) vcan0 284#810C5B36FC82670C
(1502930372.265344) vcan0 284#A8BEC57B6256F718
(1502930372.275573) vcan0 284#4952331FB4243612
(1502930372.285757) vcan0 284#798915114C0AE274
(1502930372.295913) vcan0 284#3C79C328EE382C0C
(1502930372.306232) vcan0 284#1684563BB965A87F
(1502930372.316415) vcan0 284#5E587544472A0E31
(1502930372.326589) vcan0 284#5E1048337D3E3D73
(1502930372.336980) vcan0 284#8B3F143B92EA5229
(1502930372.347178) vcan0 284#19A9064CFE48D75B
(1502930372.357336) vcan0 284#2C23B56452EAF144
(1502930372.367503) vcan0 284#D8BC1D48A60C7365
(1502930372.377689) vcan0 284#1EB3011EDA23184A
(1502930372.387813) vcan0 284#927AF231F0D8A859
(1502930372.398113) vcan0 284#9525EA16129B7A26
(1502930372.408322) vcan0 284#A413260F1632454D
(1502930372.418498) vcan0 284#0F1EE2324CD2EB0A
(1502930372.428738) vcan0 284#78883C6658701552
(1502930372.438940) vcan0 284#01F7211DF1115277
(1502930372.449127) vcan0 284#A47AF7463D70E545
(1502930372.459460) vcan0 284#E04A7E03BAFE4D02
(1502930372.469698) vcan0 284#F6D58D453EA3F347
(1502930372.479816) vcan0 284#01295C3354E6D578
(1502930372.490030) vcan0 284#BBE1303B8D68706E
(1502930372.500213) vcan0 284#E6D02822D48A3707
(1502930372.510323) vcan0 284#8BB1474A12F4DD06
(1502930372.520593) vcan0 284#2675294C636E6512
(1502930372.530751) vcan0 284#B900516C44282B6A
(1502930372.540896) vcan0 284#3D927D5C4B7B431E
(1502930372.551135) vcan0 284#3501D443D2B76773
(1502930372.561293) vcan0 284#5E16BE44D914FA52
(1502930372.571450) vcan0 284#E8E9AC406D34A077
(1502930372.581676) vcan0 284#25E7E55D6072E926
(1502930372.591872) vcan0 284#C5A4B54926DE077B
(1502930372.602034) vcan0 284#52843B1E691FAD10
(1502930372.612254) vcan0 284#634EED4032CFB921
(1502930372.622461) vcan0 284#231EFB1259247B06
(1502930372.632605) vcan0 284#7072AD6924475746
(1502930372.642884) vcan0 284#AD0A517F2C54DE24
(1502930372.653090) vcan0 284#B1AFC73493DB7921
(1502930372.663213) vcan0 284#00DF152C3D610F7F
(1502930372.673385) vcan0 284#A6CF572827543F78
(1502930372.683582) vcan0 284#A0CF74115FD0A814
(1502930372.693700) vcan0 284#6B7C6A62DE61F26D
(1502930372.703912) vcan0 284#AA4BEC32A07D3E26
(1502930372.714099) vcan0 284#B0195A610862AA77
(1502930372.724266) vcan0 284#7992387999030722
(1502930372.734693) vcan0 284#75964A6F9F791E57
(1502930372.744863) vcan0 284#F975F0483A3B0039
(1502930372.755006) vcan0 284#C55726524BFA2B67
(1502930372.765249) vcan0 284#A35AAD4929A61313
(1502930372.775451) vcan0 284#7DC9E508C678A85C
(1502930372.785603) vcan0 284#82CA8E19EE3B9372
(1502930372.795951) vcan0 284#EBBFFF2230D5DF18
(1502930372.806218) vcan0 284#1A9071179C6FC757
(1502930372.816407) vcan0 284#C3B0593A1A6F8743
(1502930372.826764) vcan0 284#D9D0D6566980B162
(1502930372.837056) vcan0 284#41C3C63B7AA04B68
(1502930372.847220) vcan0 284#C8505A77AD3F311E
(1502930372.857576) vcan0 284#58023E56739C462A
(1502930372.867859) vcan0 284#4DBD6F44081C9837
(1502930372.878034) vcan0 284#7BFEF021C74FA83D
(1502930372.888419) vcan0 284#A11F9F59F1943B11
(1502930372.898693) vcan0 284#66C9C6149B958F22
(1502930372.908940) vcan0 284#2BD03B4A2B21ED66
(1502930372.919273) vcan0 284#E68FBB09CF2AE913
(1502930372.929555) vcan0 284#54C7007A6459A112
(1502930372.939807) vcan0 284#95A39170D7918F13
(1502930372.950181) vcan0 284#5295340580639113
(1502930372.960528) vcan0 284#07676F2C6C25A61C
(1502930372.970806) vcan0 284#1DD3586BCA17C966
(1502930372.981133) vcan0 284#86942D60F6A32F42
(1502930372.991401) vcan0 284#34987A49C857F41B
(1502930373.001654) vcan0 284#70447B2AFCE8D440
(1502930373.011963) vcan0 284#7597253AC846B900
(1502930373.022289) vcan0 284#6F851B6BC254957E
(1502930373.032562) vcan0 284#D1625138EB830C0D
(1502930373.042965) vcan0 284#89A43D3C7282F011
(1502930373.053221) vcan0 284#DC18481EEF6D0451
(1502930373.063409) vcan0 284#0D18803407E98368
(1502930373.073673) vcan0 284#1B8FF137F4A73B3E
(1502930373.083868) vcan0 284#D6136D7C6F56F231
(1502930373.093986) vcan0 284#5801DD506CB7FE6C
(1502930373.104165) vcan0 284#46E88145AA961156
(1502930373.114352) vcan0 284#EC1A90004D4FF171
(1502930373.124538) vcan0 284#16BCB77209EEE86B
(1502930373.134732) vcan0 284#1867BA589C50E552
(1502930373.144929) vcan0 284#0092182E4CFF3422
(1502930373.155118) vcan0 284#64A8D96E70D69358
(1502930373.165412) vcan0 284#48E80963D93FFF28
(1502930373.175626) vcan0 284#391D4D59B86D254E
(1502930373.185796) vcan0 284#9C9494270A809E11
(1502930373.195981) vcan0 284#A3F1315B2539D263
(1502930373.206172) vcan0 284#7C028F237F0A7A79
(1502930373.216287) vcan0 284#15A7D6348A1A0F58
(1502930373.226490) vcan0 284#86F3FD613036C86C
(1502930373.236628) vcan0 284#7EC24A165D076B5E
(1502930373.246768) vcan0 284#9F8CBA1ED6C32767
(1502930373.256988) vcan0 284#C9BE694BE6743C64
(1502930373.267137) vcan0 284#805A393DB5D9F94B
(1502930373.277240) vcan0 284#33C42D569616F12F
(1502930373.287439) vcan0 284#BFC7E2374B2BE82E
(1502930373.297588) vcan0 284#3267D602BF59FB65
(1502930373.307778) vcan0 284#972A1D51970FB071
(1502930373.318107) vcan0 284#2F308F3EE0122734
(1502930373.328321) vcan0 284#704FAF1A684DDC17
(1502930373.338528) vcan0 284#98804C020CE44342
(1502930373.348768) vcan0 284#72CD7A293B727E5D
(1502930373.359012) vcan0 284#321D1626EFCF094D
(1502930373.369224) vcan0 284#BA7CF85647C4EC5A
(1502930373.379445) vcan0 284#79EA18254070F638
(1502930373.389599) vcan0 284#77FAB447F7AC633B
(1502930373.399743) vcan0 284#9D77611716876F66
(1502930373.409958) vcan0 284#CD708B226636CB62
(1502930373.420109) vcan0 284#FCFBAB4A4DCBC45F
(1502930373.430289) vcan0 284#1C10C52E30C0D920
(1502930373.440625) vcan0 284#E3E1B50FDBD7A766
(1502930373.450809) vcan0 284#7BEBC14F15498C12
(1502930373.460972) vcan0 284#9A31A34C1316DF20
(1502930373.471187) vcan0 284#AC583C04C961320B
(1502930373.481332) vcan0 284#F32806551DA8EB1E
(1502930373.491436) vcan0 284#32AF0E238BA95257
(1502930373.501599) vcan0 284#298C2F61A47C894C
(1502930373.511776) vcan0 284#C61BD1345BA94507
(1502930373.521940) vcan0 284#934C93198098C90B
(1502930373.532142) vcan0 284#A26D32620C37AC3E
(1502930373.542333) vcan0 284#C008C0441968E729
(1502930373.552518) vcan0 284#03E40F7A5E80215C
(1502930373.562729) vcan0 284#30EF5610D0549B1C
(1502930373.572916) vcan0 284#C4B6EC3E2CEB025B
(1502930373.583091) vcan0 284#1D20607CE0C6B16D
(1502930373.593287) vcan0 284#5CABDC7B0002160C
(1502930373.603467) vcan0 284#BB9E5954D8969E4B
(1502930373.613658) vcan0 284#164BA21E55D0FC20
(1502930373.623859) vcan0 284#EBAC7D6CC2A3DE22
(1502930373.634062) vcan0 284#1F322F2CDED58341
(1502930373.644237) vcan0 284#DF4BCA4151E13D4F
(1502930373.654463) vcan0 284#697FD61809D8F922
(1502930373.664661) vcan0 284#F55DC71B2F9BA74D
(1502930373.674844) vcan0 284#64813F2A89AA5A35
(1502930373.685041) vcan0 284#AF33715907EF710C
(1502930373.695218) vcan0 284#95E106746F3C311E
(1502930373.705401) vcan0 284#2057593699C5166E
(1502930373.715637) vcan0 284#CDBC527A5046B046
(1502930373.725827) vcan0 284#691AB20A92733F39
(1502930373.735947) vcan0 284#7D31B321873A1207
(1502930373.746151) vcan0 284#723AF126D9DC8F1D
(1502930373.756334) vcan0 284#873C28132ED94A7B
(1502930373.766449) vcan0 284#B1732E699D87CA31
(1502930373.776654) vcan0 284#83A9471C9C20AC55
(1502930373.786876) vcan0 284#602BA954A2DB7648
(1502930373.797046) vcan0 284#7AF62F173F777316
(1502930373.807348) vcan0 284#F3BCB417E3750630
(1502930373.817639) vcan0 284#484F6D39E91A7C33
(1502930373.827888) vcan0 284#1211AE7DADD0AC63
(1502930373.838273) vcan0 284#72C5D668C1441F57
(1502930373.848595) vcan0 284#B4BF1E7007A7DD5C
(1502930373.858832) vcan0 284#31815075D4167826
(1502930373.869161) vcan0 284#A06CF44AFE3DA36F
(1502930373.879465) vcan0 284#255D286D0A87A655
(1502930373.889750) vcan0 284#90B1E228A28EDB0E
(1502930373.900079) vcan0 284#91C1B85C03ECD34F
(1502930373.910307) vcan0 284#7B6B6B2C18FEE06F
(1502930373.920525) vcan0 284#31C51E4B2DDF9915
(1502930373.930739) vcan0 284#B685AB21B46E6667
(1502930373.940923) vcan0 284#C9FF456B16B15476
(1502930373.951074) vcan0 284#574ADD2F44F67502
(1502930373.961270) vcan0 284#5528C80C4A079247
(1502930373.971502) vcan0 284#276C7C329E773546
(1502930373.981710) vcan0 284#33220E7B3A7D2A30
(1502930373.991908) vcan0 284#4B48E229A5E7E463
(1502930374.002131) vcan0 284#FBC14907FF07011A
(1502930374.012369) vcan0 284#AD8EC2402C439A7C
(1502930374.022713) vcan0 284#D31E79404DFBB60B
(1502930374.032967) vcan0 284#2B813D6CF87BA12D
(1502930374.043137) vcan0 284#57825D61BB322015
(1502930374.053347) vcan0 284#9A0A7D3CE843163E
(1502930374.063544) vcan0 284#BE1EF4641676E868
(1502930374.073662) vcan0 284#0142F72DEFE31230
(1502930374.083856) vcan0 284#4355827EB7C7A24F
(1502930374.094006) vcan0 284#A45279170C55C869
(1502930374.104150) vcan0 284#CD78F745FB9C5647
(1502930374.114356) vcan0 284#504B3E6C22A1BF52
(1502930374.124536) vcan0 284#45A4E80E78B7BA1E
(1502930374.134711) vcan0 284#C018F51879C6F609
(1502930374.144909) vcan0 284#B234E54E0B61D742
(1502930374.155063) vcan0 284#1EAEDB6DADF62E56
(1502930374.165264) vcan0 284#0A69D85CCB3C9E2E
(1502930374.175485) vcan0 284#DA39C952DE87511D
(1502930374.185631) vcan0 284#1938553A05BB063F
(1502930374.195735) vcan0 284#D603F34A70BAB21B
(1502930374.205916) vcan0 284#C0ED2654710E7007
(1502930374.216098) vcan0 284#59FEC8597F0C1B39
(1502930374.226225) vcan0 284#878458705A40C007
(1502930374.236425) vcan0 284#6EF02D69CAD9DA6E
(1502930374.246611) vcan0 284#110863571243A700
(1502930374.256774) vcan0 284#D62EA358DE805A1D
(1502930374.267007) vcan0 284#0DE0FD47277AE144
(1502930374.277206) vcan0 284#00221A705384E656
(1502930374.287394) vcan0 284#9F319C63C13A0F09
(1502930374.297588) vcan0 284#CC4ADD6051668132
(1502930374.307775) vcan0 284#CC9BE64BEAF8B84E
(1502930374.317975) vcan0 284#FE5CB008D704BF28
(1502930374.328178) vcan0 284#B635577DD896795B
(1502930374.338380) vcan0 284#B58C1046CF6DAC37
(1502930374.348594) vcan0 284#DD51801A8B900311
(1502930374.358824) vcan0 284#3F285F539E3FA76E
(1502930374.369010) vcan0 284#FC9E73189826282D
(1502930374.379204) vcan0 284#1D4CC2278323CC08
(1502930374.389463) vcan0 284#F266E8348B3CF010
(1502930374.399670) vcan0 284#4DFDA677036F4B0C
(1502930374.409850) vcan0 284#9E7F9711242C4A50
(1502930374.420072) vcan0 284#E1EFA529AB5F9559
(1502930374.430305) vcan0 284#4BA62B15E211C019
(1502930374.440425) vcan0 284#FEE37B30EAD7C778
(1502930374.450635) vcan0 284#A34CCF22CA2E5911
(1502930374.460827) vcan0 284#3B3E492B6FE8B56E
(1502930374.470943) vcan0 284#B5271260399BF933
(1502930374.481147) vcan0 284#46ED74176B5D695D
(1502930374.491334) vcan0 284#1232730FFB79855D
(1502930374.501449) vcan0 284#3ACB1515EF83F329
(1502930374.511638) vcan0 284#870A896E79F37468
(1502930374.521786) vcan0 284#8DC39A1883A9FC06
(1502930374.531956) vcan0 284#121A9D15AA0F5D40
(1502930374.542176) vcan0 284#07CDC80F0481854A
(1502930374.552362) vcan0 284#364C4D5154CA6F07
(1502930374.562517) vcan0 284#08F0D056D4CBE462
(1502930374.572733) vcan0 284#78F6B957E9DF7600
(1502930374.582896) vcan0 284#7F2B7A3CC39CE56C
(1502930374.593058) vcan0 284#CBF1361A7E0FF66C
(1502930374.603385) vcan0 284#AD74AD656E3E063D
(1502930374.613673) vcan0 284#483E4F7EE8B2F610
(1502930374.623853) vcan0 284#DE26BC2BFD65615E
(1502930374.634139) vcan0 284#224EF04424143143
(1502930374.644438) vcan0 284#68C3CA3B34806354
