(1502932350.282260) vcan0 284#0CB03A56F3B03616
(1502932350.382521) vcan0 284#B991AC4C33FEB653
(1502932350.482782) vcan0 284#C7FF5A7076943642
(1502932350.583126) vcan0 284#2452F35A142E5E78
(1502932350.683391) vcan0 284#AE0F7F4909B01931
(1502932350.783660) vcan0 284#1EA93F5AE078E326
(1502932350.883909) vcan0 284#74E8911C1C33C156
(1502932350.984170) vcan0 284#E4E4781038C34A51
(1502932351.084435) vcan0 284#60AF2301EDE2BC3B
(1502932351.184700) vcan0 284#035C3D357B39DC72
(1502932351.284959) vcan0 284#C6FF2F5E4C2DA836
(1502932351.385227) vcan0 284#7D524522A7280309
(1502932351.485474) vcan0 284#EDD60C068F6C7747
(1502932351.585748) vcan0 284#4123491285BA6871
(1502932351.686024) vcan0 284#FDFD6F3B251F2A0D
(1502932351.786287) vcan0 284#1778675409AEAA11
(1502932351.886540) vcan0 284#18D06023D0091421
(1502932351.986791) vcan0 284#3CAC6165DFCFBB13
(1502932352.087045) vcan0 284#479E4A6360FE5440
(1502932352.187300) vcan0 284#F3FD190CF5ADC92C
(1502932352.287550) vcan0 284#6AAE6E7111A75966
(1502932352.387801) vcan0 284#D526AD53DE96000E
(1502932352.488074) vcan0 284#2EDA1A3DBA0B2664
(1502932352.588324) vcan0 284#175A4B5F8E893E3E
(1502932352.688567) vcan0 284#A7EEE21F1AB68814
(1502932352.788850) vcan0 284#09C31A316DEE127E
(1502932352.889120) vcan0 284#67E3304B87156053
(1502932352.989406) vcan0 284#1417160754BA3D51
(1502932353.089686) vcan0 284#1682D71A563A5F19
(1502932353.189968) vcan0 284#DA74A64213804756
(1502932353.290238) vcan0 284#7B598926F1EC0D17
(1502932353.390526) vcan0 284#1D2EF2679329EA49
(1502932353.490813) vcan0 284#C2F6213859DA534D
(1502932353.591097) vcan0 284#72F9A55D09956C1B
(1502932353.691388) vcan0 284#BAD8A80D65F7BF69
(1502932353.791661) vcan0 284#FE4236482487177F
(1502932353.891905) vcan0 284#769E1950D369E31B
(1502932353.992189) vcan0 284#021E180DA478340D
(1502932354.092480) vcan0 284#8D7509001978636C
(1502932354.192768) vcan0 284#3202734B3464EC1F
(1502932354.293061) vcan0 284#342EEC003CC58D7C
(1502932354.393356) vcan0 284#A152FF1D9B111D4C
(1502932354.493649) vcan0 284#C3DAED4FB6691525
(1502932354.593936) vcan0 284#EFCB5A1DD95CC56A
(1502932354.694220) vcan0 284#0CA4743EC9400160
(1502932354.794510) vcan0 284#ECDC0C4187FDFD64
(1502932354.894783) vcan0 284#BB2D0F77090BFF28
(1502932354.995067) vcan0 284#1A27E82E7D24312F
(1502932355.095347) vcan0 284#63E552768C208E0C
(1502932355.195624) vcan0 284#86B99D4A1DBEFB03
(1502932355.295903) vcan0 284#F1174E7684FCD312
(1502932355.396169) vcan0 284#4145130367B66746
(1502932355.496448) vcan0 284#5766B72E43632B10
(1502932355.596730) vcan0 284#0C2F9C53E5DBC02E
(1502932355.697009) vcan0 284#5DDB8E7C3E310F1F
(1502932355.797289) vcan0 284#1940AD4E91097B7D
(1502932355.897558) vcan0 284#7AF69C1BBB92AC6C
(1502932355.997836) vcan0 284#2C1B98493DD18A6B
(1502932356.098114) vcan0 284#71FCC1111BE7F266
(1502932356.198395) vcan0 284#162E50567DA03650
(1502932356.298676) vcan0 284#E527F446030B5D17
(1502932356.398954) vcan0 284#049E3435A055033E
(1502932356.499216) vcan0 284#0C165C401EC51C64
(1502932356.599493) vcan0 284#1D7A346D6FFBAE36
(1502932356.699774) vcan0 284#AAE5AA70A333D237
(1502932356.800046) vcan0 284#8CB9AA3A9BFDF866
(1502932356.900302) vcan0 284#2730A64ACDFEBD3D
(1502932357.000570) vcan0 284#02B4602D7E965D79
(1502932357.100853) vcan0 284#1162E94D0EE3FC00
(1502932357.201131) vcan0 284#63721E286E3D784A
(1502932357.301406) vcan0 284#4D140C207DB2CB76
(1502932357.401680) vcan0 284#FF46F347C70AA93B
(1502932357.501946) vcan0 284#384578632B628B11
(1502932357.602209) vcan0 284#05DC3327A9413A75
(1502932357.702477) vcan0 284#46497E781B0A847D
(1502932357.802746) vcan0 284#26E270452B71723F
(1502932357.903009) vcan0 284#1E15E1142A80A57A
(1502932358.003282) vcan0 284#CBC6757D2B2B3D55
(1502932358.103564) vcan0 284#4845C25EE840AA6A
(1502932358.203837) vcan0 284#9A26EC0BF22A6D4F
(1502932358.304111) vcan0 284#8B747C2227E09646
(1502932358.404368) vcan0 284#8D286636B2A4226D
(1502932358.504639) vcan0 284#F4DE54048FDCC663
(1502932358.604888) vcan0 284#313B806605413E52
(1502932358.705130) vcan0 284#9EBFC36494AD9E0E
(1502932358.805397) vcan0 284#737EB61CEBD3CF04
(1502932358.905670) vcan0 284#11606A0572C5A964
(1502932359.005939) vcan0 284#B2DE784049A5E268
(1502932359.106204) vcan0 284#9D273576B7BAAC67
(1502932359.206478) vcan0 284#F2E61C5EE470B36E
(1502932359.306754) vcan0 284#D3C4306518C98D23
(1502932359.407036) vcan0 284#0FE2252EF1D9117A
(1502932359.507305) vcan0 284#4249331EDBA89B2B
(1502932359.607581) vcan0 284#1C054F4F8A8EF57C
(1502932359.707857) vcan0 284#C3E94516B72B3B5B
(1502932359.808133) vcan0 284#7CB9624C4F5EC238
(1502932359.908405) vcan0 284#DE0BD22109E2C802
(1502932360.008685) vcan0 284#0103E525D2EA2626
(1502932360.108972) vcan0 284#99BE8F66323E650C
(1502932360.209247) vcan0 284#D82B6578377E534B
