(1502934731.779948) vcan0 284#08C6891D569F3A1D
(1502934731.790132) vcan0 284#BE566640D9D01615
(1502934731.800371) vcan0 284#93691229BAB19C52
(1502934731.810600) vcan0 284#0938136E8628C665
(1502934731.820775) vcan0 284#EFD7464AFF3ACB03
(1502934731.830981) vcan0 284#EA1EB0392DF3B041
(1502934731.841115) vcan0 284#4B0C591C82E5D915
(1502934731.851216) vcan0 284#38CE8704D323055F
(1502934731.861406) vcan0 284#E157F4761A4AA441
(1502934731.871577) vcan0 284#9904DD4954FD0D4C
(1502934731.881692) vcan0 284#CC82F05902819D55
(1502934731.891893) vcan0 284#2D3305609FEAFD57
(1502934731.902090) vcan0 284#C7BD79629AA2556D
(1502934731.912202) vcan0 284#4B1E1776CDA56A0B
(1502934731.922400) vcan0 284#C36D534E1AEE3B7F
(1502934731.932562) vcan0 284#27D8A930CC33DD6B
(1502934731.942671) vcan0 284#708D761CE52E1071
(1502934731.952953) vcan0 284#A504F40003F78845
(1502934731.963087) vcan0 284#A0E0AC43AF3C076F
(1502934731.973194) vcan0 284#891F4F2B8FB8F30D
(1502934731.983367) vcan0 284#AE77D272743EFF64
(1502934731.993560) vcan0 284#BCABA44FF9832B0F
(1502934732.003721) vcan0 284#F623D97AF4792C54
(1502934732.013913) vcan0 284#CCA7306ED77BCD71
(1502934732.024047) vcan0 284#0FC4D01566AC0D38
(1502934732.034148) vcan0 284#2B79DB3DDB46C16F
(1502934732.044329) vcan0 284#682DAB0D59ACE01D
(1502934732.054459) vcan0 284#7A31BF472FEB2470
(1502934732.064564) vcan0 284#F34E360BC64FD63D
(1502934732.074773) vcan0 284#FC908F7BB6BC8959
(1502934732.084913) vcan0 284#E03D123D2469392C
(1502934732.095094) vcan0 284#82F0664551CB8859
(1502934732.105310) vcan0 284#0998491D28F55A46
(1502934732.115469) vcan0 284#54C2111FA978F660
(1502934732.125575) vcan0 284#D7316235DEE1604A
(1502934732.135867) vcan0 284#3831EA6E85A93428
(1502934732.146018) vcan0 284#5220602FF5DC8E3E
(1502934732.156128) vcan0 284#7E2D60374844392A
(1502934732.166433) vcan0 284#E956BB124AD59025
(1502934732.176619) vcan0 284#1FC0061CF81A8C28
(1502934732.186839) vcan0 284#B0819E5D4A39E259
(1502934732.197187) vcan0 284#D3614D1819AF496B
(1502934732.207394) vcan0 284#A3E5C2774E930C60
(1502934732.217549) vcan0 284#489A6E5B9634F902
(1502934732.227869) vcan0 284#14E3E21D452BFE56
(1502934732.238207) vcan0 284#4DF1825CF420F55A
(1502934732.248385) vcan0 284#69943703CFE1E921
(1502934732.258697) vcan0 284#45EC7D34722C8120
(1502934732.268996) vcan0 284#F7D644689AAE8F53
(1502934732.279173) vcan0 284#1CA57701CE08A71D
(1502934732.289451) vcan0 284#7890F01D54D66170
(1502934732.299882) vcan0 284#53B2DB45CAB0504D
(1502934732.310172) vcan0 284#49B3F02ED1DF3B7D
(1502934732.320586) vcan0 284#12F58977330AAC41
(1502934732.330830) vcan0 284#1CB5CC2231B59013
(1502934732.340946) vcan0 284#2B25386ACC366B00
(1502934732.351244) vcan0 284#7BEE726DFF868502
(1502934732.361396) vcan0 284#E5E5B46B1FD43565
(1502934732.371500) vcan0 284#4D1A92622E802347
(1502934732.381818) vcan0 284#B5082F6861FD7400
(1502934732.392016) vcan0 284#73AB211E02FAB144
(1502934732.402174) vcan0 284#551E6A5BDC3F5921
(1502934732.412460) vcan0 284#D2DB9B669B0AE80F
(1502934732.422603) vcan0 284#4E6CDA41C9B2E04E
(1502934732.432708) vcan0 284#35B977636A115243
(1502934732.443065) vcan0 284#98BB876CAD496801
(1502934732.453240) vcan0 284#BFE7B333EB6D6332
(1502934732.463348) vcan0 284#77FAB84E089BA462
(1502934732.473646) vcan0 284#BD4D9F2F89EF4246
(1502934732.483798) vcan0 284#3BA55024D9026C52
(1502934732.493984) vcan0 284#BAA4D35967CA880E
(1502934732.504218) vcan0 284#A539D75235934647
(1502934732.514444) vcan0 284#66510E118B1F8C3E
(1502934732.524603) vcan0 284#54677C2CB36BA073
(1502934732.534914) vcan0 284#B99FAF050A70AB14
(1502934732.545062) vcan0 284#146915742C4BD123
(1502934732.555168) vcan0 284#0C6A5D5969877F4F
(1502934732.565512) vcan0 284#088B2A45DE45F93F
(1502934732.575697) vcan0 284#0492675F56F70407
(1502934732.585804) vcan0 284#A8F8D90E394BDF42
(1502934732.596147) vcan0 284#C108574A40B4617B
(1502934732.606377) vcan0 284#E694474480F00A7E
(1502934732.616492) vcan0 284#2B22C52D5D8F0013
(1502934732.626820) vcan0 284#888BAF60E86F645D
(1502934732.636990) vcan0 284#E67E4359C4300005
(1502934732.647103) vcan0 284#C172D02FA0231733
(1502934732.657390) vcan0 284#2BFB881367ACA702
(1502934732.667538) vcan0 284#D6B65D7A914C9724
(1502934732.677653) vcan0 284#F2CB33412A1EDA26
(1502934732.687921) vcan0 284#44B83718AB6BE346
(1502934732.698123) vcan0 284#348E853B58214D0C
(1502934732.708237) vcan0 284#D7B6B46A41F8E214
(1502934732.718556) vcan0 284#C1A8CC5BDF41DF2F
(1502934732.728726) vcan0 284#1F3EDC54C63A343B
(1502934732.738841) vcan0 284#3539E436C736B663
(1502934732.749150) vcan0 284#FF85137EF6413B01
(1502934732.759299) vcan0 284#07EB175FE61A5B42
(1502934732.769405) vcan0 284#7632467F330DDD0C
(1502934732.779717) vcan0 284#43AA5B55FFBDF55F
(1502934732.789932) vcan0 284#1B7D416A2A299F2E
