(1502932371.436610) vcan0 284#CFF8CA3ABADB8906
(1502932371.536810) vcan0 284#7AC72459096ACC3A
(1502932371.637002) vcan0 284#B1B7C0550BDA6B45
(1502932371.737195) vcan0 284#0AD08158297EDC69
(1502932371.837394) vcan0 284#17F96A5D7E852E60
(1502932371.937673) vcan0 284#6AE0A924632B3107
(1502932372.037945) vcan0 284#4033EB1BB19EC567
(1502932372.138199) vcan0 284#AF0B3C7CD7CE9A4B
(1502932372.238452) vcan0 284#1E8CB463779FBC63
(1502932372.338727) vcan0 284#08A5F81E71FB140F
(1502932372.439010) vcan0 284#E178A7555122CE7B
(1502932372.539289) vcan0 284#AF67C92149405200
(1502932372.639564) vcan0 284#FD36C4520DAA4F3B
(1502932372.739836) vcan0 284#B0AD6445BEDE5F5A
(1502932372.840120) vcan0 284#82609B2B10465143
(1502932372.940390) vcan0 284#98C37E0151596666
(1502932373.040672) vcan0 284#CA21DB49128BA35A
(1502932373.140944) vcan0 284#5AC332217BD99B1F
(1502932373.241231) vcan0 284#1D650F206493B479
(1502932373.341516) vcan0 284#A5577809355E7A7D
(1502932373.441794) vcan0 284#E218E3590F38222E
(1502932373.542078) vcan0 284#9889AB04224CCE75
(1502932373.642359) vcan0 284#C0D6E7154795E700
(1502932373.742641) vcan0 284#F91A6941DE629C79
(1502932373.843000) vcan0 284#BE34A46401C06160
(1502932373.943291) vcan0 284#4F5EB1089FAD4B3A
(1502932374.043568) vcan0 284#52E22F5CFEC57A2A
(1502932374.143863) vcan0 284#E8ED9D3A4F19F42E
(1502932374.244159) vcan0 284#0B70CA65999B0200
(1502932374.344456) vcan0 284#0EF853098DD06511
(1502932374.444749) vcan0 284#A9E15343A6BBD20A
(1502932374.545035) vcan0 284#DE29CC7774032F0D
(1502932374.645328) vcan0 284#B846766538EDFE18
(1502932374.745608) vcan0 284#EFDCCA2CD6AB8505
(1502932374.845882) vcan0 284#9C80B31294344336
(1502932374.946159) vcan0 284#0B0A00037E99966C
(1502932375.046435) vcan0 284#A36C6564A393AB07
(1502932375.146720) vcan0 284#A0E5646263434D7A
(1502932375.247002) vcan0 284#EA2893089900CE23
(1502932375.347280) vcan0 284#42A6E973A85D376D
(1502932375.447562) vcan0 284#9AC02F0491049B7C
(1502932375.547839) vcan0 284#480B8327EDA25F60
(1502932375.648121) vcan0 284#90CA152730F92062
(1502932375.748540) vcan0 284#3CBC530F9B3AE00C
(1502932375.849038) vcan0 284#C99423624AB4A718
(1502932375.949714) vcan0 284#290B461E73767725
(1502932376.050183) vcan0 284#F06F7A2307351216
(1502932376.150862) vcan0 284#E779A632A9B6F008
(1502932376.251530) vcan0 284#4022112FD656715F
(1502932376.352191) vcan0 284#7F62760EDCA2C441
(1502932376.452937) vcan0 284#6B8BB4158A6C7611
(1502932376.553616) vcan0 284#5B3C5B2E0EF8197A
(1502932376.654161) vcan0 284#2D002219FB21C010
(1502932376.754780) vcan0 284#723B67741729B521
(1502932376.855251) vcan0 284#95228E34B4E15068
(1502932376.955537) vcan0 284#BF86EC0E2FE3BD38
(1502932377.055812) vcan0 284#45E6EB6407926F36
(1502932377.156079) vcan0 284#1C861D19D5B0010C
(1502932377.256357) vcan0 284#388B901859427128
(1502932377.356631) vcan0 284#71EBE1180120B47A
(1502932377.456900) vcan0 284#A3F618419AF62737
(1502932377.557177) vcan0 284#74962B2094669364
(1502932377.657437) vcan0 284#A12B3A4D5B10D252
(1502932377.757701) vcan0 284#3D1D846DE14D4B7C
(1502932377.857977) vcan0 284#32674332BC7FFA7B
(1502932377.958245) vcan0 284#BEF00F3E9DF2F747
(1502932378.058518) vcan0 284#46EC700D192D6B6C
(1502932378.158790) vcan0 284#ABEA114273EC9226
(1502932378.259062) vcan0 284#144F2B7D1D267936
(1502932378.359329) vcan0 284#8A154848A971B931
(1502932378.459605) vcan0 284#D107CA1E499C3457
(1502932378.559878) vcan0 284#D954776A17EEB503
(1502932378.660150) vcan0 284#512EA40DF5DA9403
(1502932378.760431) vcan0 284#EC9EB70F89B93426
(1502932378.860705) vcan0 284#4E1D062C5D8A9928
(1502932378.960984) vcan0 284#8AD9E820F2131F6D
(1502932379.061262) vcan0 284#F780C15FFF6F1441
(1502932379.161541) vcan0 284#867AB25199ACFB2C
(1502932379.261821) vcan0 284#5A80E613C397363F
(1502932379.362103) vcan0 284#7AFA46298CE72946
(1502932379.462381) vcan0 284#7F17313B38EB5667
(1502932379.562670) vcan0 284#29DA210EC503A248
(1502932379.663022) vcan0 284#5118C253D5C43350
(1502932379.763311) vcan0 284#38F0346F6667ED50
(1502932379.863598) vcan0 284#F2EAAC06C2057D37
(1502932379.963889) vcan0 284#0FD9A602C4F27625
(1502932380.064177) vcan0 284#0BA2B10EE82D1E6D
(1502932380.164472) vcan0 284#DBE02C295CD0551C
(1502932380.264757) vcan0 284#DE08B370C77FE438
(1502932380.365032) vcan0 284#E5898A422C26B91C
(1502932380.465308) vcan0 284#250A7E6170637363
(1502932380.565595) vcan0 284#1E3AD8091C8B3F41
(1502932380.665876) vcan0 284#6FD38724A4B48A5B
(1502932380.766153) vcan0 284#B5373B6EC9536E38
(1502932380.866421) vcan0 284#674CC11A30328217
(1502932380.966690) vcan0 284#563B987EE663F255
(1502932381.066984) vcan0 284#681DD97E7F15BA0C
(1502932381.167274) vcan0 284#AB67941EBA359B52
(1502932381.267557) vcan0 284#54DAED5CE357C90D
(1502932381.367852) vcan0 284#209D882347C59A63
