(1502935131.173722) vcan0 284#39EBCA0A513D4528
(1502935131.183979) vcan0 284#338E2B36CA629558
(1502935131.194245) vcan0 284#982164759E89580D
(1502935131.204479) vcan0 284#605E4169A470C231
(1502935131.214730) vcan0 284#2244FF44B79ACF33
(1502935131.225019) vcan0 284#B65FD6077CB90025
(1502935131.235300) vcan0 284#1FB87F6C4A216325
(1502935131.245473) vcan0 284#9BEF432BF3F05C6C
(1502935131.255676) vcan0 284#18D061173C1BE94A
(1502935131.265799) vcan0 284#A9BFC921670ABE51
(1502935131.275902) vcan0 284#F3D0496C19A1AE7A
(1502935131.286078) vcan0 284#353EA424C176595B
(1502935131.296214) vcan0 284#4BB1D8689AB64259
(1502935131.306320) vcan0 284#FFBFC42607FF0403
(1502935131.316673) vcan0 284#06ABA31207248674
(1502935131.327043) vcan0 284#FB3687463F966E1D
(1502935131.337282) vcan0 284#5961CB1C2FC5B27C
(1502935131.347517) vcan0 284#09F90376F1822F12
(1502935131.357795) vcan0 284#CD4E0B0A6957455F
(1502935131.368010) vcan0 284#95F3F143EF920A4F
(1502935131.378206) vcan0 284#21F214134B53C84B
(1502935131.388339) vcan0 284#6B4C0B7440AA947F
(1502935131.398441) vcan0 284#95742B71063C4F1F
(1502935131.408669) vcan0 284#339BF16BAE448D08
(1502935131.418832) vcan0 284#4257386ADD5ABB0D
(1502935131.428941) vcan0 284#154F4B5A36288256
(1502935131.439143) vcan0 284#F6FB69084A8DEF7E
(1502935131.449282) vcan0 284#F79EDB3142AD4271
(1502935131.459385) vcan0 284#E4433258F65EA058
(1502935131.469566) vcan0 284#49AC4774EAEED56A
(1502935131.479743) vcan0 284#FE82264D45E3CE3A
(1502935131.489857) vcan0 284#2A85440857E4F169
(1502935131.500053) vcan0 284#74A88137337E487E
(1502935131.510256) vcan0 284#4867217C41F78C41
(1502935131.520376) vcan0 284#9DD58D5DDD5A1340
(1502935131.530570) vcan0 284#308A9710BEC7A270
(1502935131.540734) vcan0 284#28AEDB0B9BD6A204
(1502935131.550839) vcan0 284#FE713770BD22077D
(1502935131.561040) vcan0 284#A112F223310D295C
(1502935131.571179) vcan0 284#6B679405E4692A0E
(1502935131.581321) vcan0 284#0E68E46981B6DF5F
(1502935131.591533) vcan0 284#1A92AC6405644E72
(1502935131.601670) vcan0 284#CB43CF5E11318816
(1502935131.611860) vcan0 284#47119163B0870137
(1502935131.622092) vcan0 284#0890286F90BDD857
(1502935131.632282) vcan0 284#9A76D72106134F3C
(1502935131.642396) vcan0 284#D5A0A712C4FB1B2A
(1502935131.652593) vcan0 284#5DF740264949294A
(1502935131.662731) vcan0 284#F8796428A55E6222
(1502935131.672859) vcan0 284#8A40B60B954FF205
(1502935131.683054) vcan0 284#82B97562BACA4D1C
(1502935131.693205) vcan0 284#53179576AA67516E
(1502935131.703315) vcan0 284#55A1F0205189CC66
(1502935131.713516) vcan0 284#678A586BF7B3E244
(1502935131.723659) vcan0 284#8296F542D3F1EC70
(1502935131.733812) vcan0 284#DB1D0D5391FED92C
(1502935131.744022) vcan0 284#54A8CC50F5AFB937
(1502935131.754169) vcan0 284#9662281F1FEC9B2F
(1502935131.764273) vcan0 284#06E1414EDD73B902
(1502935131.774462) vcan0 284#CF739D660E716A3D
(1502935131.784650) vcan0 284#6D31925A6AEA7408
(1502935131.794809) vcan0 284#1484B97943D2396D
(1502935131.805023) vcan0 284#2EE69032717BFA1F
(1502935131.815215) vcan0 284#8C1B63372660F55A
(1502935131.825338) vcan0 284#16DA5C42175C1943
(1502935131.835599) vcan0 284#BBAFE7609893D224
(1502935131.845810) vcan0 284#D126675F0EC77C57
(1502935131.855922) vcan0 284#42FB231327C85700
(1502935131.866121) vcan0 284#5F50493EAA857C7E
(1502935131.876265) vcan0 284#1E7C3A45E2E63E01
(1502935131.886431) vcan0 284#7D77696FF9994718
(1502935131.896640) vcan0 284#73E5182ED11F3640
(1502935131.906794) vcan0 284#EE4901500948414D
(1502935131.916979) vcan0 284#F00BD26FF42A431E
(1502935131.927192) vcan0 284#E6BBFA4FC07F6F56
(1502935131.937368) vcan0 284#039CAD5B53ED8C2A
(1502935131.947474) vcan0 284#2A6AE45E17206755
(1502935131.957805) vcan0 284#96BFC61758507511
(1502935131.968090) vcan0 284#899B617523DB294F
(1502935131.978254) vcan0 284#7FB06A6C9F75BE37
(1502935131.988566) vcan0 284#3A3743123A60524D
(1502935131.998857) vcan0 284#3809915C0B5EAA71
(1502935132.009027) vcan0 284#4927CF247A04B56F
(1502935132.019348) vcan0 284#32260272A8771863
(1502935132.029645) vcan0 284#248A316E50A23C37
(1502935132.039878) vcan0 284#8A5E5764A1019B5D
(1502935132.050219) vcan0 284#493C844FFD437012
(1502935132.060502) vcan0 284#7221D11D3786851F
(1502935132.070685) vcan0 284#068CB15F632DA30D
(1502935132.081007) vcan0 284#2CB1C83DEC47AC2F
(1502935132.091302) vcan0 284#23AD12642F4D7619
(1502935132.101472) vcan0 284#4035395A4D17F742
(1502935132.111761) vcan0 284#466DDD6ED6F4FF71
(1502935132.122055) vcan0 284#A5676C54CF083F64
(1502935132.132230) vcan0 284#F9CF29412418D740
(1502935132.142554) vcan0 284#6F7EFD1B33076D53
(1502935132.152758) vcan0 284#5F78290EA7878E78
(1502935132.162878) vcan0 284#3F651745A89FF832
(1502935132.173068) vcan0 284#218C4368718B1937
(1502935132.183245) vcan0 284#5017111646167556
