(1502934412.059104) vcan0 284#1843041B9A543018
(1502934412.069407) vcan0 284#FB8E277FAA097501
(1502934412.079685) vcan0 284#C6DFBA1B2B37B21E
(1502934412.089964) vcan0 284#BF3E093BA705936A
(1502934412.100172) vcan0 284#2DFBB14FAAD27943
(1502934412.110384) vcan0 284#A47CD16DB756D009
(1502934412.120574) vcan0 284#6F204E420E253B3B
(1502934412.130733) vcan0 284#8A802A2C51A37C5C
(1502934412.141006) vcan0 284#83067C106DF3AC26
(1502934412.151231) vcan0 284#E4E4B33E25D52D0D
(1502934412.161520) vcan0 284#7989241B36C63B33
(1502934412.171719) vcan0 284#D73FD20B6E515143
(1502934412.181995) vcan0 284#B5B26F3B8E703D51
(1502934412.192177) vcan0 284#2E261E0BC3343322
(1502934412.202402) vcan0 284#0CEC4412E0A9000E
(1502934412.212680) vcan0 284#AFC36731242F492D
(1502934412.222855) vcan0 284#7AFE3026AA528F30
(1502934412.233067) vcan0 284#CE38BE2E40DEEB41
(1502934412.243331) vcan0 284#D689414F8E77C769
(1502934412.253587) vcan0 284#E7E37E2C0385F31E
(1502934412.263881) vcan0 284#384A412D8B60501A
(1502934412.274977) vcan0 284#BADBC328A76A8F6F
(1502934412.285171) vcan0 284#99858B55445CEE54
(1502934412.295420) vcan0 284#F80D0C4C1C8C0766
(1502934412.305713) vcan0 284#B24F9B7BDCF2BF0A
(1502934412.315892) vcan0 284#426135732BD9BF16
(1502934412.326140) vcan0 284#12B9FB3D19A1077F
(1502934412.336436) vcan0 284#992A115AC86B6B79
(1502934412.346658) vcan0 284#A8114550C8502F65
(1502934412.356962) vcan0 284#8BA09E1BB4FD8962
(1502934412.367250) vcan0 284#A8FA2F733A64064D
(1502934412.377434) vcan0 284#D82CD30F22F96019
(1502934412.387675) vcan0 284#E5B6957DA765913E
(1502934412.397961) vcan0 284#63D74C5BBB40D74C
(1502934412.408198) vcan0 284#35DD58284ABBCB07
(1502934412.418502) vcan0 284#BEC5CA6B6D279A55
(1502934412.428784) vcan0 284#D61B1C2279A18E14
(1502934412.438926) vcan0 284#149229456FA1A777
(1502934412.449168) vcan0 284#BDFD7C690DA03511
(1502934412.459460) vcan0 284#8C2DAF5D6F4D1865
(1502934412.469643) vcan0 284#E992F51BCE8EE450
(1502934412.479851) vcan0 284#9B26D87BFC4BF159
(1502934412.490109) vcan0 284#E72FEC4F3451E955
(1502934412.500276) vcan0 284#C4B75C538F413120
(1502934412.510541) vcan0 284#FCA1183B4F58FB6E
(1502934412.520739) vcan0 284#433FBB02A49C482E
(1502934412.530860) vcan0 284#89BC013C1C6C8E12
(1502934412.541030) vcan0 284#C795A9476E739739
(1502934412.551231) vcan0 284#C3D11F512A6DF622
(1502934412.561417) vcan0 284#29B46E06F8AE7879
(1502934412.571629) vcan0 284#7428C22AE8793972
(1502934412.581830) vcan0 284#65D6124F4A44DE4C
(1502934412.591950) vcan0 284#611BC80679683C14
(1502934412.609755) vcan0 284#BAE585441E194570
(1502934412.619892) vcan0 284#8608722546133522
(1502934412.630070) vcan0 284#8E665D55709B6741
(1502934412.640276) vcan0 284#14A21973298D3551
(1502934412.650472) vcan0 284#6CE7581BFBD10543
(1502934412.660695) vcan0 284#5DDE1E27309FB56E
(1502934412.670910) vcan0 284#8B1337635A803762
(1502934412.681037) vcan0 284#7FF7B05DCE52F265
(1502934412.691205) vcan0 284#FE1C801008B4B219
(1502934412.701412) vcan0 284#EABE8078C5B22958
(1502934412.711599) vcan0 284#77274A53AD90A049
(1502934412.721802) vcan0 284#EF1F207BA0DBB859
(1502934412.732010) vcan0 284#A53F19436448E225
(1502934412.742227) vcan0 284#8855F24B0A162C12
(1502934412.753446) vcan0 284#AE8CC072E970BA52
(1502934412.763773) vcan0 284#847E682668724637
(1502934412.774099) vcan0 284#088AFF420A87DA4B
(1502934412.784363) vcan0 284#AE857B5996F05C18
(1502934412.794714) vcan0 284#7A22420DC227954C
(1502934412.804995) vcan0 284#BF7D9269E6099B28
(1502934412.815247) vcan0 284#BEF99A0F1C5CB110
(1502934412.825598) vcan0 284#16A95017490DD272
(1502934412.835915) vcan0 284#76DCE87295A00175
(1502934412.846192) vcan0 284#1760C45875F96803
(1502934412.856488) vcan0 284#9E54B40E021F4551
(1502934412.866784) vcan0 284#3AAC925B157CFE61
(1502934412.877071) vcan0 284#AFAFE51A2ACCB256
(1502934412.887428) vcan0 284#B557B73B55EFFE5D
(1502934412.897738) vcan0 284#8E14957C3EADA907
(1502934412.907993) vcan0 284#5F052B703CA1556F
(1502934412.918335) vcan0 284#271E645AE3839316
(1502934412.928624) vcan0 284#A5139C262FA8631D
(1502934412.938866) vcan0 284#EE0A6E6253991700
(1502934412.949209) vcan0 284#C598C035682DB06F
(1502934412.959486) vcan0 284#16C1AC4C8416531F
(1502934412.969729) vcan0 284#4F374B18D4BA475C
(1502934412.980077) vcan0 284#A172043065E09B2F
(1502934412.990364) vcan0 284#1DC8194F174FED22
(1502934413.000608) vcan0 284#FB809D243428DE27
(1502934413.010895) vcan0 284#8C48562699D55133
(1502934413.021190) vcan0 284#36472379C7F4E801
(1502934413.031432) vcan0 284#AE515015E6F60814
(1502934413.041770) vcan0 284#F1C09B5863A90751
(1502934413.052569) vcan0 284#3BE607727FD53055
(1502934413.062802) vcan0 284#A156B1589AEB3262
(1502934413.073068) vcan0 284#BB768644C9741533
(1502934413.083183) vcan0 284#7E6FC678608A226B
