(1502932527.793182) vcan0 284#06D09924DFEA7C6E
(1502932527.803461) vcan0 284#53E9D2541F4ABE15
(1502932527.813744) vcan0 284#E0037F44CA2A6359
(1502932527.824110) vcan0 284#4E183A7AA1CC6247
(1502932527.834472) vcan0 284#566B791D089FDB23
(1502932527.844678) vcan0 284#0156971386343208
(1502932527.854893) vcan0 284#A58B712ED6876851
(1502932527.865074) vcan0 284#24D3671ED946C014
(1502932527.875202) vcan0 284#4D89E971A99C3151
(1502932527.885387) vcan0 284#E2318C6F0DC2854E
(1502932527.895520) vcan0 284#C202F703472F167D
(1502932527.905621) vcan0 284#D8FAB14F2D2C2753
(1502932527.915994) vcan0 284#83545873FFA72E02
(1502932527.926222) vcan0 284#4B9BD70A89D3A04C
(1502932527.936404) vcan0 284#FB3E97261914EB68
(1502932527.946623) vcan0 284#46CBA55E010F314B
(1502932527.956754) vcan0 284#F8FE675799B47833
(1502932527.966916) vcan0 284#2059EF60D802E71B
(1502932527.977124) vcan0 284#64DFDB0C6E71295B
(1502932527.987251) vcan0 284#79CF4963BA4A552A
(1502932527.997349) vcan0 284#7610057F7A25E176
(1502932528.007543) vcan0 284#407F87321B9C762D
(1502932528.017677) vcan0 284#50AD49486452EF50
(1502932528.027773) vcan0 284#F4E236429D36333A
(1502932528.037968) vcan0 284#0EEF2022D714C331
(1502932528.048101) vcan0 284#ABF8B808D0F11726
(1502932528.058204) vcan0 284#1E44D92E83F36A58
(1502932528.068422) vcan0 284#FD1D3F79A1983122
(1502932528.078603) vcan0 284#839B995A48B91604
(1502932528.088754) vcan0 284#2A6CD26E7EDA3001
(1502932528.098964) vcan0 284#61CD016D7037784D
(1502932528.109135) vcan0 284#7FE9614C5ACC6944
(1502932528.119247) vcan0 284#0AECF0009F42512D
(1502932528.129445) vcan0 284#32CF50606ECBCC0D
(1502932528.139637) vcan0 284#0DB47A08AC9E9A43
(1502932528.149748) vcan0 284#2816223883C47F07
(1502932528.159953) vcan0 284#26C47B3A6895A96A
(1502932528.170140) vcan0 284#9E60F6347771C502
(1502932528.180256) vcan0 284#CCE7983B92432D77
(1502932528.190449) vcan0 284#14A8F83CDAD6B95D
(1502932528.200581) vcan0 284#6958F028BFA0B145
(1502932528.210681) vcan0 284#AAC8D103879CC957
(1502932528.220857) vcan0 284#43941C1EA7E6107D
(1502932528.231032) vcan0 284#2935FB79C62FB678
(1502932528.241154) vcan0 284#F09F270153A1CD68
(1502932528.251353) vcan0 284#440AE779516D296E
(1502932528.261479) vcan0 284#C4D84536C3F34846
(1502932528.271638) vcan0 284#AB399332CEC43637
(1502932528.281854) vcan0 284#62369A73DE08E412
(1502932528.291979) vcan0 284#3C9003456FEA147C
(1502932528.302080) vcan0 284#8AA77E5664A6257D
(1502932528.312272) vcan0 284#F2AE9403B06BFA10
(1502932528.322405) vcan0 284#CC3BCF67900F8B38
(1502932528.332564) vcan0 284#27DDBF1398236823
(1502932528.342772) vcan0 284#2253B82F3C85B850
(1502932528.352911) vcan0 284#73FA21018CABA858
(1502932528.363016) vcan0 284#FB256A161DC3F304
(1502932528.373320) vcan0 284#134872303EBA8634
(1502932528.383499) vcan0 284#C5A904023C7D6D2A
(1502932528.393609) vcan0 284#04EA3C2DB5492C03
(1502932528.403786) vcan0 284#901E3B1348F42327
(1502932528.413928) vcan0 284#06B7557154F78049
(1502932528.424031) vcan0 284#0BE86C6DB2F0E823
(1502932528.434233) vcan0 284#22BCB7006D1E0761
(1502932528.444366) vcan0 284#90F9CC365E4CBB45
(1502932528.454468) vcan0 284#DC081C5D1AA14B0D
(1502932528.464670) vcan0 284#C2F2E042CEB7B060
(1502932528.474861) vcan0 284#CA0C461E8E2EB02A
(1502932528.484973) vcan0 284#5EC73B19F2E90532
(1502932528.495173) vcan0 284#2652184E811AF448
(1502932528.505306) vcan0 284#2E6FBE02994C3A4F
(1502932528.515408) vcan0 284#0DC69C2129952819
(1502932528.525602) vcan0 284#B70F2E54200E0F52
(1502932528.535792) vcan0 284#684FAF4D7CB93256
(1502932528.545943) vcan0 284#5D8B7C7C6C39EC7A
(1502932528.556225) vcan0 284#31035F59EDA9B70F
(1502932528.566497) vcan0 284#B52D102237BAB44A
(1502932528.576760) vcan0 284#41A13859C0157D0F
(1502932528.587068) vcan0 284#E9AA9D6E635DF059
(1502932528.597337) vcan0 284#2E34847079A46A25
(1502932528.607504) vcan0 284#C1A9AB1F0A3DA04D
(1502932528.617825) vcan0 284#9345B632839C8C62
(1502932528.628098) vcan0 284#D9F4502E5E52FC50
(1502932528.638385) vcan0 284#11CB3C0D37BC8C47
(1502932528.648702) vcan0 284#503C0203371D555B
(1502932528.658972) vcan0 284#B8D680107EABC005
(1502932528.669230) vcan0 284#D1698F2AC59C1D32
(1502932528.679571) vcan0 284#A740E91E8879BD7E
(1502932528.689857) vcan0 284#E6AA2C040F90986C
(1502932528.700034) vcan0 284#0433F0544336A900
(1502932528.710339) vcan0 284#7CC9846735364F2E
(1502932528.720588) vcan0 284#30E0601031F79409
(1502932528.730747) vcan0 284#6CF0037971819969
(1502932528.741072) vcan0 284#F10C1219569BA167
(1502932528.751369) vcan0 284#D4DE89431F419609
(1502932528.761645) vcan0 284#CF3F0C0D95883563
(1502932528.771942) vcan0 284#2A7E36576385C23F
(1502932528.782229) vcan0 284#1825C24503738705
(1502932528.792397) vcan0 284#C1D7BE1029F0FE52
(1502932528.802688) vcan0 284#3A2F144D1114C113
