(1502932404.931696) vcan0 284#610BED389C9A5B53
(1502932405.031970) vcan0 284#06E87215FDAF0017
(1502932405.132238) vcan0 284#27B17A3C6C39276F
(1502932405.232496) vcan0 284#5132A74B84CFD366
(1502932405.332744) vcan0 284#38D76F6B5CA0E115
(1502932405.433068) vcan0 284#8DEA94710485907B
(1502932405.533328) vcan0 284#B3CD3874E013D041
(1502932405.633571) vcan0 284#74DAA651E396453B
(1502932405.733821) vcan0 284#4E4B4B65E4C90C72
(1502932405.834083) vcan0 284#117D916ACA94B156
(1502932405.934333) vcan0 284#6014EB325C2A9763
(1502932406.034593) vcan0 284#0A001212C7C0271B
(1502932406.134853) vcan0 284#B69B3C303D093659
(1502932406.235117) vcan0 284#10363526D43E2E54
(1502932406.335370) vcan0 284#E599E036D312574C
(1502932406.435611) vcan0 284#A95DB26947A5CD6F
(1502932406.535861) vcan0 284#6FADB21FAF45257F
(1502932406.636080) vcan0 284#4455CE06965E2D5C
(1502932406.736335) vcan0 284#1C7F4C6E96877552
(1502932406.836608) vcan0 284#1A2E01435456BC59
(1502932406.936861) vcan0 284#F2275768A8189634
(1502932407.037116) vcan0 284#59DB4C55A6F58F5C
(1502932407.137378) vcan0 284#882C6676CDB5F326
(1502932407.237634) vcan0 284#898CD517D677B15B
(1502932407.337874) vcan0 284#B27F00199A096702
(1502932407.438100) vcan0 284#A10C63321294EB4B
(1502932407.538339) vcan0 284#F733FE65AB0C7544
(1502932407.638601) vcan0 284#D9541367ADCF3A16
(1502932407.738861) vcan0 284#E915AB1DE98A480D
(1502932407.839130) vcan0 284#820E696ACEAF8B54
(1502932407.939376) vcan0 284#BD9D9F592B6C1B54
(1502932408.039620) vcan0 284#155559442C4B5279
(1502932408.139868) vcan0 284#DAB140535AAA274B
(1502932408.240128) vcan0 284#C3A97F55F6308D41
(1502932408.340383) vcan0 284#F0319D1DDDD78018
(1502932408.440644) vcan0 284#4B87491BE259F405
(1502932408.540900) vcan0 284#85F0164DA4629670
(1502932408.641165) vcan0 284#884F84620E1D7D43
(1502932408.741431) vcan0 284#71188A1711DC597A
(1502932408.841689) vcan0 284#E4942E1F23988A30
(1502932408.941945) vcan0 284#ACE5C07C85A19151
(1502932409.042200) vcan0 284#362C767CA319BF62
(1502932409.142471) vcan0 284#31AE06160F818963
(1502932409.242743) vcan0 284#50E9F9781AC4B133
(1502932409.343018) vcan0 284#F90BD270D2F76263
(1502932409.443272) vcan0 284#E8733D08B6A9714A
(1502932409.543545) vcan0 284#FD637E37FEC8964C
(1502932409.643827) vcan0 284#E2F4C343D815BF0A
(1502932409.744105) vcan0 284#5873BE17A59E4319
(1502932409.844378) vcan0 284#CE464C4C48A55B35
(1502932409.944643) vcan0 284#8376C43119CE9567
(1502932410.044901) vcan0 284#2AFF4F3B0867DB7E
(1502932410.145168) vcan0 284#BD302C58B34ED41D
(1502932410.245443) vcan0 284#168458422F49B66F
(1502932410.345715) vcan0 284#C42A2E18FB188761
(1502932410.445970) vcan0 284#52E140207010EF14
(1502932410.546223) vcan0 284#80BA1833880DB71C
(1502932410.646489) vcan0 284#132AAE77B1681F49
(1502932410.746759) vcan0 284#988E40006413A870
(1502932410.847032) vcan0 284#CB2CD17C919A1271
(1502932410.947282) vcan0 284#360B0B54B4A00E05
(1502932411.047548) vcan0 284#4744843B346F890B
(1502932411.147814) vcan0 284#B269A5512939487F
(1502932411.248082) vcan0 284#0C8548160ADD6369
(1502932411.348354) vcan0 284#CFD78B18DACB9462
(1502932411.448615) vcan0 284#5282BF1E524E504A
(1502932411.548882) vcan0 284#F4992A4A7C810F5A
(1502932411.649146) vcan0 284#5AB52B49B1CA5622
(1502932411.749417) vcan0 284#2FD0E3777139840B
(1502932411.849679) vcan0 284#E0130D12F4FA1110
(1502932411.949933) vcan0 284#6C520B6D33F54D32
(1502932412.050205) vcan0 284#640B0125EC0C2420
(1502932412.150474) vcan0 284#BB02054F7835AF1C
(1502932412.250741) vcan0 284#9E7543695391454F
(1502932412.351010) vcan0 284#DC48570D69A21466
(1502932412.451273) vcan0 284#E42B584012546261
(1502932412.551534) vcan0 284#1D43236B2B70DC7B
(1502932412.651800) vcan0 284#46C3EB6CCFACC83C
(1502932412.752068) vcan0 284#55A9247B52483403
(1502932412.852330) vcan0 284#D9892C262481B013
(1502932412.952579) vcan0 284#2D14C9652B0CEC44
(1502932413.052932) vcan0 284#76CF005E21AEF32F
(1502932413.153202) vcan0 284#A88DFB1ED0842C27
(1502932413.253470) vcan0 284#D2784A52D75DDF16
(1502932413.353733) vcan0 284#41BEB032B38C5764
(1502932413.453999) vcan0 284#CB58F126AD10BC1F
(1502932413.554254) vcan0 284#E681A5163064F24B
(1502932413.654499) vcan0 284#9A1DE03FA184AA65
(1502932413.754736) vcan0 284#A899A16838932329
(1502932413.854981) vcan0 284#F515F03484E2F875
(1502932413.955242) vcan0 284#A135380FD9414875
(1502932414.055498) vcan0 284#96365B57BF785B7A
(1502932414.155760) vcan0 284#05B22471DDF94644
(1502932414.256024) vcan0 284#8E2524375A5B496C
(1502932414.356299) vcan0 284#2F427B4768AF505D
(1502932414.456566) vcan0 284#7EDCF97F5C56442D
(1502932414.556824) vcan0 284#93BB3C22F4ABFA5D
(1502932414.657081) vcan0 284#7D04385D3B493841
(1502932414.757364) vcan0 284#C4302705507D822F
(1502932414.857622) vcan0 284#13A7175806EFD737
