(1502932535.438153) vcan0 284#024BEB792018F247
(1502932535.448473) vcan0 284#3EE04F2BB9311737
(1502932535.458843) vcan0 284#31D660321A6A6D22
(1502932535.469163) vcan0 284#4F5C5579A5161A35
(1502932535.479519) vcan0 284#69587A1EFE3A812B
(1502932535.489954) vcan0 284#AB2AC41C3D2DB13A
(1502932535.500287) vcan0 284#E46EE4747798573C
(1502932535.510572) vcan0 284#CBA012515BDDA95F
(1502932535.520754) vcan0 284#AC635E316221D024
(1502932535.530953) vcan0 284#94F1EF3FECF24A68
(1502932535.541181) vcan0 284#2A156E06BD00E71B
(1502932535.551392) vcan0 284#1D90DB5E5C673060
(1502932535.561644) vcan0 284#70D9C42CDC500D56
(1502932535.571888) vcan0 284#728F1B2BAC520D24
(1502932535.582092) vcan0 284#3820BD0F82E4FE6D
(1502932535.592301) vcan0 284#D82FDC2C3A6BA809
(1502932535.602507) vcan0 284#A3FCF03516102C58
(1502932535.612676) vcan0 284#F39CBF40D4D25168
(1502932535.622938) vcan0 284#307A997A43F9143A
(1502932535.633147) vcan0 284#7AE96B1D9AD21319
(1502932535.643265) vcan0 284#413496652514303A
(1502932535.653429) vcan0 284#D7FFC45325A37A5A
(1502932535.663593) vcan0 284#9CAC8776A2A0D724
(1502932535.673707) vcan0 284#8080243A4810E627
(1502932535.683878) vcan0 284#05C2A7491472147A
(1502932535.694065) vcan0 284#340331102FD71550
(1502932535.704183) vcan0 284#D272FB1552930C6F
(1502932535.714364) vcan0 284#8C3E4630424CC042
(1502932535.724570) vcan0 284#2EE41945FECD615B
(1502932535.734689) vcan0 284#EE9ECD666604D754
(1502932535.744871) vcan0 284#80B26049C6CEA913
(1502932535.755058) vcan0 284#A06F7F5E23AF517F
(1502932535.765193) vcan0 284#DDDED56B940C3F1F
(1502932535.775376) vcan0 284#F881A3670D596F66
(1502932535.785577) vcan0 284#D7055459726B0F05
(1502932535.795774) vcan0 284#A72B837F183AEA3E
(1502932535.805973) vcan0 284#977F3F3F7E2B4853
(1502932535.816181) vcan0 284#3DDD6419332CC735
(1502932535.826318) vcan0 284#21CC1F78BD5D8953
(1502932535.836499) vcan0 284#7C3CAD5D268EC741
(1502932535.846701) vcan0 284#D2CF9D4DB03FDE6D
(1502932535.856820) vcan0 284#5565DD11A4429963
(1502932535.867004) vcan0 284#02D3EA5CE1A32342
(1502932535.877203) vcan0 284#E68E592631B70422
(1502932535.887318) vcan0 284#DF71851DD52D270D
(1502932535.897513) vcan0 284#97BBDB766024E666
(1502932535.907719) vcan0 284#9BFCD020382B5B55
(1502932535.917897) vcan0 284#83D3376678DBA60C
(1502932535.928095) vcan0 284#CC379A747B55DB4D
(1502932535.938293) vcan0 284#86341673A33DEE4D
(1502932535.948416) vcan0 284#EDC0EA522D609972
(1502932535.958599) vcan0 284#BB77D80C84402A12
(1502932535.968793) vcan0 284#AC8BE145F8543D26
(1502932535.978964) vcan0 284#B86CF147CD57013E
(1502932535.989162) vcan0 284#B5B2C67934A99E25
(1502932535.999359) vcan0 284#F3E5C87F87826447
(1502932536.009487) vcan0 284#E4E87C13484BA611
(1502932536.019682) vcan0 284#2BC5FD2AE7BB6770
(1502932536.029881) vcan0 284#2AEFC95312545751
(1502932536.040002) vcan0 284#18736C1209614F71
(1502932536.050184) vcan0 284#E7817E5EAF2E4809
(1502932536.060385) vcan0 284#69853558827E4F7F
(1502932536.070504) vcan0 284#E759A35EED586D3E
(1502932536.080690) vcan0 284#FB59F60BB3913D53
(1502932536.090875) vcan0 284#68AE480C818E0C7F
(1502932536.101058) vcan0 284#56CF2B21566F335F
(1502932536.111264) vcan0 284#AEEEA5711147042E
(1502932536.121458) vcan0 284#DAAF5D715A7A8737
(1502932536.131581) vcan0 284#099C4154921C4F39
(1502932536.141765) vcan0 284#27D28875BF4E084E
(1502932536.151955) vcan0 284#C6C5ED5E1AB85175
(1502932536.162125) vcan0 284#46D16C15ABAE6A72
(1502932536.172329) vcan0 284#6303F80672966A40
(1502932536.182525) vcan0 284#926AD2628DF2C15A
(1502932536.192711) vcan0 284#84EAC111AADD3E75
(1502932536.202969) vcan0 284#9653114C6B6C4070
(1502932536.213159) vcan0 284#590C877E00D94624
(1502932536.223372) vcan0 284#EDEA8F6F41662A5D
(1502932536.233589) vcan0 284#ED31B462E844867B
(1502932536.243874) vcan0 284#F4F7673055E0FC6E
(1502932536.254116) vcan0 284#69D3927A4BC79351
(1502932536.264357) vcan0 284#AB4F304E18C2386C
(1502932536.274643) vcan0 284#5C0E987F86FF8D3F
(1502932536.284914) vcan0 284#723CC02366AAD953
(1502932536.295186) vcan0 284#181CDD789A0E4919
(1502932536.305461) vcan0 284#25F9E121DFE1CA57
(1502932536.315721) vcan0 284#B4C69A0E6BCA4E37
(1502932536.325974) vcan0 284#8A90354A17CA9215
(1502932536.336268) vcan0 284#DD60B9771CFB072D
(1502932536.346525) vcan0 284#A4BC5470614B7B09
(1502932536.356766) vcan0 284#C6D846223B10663C
(1502932536.367036) vcan0 284#CCB7BB791FE5CD20
(1502932536.377310) vcan0 284#3BE9AC60BAA24B69
(1502932536.387536) vcan0 284#604BF87D281B6143
(1502932536.397867) vcan0 284#A2E7D1645543602E
(1502932536.408148) vcan0 284#7DFB5D320CBB645F
(1502932536.418405) vcan0 284#A00AF47F294B8E00
(1502932536.428680) vcan0 284#247D9D4BFC188C7F
(1502932536.438950) vcan0 284#AF4A1C4096B95D6F
(1502932536.449194) vcan0 284#62C36553C766F938
