(1502935219.234327) vcan0 284#8B6C3F076EBABE7C
(1502935219.244569) vcan0 284#A5E4D21F5B6E7221
(1502935219.254734) vcan0 284#092AA65CAF7A8172
(1502935219.264937) vcan0 284#7898B13BBCF37045
(1502935219.275123) vcan0 284#BCC0D42F7D0E121F
(1502935219.285263) vcan0 284#2F2DBD1FD7E8BE19
(1502935219.295536) vcan0 284#7062811376511909
(1502935219.305792) vcan0 284#D52BAD0E5EE10A4F
(1502935219.315987) vcan0 284#0782913AA19CC73D
(1502935219.326195) vcan0 284#0832607124EFD323
(1502935219.336401) vcan0 284#48892905E8A85140
(1502935219.346555) vcan0 284#6EFB0C7FFA60871F
(1502935219.356771) vcan0 284#80650B13DC5DC640
(1502935219.366956) vcan0 284#67D0AA1852DEBF15
(1502935219.377071) vcan0 284#2A694A7E13A85065
(1502935219.387275) vcan0 284#75638C5EB5D58905
(1502935219.397483) vcan0 284#81620F621A485F7E
(1502935219.407602) vcan0 284#1144FC268A8CB53E
(1502935219.417808) vcan0 284#C9C2E07089DCAD62
(1502935219.428009) vcan0 284#468026048583B520
(1502935219.438128) vcan0 284#06EBBF0175ADE323
(1502935219.448331) vcan0 284#5D6C743A764D4115
(1502935219.458535) vcan0 284#ECFEFC2C32982149
(1502935219.468697) vcan0 284#D42E4C64F3808E67
(1502935219.478939) vcan0 284#D334E906DD60AC55
(1502935219.489151) vcan0 284#1870620B1BBE120C
(1502935219.499268) vcan0 284#C509FE15866B6F0A
(1502935219.509473) vcan0 284#161F9A2B456F0929
(1502935219.519665) vcan0 284#63C9354B7DEF4444
(1502935219.529778) vcan0 284#984DC93E8D328049
(1502935219.539986) vcan0 284#909795290DB1551D
(1502935219.550198) vcan0 284#43080A4F12FAA40B
(1502935219.560312) vcan0 284#27F9B41B544C0676
(1502935219.570525) vcan0 284#9C865A4AF1BB950C
(1502935219.580724) vcan0 284#DD28B458E306814E
(1502935219.590833) vcan0 284#763F4B2DE313745A
(1502935219.601065) vcan0 284#58B46472D3ABBF67
(1502935219.611272) vcan0 284#5961B56F44B3611F
(1502935219.621451) vcan0 284#0544E1302D900154
(1502935219.631663) vcan0 284#3834F006D978CA37
(1502935219.641858) vcan0 284#0AF1AD2950A45212
(1502935219.652018) vcan0 284#F436DD43CFFAAB3F
(1502935219.662222) vcan0 284#D60FC21C0A56776F
(1502935219.672406) vcan0 284#156AB56839D9F767
(1502935219.682564) vcan0 284#8745BC33ADB77E27
(1502935219.692776) vcan0 284#C70B783118DD515D
(1502935219.702972) vcan0 284#BA68D4440A148200
(1502935219.713118) vcan0 284#2AD7F668E1618960
(1502935219.723309) vcan0 284#5E608876C65D5133
(1502935219.733498) vcan0 284#D21D1F6D3B893C4F
(1502935219.743657) vcan0 284#A964D201495D6A1A
(1502935219.753875) vcan0 284#1E9DB02902193774
(1502935219.764059) vcan0 284#1C092A0277FE6519
(1502935219.774228) vcan0 284#46CC9813224D0B33
(1502935219.784428) vcan0 284#A48E676D7E00891A
(1502935219.794624) vcan0 284#FBC5D56AAF7F1517
(1502935219.804811) vcan0 284#CEA4DB2CEFFCB22E
(1502935219.815008) vcan0 284#7E7AC156A5B49D49
(1502935219.825219) vcan0 284#FA522A1E93E4763F
(1502935219.835392) vcan0 284#DE8D95318198E651
(1502935219.845593) vcan0 284#409CF566A5990D63
(1502935219.855825) vcan0 284#9975382FFA04CA2B
(1502935219.866052) vcan0 284#AFAD8F63C34C2F18
(1502935219.876264) vcan0 284#DC66530C0D0E185A
(1502935219.886463) vcan0 284#8AAA804BAE847279
(1502935219.896642) vcan0 284#48975429330F534D
(1502935219.906861) vcan0 284#F7E1DC1366340553
(1502935219.917052) vcan0 284#35288A4114EB0616
(1502935219.927165) vcan0 284#DD326B6C7CF42255
(1502935219.937350) vcan0 284#3638124982C1D259
(1502935219.947528) vcan0 284#FAF4AB6F31FEE733
(1502935219.957738) vcan0 284#3141E870C999871C
(1502935219.968199) vcan0 284#20FB9A62AFBBA947
(1502935219.978568) vcan0 284#6E4E25661A4EC500
(1502935219.988826) vcan0 284#43A020074CDCBA17
(1502935219.999289) vcan0 284#9CE6AB52833C166E
(1502935220.009633) vcan0 284#F275C87A355CE401
(1502935220.019894) vcan0 284#7E41E019A123585E
(1502935220.030367) vcan0 284#F9A8131A5AA83326
(1502935220.040691) vcan0 284#AF31703883539465
(1502935220.050885) vcan0 284#082DA61FF7C8C461
(1502935220.061264) vcan0 284#B662E732000F8333
(1502935220.071470) vcan0 284#5EFDC934EC8A7174
(1502935220.081639) vcan0 284#14FA89493B303521
(1502935220.091995) vcan0 284#687F94494A329C12
(1502935220.102206) vcan0 284#BDF1077B62744039
(1502935220.112357) vcan0 284#7B308446EE32F06B
(1502935220.122698) vcan0 284#2B0EC8559B2B1F29
(1502935220.132936) vcan0 284#9EEE9933995CED3B
(1502935220.143112) vcan0 284#B679E429E18EBA3A
(1502935220.153317) vcan0 284#E638A8535260907C
(1502935220.163542) vcan0 284#64CBD028D8AE704E
(1502935220.173721) vcan0 284#87BC747EE20CB142
(1502935220.183986) vcan0 284#79D2C82C80658818
(1502935220.194220) vcan0 284#3CB5E46828043965
(1502935220.204390) vcan0 284#03B91C7E45E28A08
(1502935220.214762) vcan0 284#20CDFD46BA1B0431
(1502935220.225009) vcan0 284#45F10D3C7ECAC77B
(1502935220.235236) vcan0 284#A6A6752559EB9705
(1502935220.245437) vcan0 284#B9FAFC1C0E260A6F
