(1502935088.001405) vcan0 284#057FA46C3F19031E
(1502935088.011657) vcan0 284#A1217574BCD99B59
(1502935088.022143) vcan0 284#B4ABFB5BCB10853C
(1502935088.032483) vcan0 284#9DF8D03BC2F9F301
(1502935088.042912) vcan0 284#4E2AF83A0E48231E
(1502935088.053125) vcan0 284#6EC3B86B39F57B62
(1502935088.063295) vcan0 284#76170E20EDE4607E
(1502935088.073526) vcan0 284#3D526347F3130E3F
(1502935088.083748) vcan0 284#E7631D6F6D542427
(1502935088.093921) vcan0 284#91651E024BAB5441
(1502935088.104154) vcan0 284#D405A270F478571B
(1502935088.114356) vcan0 284#F64F846F2901CE3D
(1502935088.124474) vcan0 284#B497B079C4597A66
(1502935088.134689) vcan0 284#16B0FB2BFE52E043
(1502935088.144915) vcan0 284#0F7D8A305D88A940
(1502935088.155110) vcan0 284#826EAA1014FC2E1D
(1502935088.165334) vcan0 284#9CA1AC5E23901F05
(1502935088.175556) vcan0 284#D0D5CA76514DA83A
(1502935088.185677) vcan0 284#EFA0A4416ECE9B32
(1502935088.195903) vcan0 284#13479C3C3DCB9C7C
(1502935088.206123) vcan0 284#7C16BF50820A5528
(1502935088.216243) vcan0 284#77C0185FF22DCD70
(1502935088.226473) vcan0 284#6FEFB526B4127C26
(1502935088.236668) vcan0 284#E541DB2F5653D315
(1502935088.246836) vcan0 284#2167A04D77A7F931
(1502935088.257078) vcan0 284#A1FE2757F66C423E
(1502935088.267292) vcan0 284#6B20514D984EAC46
(1502935088.277415) vcan0 284#1F6E107C1FB80147
(1502935088.287650) vcan0 284#5CA8262D351E0C28
(1502935088.297872) vcan0 284#1D0BE20A6B25B15D
(1502935088.307990) vcan0 284#93A6B568A0798C1B
(1502935088.318219) vcan0 284#8021E07A2F486247
(1502935088.328442) vcan0 284#C309AC2050F7AA71
(1502935088.338565) vcan0 284#80950A02B2AA5062
(1502935088.348813) vcan0 284#BEC5462494DCA63E
(1502935088.359037) vcan0 284#F075ED5E3ADC0575
(1502935088.369162) vcan0 284#16E7FB666736063E
(1502935088.379375) vcan0 284#2D0AD36585D6B10D
(1502935088.389575) vcan0 284#1B498264124CAE15
(1502935088.399695) vcan0 284#DB2985233DB02232
(1502935088.409933) vcan0 284#89F3A7477D28AD7A
(1502935088.420132) vcan0 284#331D6570F513F914
(1502935088.430254) vcan0 284#15775941528B756C
(1502935088.440450) vcan0 284#14CCFA5B711F806E
(1502935088.450650) vcan0 284#87A9811432D7DC66
(1502935088.460768) vcan0 284#DC44314C1A50377D
(1502935088.471012) vcan0 284#D25069025C661147
(1502935088.481231) vcan0 284#4A989944955A1523
(1502935088.491391) vcan0 284#AD5DBC38CA2DA446
(1502935088.501647) vcan0 284#480566056B23035D
(1502935088.511862) vcan0 284#5E0A4B05387B5364
(1502935088.521988) vcan0 284#A6FF085274F1466C
(1502935088.532228) vcan0 284#9FB15922D309DC37
(1502935088.542434) vcan0 284#F9C7F879BAFADB06
(1502935088.552610) vcan0 284#E5558A4DD5F17D1D
(1502935088.562916) vcan0 284#F7AAFE386F493215
(1502935088.573134) vcan0 284#521A2B182AC86329
(1502935088.583264) vcan0 284#645D2B2A67918459
(1502935088.593475) vcan0 284#7C53D91578292606
(1502935088.603690) vcan0 284#D8B0044804FD5A2A
(1502935088.613816) vcan0 284#AA00036DB4F53514
(1502935088.624038) vcan0 284#1E4D92277C516C6F
(1502935088.634262) vcan0 284#115C475B68E52B6C
(1502935088.644437) vcan0 284#12AC8112BEB90314
(1502935088.654669) vcan0 284#3313D0325AB1E717
(1502935088.664890) vcan0 284#29DD0671911D1B38
(1502935088.675014) vcan0 284#922C3B7CCFDC0F43
(1502935088.685236) vcan0 284#060F622431DE941E
(1502935088.695440) vcan0 284#A2E6EB7AFFD65A1E
(1502935088.705560) vcan0 284#EBD87025883C7648
(1502935088.715785) vcan0 284#D4C8D83BE3836F5E
(1502935088.726002) vcan0 284#F785A85D26E30354
(1502935088.736120) vcan0 284#0D4CD3075BE3D307
(1502935088.746401) vcan0 284#8D74882D8A9FAC1D
(1502935088.756687) vcan0 284#D30CFA0D65258D75
(1502935088.766911) vcan0 284#8E9C07487E0DFD7A
(1502935088.777193) vcan0 284#1A1BC309ACE9996F
(1502935088.787544) vcan0 284#FA5E696A2B770A65
(1502935088.797799) vcan0 284#15CFC55B0C0BEB7C
(1502935088.808079) vcan0 284#E9300E7948E2950E
(1502935088.818416) vcan0 284#66BCD214120E156A
(1502935088.828696) vcan0 284#D9FFB046F8E80D11
(1502935088.838984) vcan0 284#E2EA242DDF0E136B
(1502935088.849344) vcan0 284#29C7A22F84D11028
(1502935088.859618) vcan0 284#DFE56D0915A01355
(1502935088.869876) vcan0 284#0C0E8770B3AE4645
(1502935088.880232) vcan0 284#F823833303942F4E
(1502935088.890499) vcan0 284#DA914A190570563B
(1502935088.900791) vcan0 284#5E7703566706D346
(1502935088.911125) vcan0 284#8F0F03593284FD63
(1502935088.921395) vcan0 284#CD2B603C1DAC0A21
(1502935088.931691) vcan0 284#B091FA5EE7462346
(1502935088.942053) vcan0 284#CA95A410AAF06349
(1502935088.952389) vcan0 284#12BE2D2BDF646A6C
(1502935088.962759) vcan0 284#B7FB4E46FBEE3B24
(1502935088.973141) vcan0 284#2747007B1DB8215B
(1502935088.983373) vcan0 284#0DFD500E0047B141
(1502935088.993622) vcan0 284#16A12F6CEFE7753B
(1502935089.003889) vcan0 284#E055C42C3F68D21B
(1502935089.014180) vcan0 284#74B98663BF3B3236
