(1502935129.274850) vcan0 284#7CCF1D723CD61165
(1502935129.285368) vcan0 284#DEDA9F34D8DCEB2E
(1502935129.295902) vcan0 284#04E6D97173B8115F
(1502935129.306256) vcan0 284#5E9EFF369EB1F756
(1502935129.316753) vcan0 284#DF7FB043F91A9112
(1502935129.326969) vcan0 284#B95DA002AC59C954
(1502935129.337240) vcan0 284#CAA2795C071C796D
(1502935129.347488) vcan0 284#A574FF1EBB17F109
(1502935129.357691) vcan0 284#A1859D399379BC7D
(1502935129.367914) vcan0 284#53188E676C04554A
(1502935129.378107) vcan0 284#64CFCF444B395911
(1502935129.388222) vcan0 284#6D78BA109FF6F87D
(1502935129.398449) vcan0 284#8D4F7E7FBAB01B15
(1502935129.408647) vcan0 284#ECD2314D8EFFCB14
(1502935129.418766) vcan0 284#F9D3C455A0E65D0B
(1502935129.428968) vcan0 284#D2B6A94D75A3E247
(1502935129.439160) vcan0 284#DDBC6F70B0914902
(1502935129.449276) vcan0 284#4D80CE76E1A24962
(1502935129.459462) vcan0 284#244A5B61AB1ECE2D
(1502935129.469637) vcan0 284#7F54413903CA0B25
(1502935129.479749) vcan0 284#A4395F4039B2E13B
(1502935129.489972) vcan0 284#B023D5796EDCD81C
(1502935129.500190) vcan0 284#40CE5A295598D418
(1502935129.510315) vcan0 284#2AF4C926E153F862
(1502935129.520548) vcan0 284#E91191167D0C580E
(1502935129.530766) vcan0 284#4D584D2D4DE1605B
(1502935129.540896) vcan0 284#C845B11FBAD0073E
(1502935129.551125) vcan0 284#ECD7595955952F1F
(1502935129.561340) vcan0 284#74812353D9AA8B26
(1502935129.571512) vcan0 284#E494FB336D55E828
(1502935129.581744) vcan0 284#7991E931B64BA501
(1502935129.591956) vcan0 284#E2F8CA70564E5922
(1502935129.602151) vcan0 284#67DDEE032F799967
(1502935129.612378) vcan0 284#38F1A2048B274A65
(1502935129.622578) vcan0 284#DA976715B745E43D
(1502935129.632693) vcan0 284#8EF1550A7ED1C655
(1502935129.642979) vcan0 284#F0F7C5793E152B04
(1502935129.653188) vcan0 284#EDAD9F7230C62023
(1502935129.663312) vcan0 284#94ADFF1C17A26919
(1502935129.673521) vcan0 284#111A19067DBF9033
(1502935129.683739) vcan0 284#94AEC1275E726633
(1502935129.693864) vcan0 284#CAA0F10E5CF47247
(1502935129.704080) vcan0 284#18436E71B6784B68
(1502935129.714319) vcan0 284#B289A2668DC49144
(1502935129.724483) vcan0 284#8F23D70E961E9E1A
(1502935129.734689) vcan0 284#FA197A6D09B5C040
(1502935129.744876) vcan0 284#4C6A431CDD12455E
(1502935129.754993) vcan0 284#5F031A63B3473220
(1502935129.765199) vcan0 284#0C8CDE4597F4BC67
(1502935129.775402) vcan0 284#3E6F7C05E723465B
(1502935129.785576) vcan0 284#4F3AA125CD60D20F
(1502935129.795805) vcan0 284#65F50C313F32671F
(1502935129.806020) vcan0 284#0B76FD1352A3AC23
(1502935129.816151) vcan0 284#70F887429F23FD30
(1502935129.826361) vcan0 284#6945163D8112A148
(1502935129.836560) vcan0 284#1CE38D64FDF3D764
(1502935129.846676) vcan0 284#E084077CE6837F73
(1502935129.856901) vcan0 284#5AE84A2CF8C7756D
(1502935129.867123) vcan0 284#9DFCCA5B0C72ED12
(1502935129.877281) vcan0 284#858C07322C20A26A
(1502935129.887540) vcan0 284#A2908B2D80A6811F
(1502935129.897760) vcan0 284#35D5622BEEFACE49
(1502935129.907952) vcan0 284#5DB9C67D95D87C0E
(1502935129.918212) vcan0 284#A242016A6945A543
(1502935129.928412) vcan0 284#2CCD3976E0B17D6F
(1502935129.938536) vcan0 284#5069EB1E7B07DB1B
(1502935129.948754) vcan0 284#AD12507FB65EF84F
(1502935129.958967) vcan0 284#BB39423BB9884D13
(1502935129.969147) vcan0 284#0802A5732B32CA7D
(1502935129.979353) vcan0 284#58AC4A447247BB30
(1502935129.989544) vcan0 284#AC446B46758FD828
(1502935129.999658) vcan0 284#6F3B93158CC97242
(1502935130.009886) vcan0 284#5B13581CC923DE41
(1502935130.020088) vcan0 284#8591E82FF80F2378
(1502935130.030297) vcan0 284#D595CB540A1EF061
(1502935130.040535) vcan0 284#2530C56277265702
(1502935130.050831) vcan0 284#8AC471015A05280E
(1502935130.061074) vcan0 284#6621264CE77D387F
(1502935130.071324) vcan0 284#EFDDA41C08642736
(1502935130.081791) vcan0 284#51C3DD421CABDE12
(1502935130.092072) vcan0 284#E815A525A12CC961
(1502935130.102344) vcan0 284#97B2B92E9628F524
(1502935130.112686) vcan0 284#578BC13152ECFB69
(1502935130.123056) vcan0 284#4FB14238608D6625
(1502935130.133318) vcan0 284#7D1EC667A75D8D7C
(1502935130.143651) vcan0 284#D2D421562A63312E
(1502935130.153941) vcan0 284#1CED65254110B56B
(1502935130.164273) vcan0 284#B62CA4707800BE41
(1502935130.174688) vcan0 284#0B34932D3BBE8C20
(1502935130.184988) vcan0 284#7010E139E0C95E02
(1502935130.195295) vcan0 284#46DC7C029540A61C
(1502935130.205705) vcan0 284#58F0B504D0A0EE03
(1502935130.216000) vcan0 284#F045CE2ABE11DC50
(1502935130.226291) vcan0 284#B81E2703DF237347
(1502935130.236736) vcan0 284#C675030709E20446
(1502935130.246937) vcan0 284#FBCE515AAE8BA82C
(1502935130.257144) vcan0 284#AA0ECE2793810B09
(1502935130.267482) vcan0 284#44B49D51029A8F59
(1502935130.277738) vcan0 284#E56D07739365E009
(1502935130.287955) vcan0 284#6227F67E638CCD5A
