(1502931936.541484) vcan0 284#08F7D0143D142856
(1502931936.551718) vcan0 284#CC49ED75B57E9C39
(1502931936.561912) vcan0 284#1981E02CDBCE933B
(1502931936.572190) vcan0 284#91D3E276C681794D
(1502931936.582500) vcan0 284#4878C92CC72FF921
(1502931936.592699) vcan0 284#CCB6A332A96EC72A
(1502931936.603028) vcan0 284#00E1AD091A8A5E45
(1502931936.613228) vcan0 284#8D35DF778B52F32C
(1502931936.623373) vcan0 284#E227473B2E07496A
(1502931936.633660) vcan0 284#EE44B219AEA85A12
(1502931936.643840) vcan0 284#CB6A9729EE2A2419
(1502931936.653996) vcan0 284#E45B723BA7BB9E60
(1502931936.664282) vcan0 284#C97C1772FC6B335F
(1502931936.674466) vcan0 284#6DD9CC471CF8F347
(1502931936.684616) vcan0 284#698EB760B80A6E27
(1502931936.694929) vcan0 284#3E9F620C71858875
(1502931936.705097) vcan0 284#F51E967D0AE94F02
(1502931936.715264) vcan0 284#2604252F0EA0762A
(1502931936.725602) vcan0 284#E5B7E33DB7D70726
(1502931936.735795) vcan0 284#D421F0772D30AD6A
(1502931936.745908) vcan0 284#7E070148A1D8932A
(1502931936.756246) vcan0 284#D79E74157EE8AE51
(1502931936.766474) vcan0 284#BB62F26F64D4530D
(1502931936.776635) vcan0 284#093BA27E9E8A392B
(1502931936.786993) vcan0 284#92DB9C77F77F5418
(1502931936.797187) vcan0 284#4C33943D5D463421
(1502931936.807298) vcan0 284#E6AA7831318F0679
(1502931936.817631) vcan0 284#0402D301AF279023
(1502931936.827835) vcan0 284#2DFB395871DB9F49
(1502931936.837947) vcan0 284#CB1F846B9689F138
(1502931936.848276) vcan0 284#29E60D7109BFE677
(1502931936.858457) vcan0 284#070F7A2E1F05A46E
(1502931936.868631) vcan0 284#13A8367A2D139F5D
(1502931936.878953) vcan0 284#2DA51A19F85F1A38
(1502931936.889149) vcan0 284#E4EAA60302C70A11
(1502931936.899257) vcan0 284#2690C72262F2A74B
(1502931936.909510) vcan0 284#A39F9E3BFD2E3C38
(1502931936.919704) vcan0 284#E0DA561D5E02912B
(1502931936.929856) vcan0 284#61039045E915F91B
(1502931936.940201) vcan0 284#FC8CCA56F3DE2C3D
(1502931936.950384) vcan0 284#E1954D3449C05E14
(1502931936.960495) vcan0 284#5125615EC740C665
(1502931936.970893) vcan0 284#7A4F650D55273460
(1502931936.981112) vcan0 284#76685609A74A9F65
(1502931936.991221) vcan0 284#C702D4294288DA74
(1502931937.001522) vcan0 284#3DD4901EF0E8E11A
(1502931937.011687) vcan0 284#4B47C16C44E30A4D
(1502931937.021849) vcan0 284#0FEE85095FEFF766
(1502931937.032200) vcan0 284#71F6A92A3D93A022
(1502931937.042390) vcan0 284#574F121F55E1502E
(1502931937.052498) vcan0 284#3F5AAB337DDFD941
(1502931937.062721) vcan0 284#B7D3F879E2F9496F
(1502931937.072957) vcan0 284#7A0E167A97AE4F17
(1502931937.083167) vcan0 284#40FCDA1ADB11A63F
(1502931937.093456) vcan0 284#80C448333D89A571
(1502931937.103759) vcan0 284#CFF0D27C615A9667
(1502931937.113952) vcan0 284#864904062016345B
(1502931937.124227) vcan0 284#289B5C4D00996913
(1502931937.134523) vcan0 284#753D683B9F03B356
(1502931937.144764) vcan0 284#A7E308793C403C65
(1502931937.155121) vcan0 284#E18B8D4BE4B79917
(1502931937.165421) vcan0 284#2D291E002CD34E38
(1502931937.175701) vcan0 284#289BA4643C17A409
(1502931937.186115) vcan0 284#8BC2461F99914E0F
(1502931937.196347) vcan0 284#79AA442CE311593E
(1502931937.206463) vcan0 284#EE729F3DB804F05F
(1502931937.217439) vcan0 284#60F13200A5469837
(1502931937.227656) vcan0 284#9AFE394FDBFF487A
(1502931937.243136) vcan0 284#3CF5E74EDBFA146A
(1502931937.253492) vcan0 284#B611EF39BCB93002
(1502931937.263696) vcan0 284#1884BA5B8502C236
(1502931937.273983) vcan0 284#1E14C7699ECDBE61
(1502931937.284195) vcan0 284#A518F61146AF2337
(1502931937.294316) vcan0 284#9E6628751B565E4D
(1502931937.304591) vcan0 284#E5B2D60D454A316E
(1502931937.314825) vcan0 284#57969A32C63E6459
(1502931937.324994) vcan0 284#2902CB0584BFB832
(1502931937.335284) vcan0 284#F311B311519D6F6A
(1502931937.345514) vcan0 284#C1D65C3C7ED4F930
(1502931937.355637) vcan0 284#EA2EBE793A81A168
(1502931937.365916) vcan0 284#61E6526FD8A15D37
(1502931937.376131) vcan0 284#F3859148C2D7856F
(1502931937.386296) vcan0 284#7DE8F56E8D84CB17
(1502931937.396586) vcan0 284#9DD7CE69B9DDDD3D
(1502931937.406819) vcan0 284#687FE00153E9BD23
(1502931937.416946) vcan0 284#75970E4080039B5D
(1502931937.427233) vcan0 284#D9EB7F5A93ABD529
(1502931937.437440) vcan0 284#1ED1593F7E04766C
(1502931937.447578) vcan0 284#DA5AF960BC378234
(1502931937.457831) vcan0 284#995AD439BF0DD06E
(1502931937.468033) vcan0 284#0182B322F1F06E6C
(1502931937.478215) vcan0 284#864C34482A847E28
(1502931937.488527) vcan0 284#75B0271F795EE759
(1502931937.498752) vcan0 284#7B21EE123687845B
(1502931937.508880) vcan0 284#F732E10A6550AC0C
(1502931937.519090) vcan0 284#710826445919347A
(1502931937.529288) vcan0 284#3DF20944648EB70C
(1502931937.539438) vcan0 284#1BF1B969BADAFF32
(1502931937.549729) vcan0 284#F1128324B8C88853
(1502931937.559965) vcan0 284#73B8DD705A926326
(1502931937.570222) vcan0 284#0BB24677E94FEC30
(1502931937.580602) vcan0 284#DA95FE03E49DC651
(1502931937.590945) vcan0 284#7CFBC15AF9665843
(1502931937.601090) vcan0 284#63A23C3E5656BB3B
(1502931937.611363) vcan0 284#B59EDA77FCFC1078
(1502931937.621573) vcan0 284#16648B2AB7208E1A
(1502931937.631732) vcan0 284#EDED7F649CB0BF72
(1502931937.642022) vcan0 284#E1A40C43639EA703
(1502931937.652229) vcan0 284#150FA74C5DC6FA55
(1502931937.662352) vcan0 284#99252C5F0C428857
(1502931937.672597) vcan0 284#C216A7620A2E5223
(1502931937.682878) vcan0 284#655BBC510009B126
(1502931937.693037) vcan0 284#6EBC0930804C763B
(1502931937.703263) vcan0 284#BAE3B05960CF8C54
(1502931937.713491) vcan0 284#3815FF0E2E9C8E4A
(1502931937.723693) vcan0 284#BA61F07A44C74506
(1502931937.733956) vcan0 284#17EC7A7B94F7EE7E
(1502931937.744171) vcan0 284#28650C5893E73C56
(1502931937.754298) vcan0 284#8D5E47428B074916
(1502931937.764578) vcan0 284#EA3DF81143FD213A
(1502931937.774790) vcan0 284#88045A0E00A2833C
(1502931937.784946) vcan0 284#FA1DB05475F2D972
(1502931937.795245) vcan0 284#9C52432FDBC2BC17
(1502931937.805446) vcan0 284#D8908176B161EA7B
(1502931937.815572) vcan0 284#3889B76D72B6AD55
(1502931937.825843) vcan0 284#BDA37253FB9F5E50
(1502931937.836063) vcan0 284#7CE4FF7823FF2E25
(1502931937.846182) vcan0 284#FBA80F77EBA00929
(1502931937.856476) vcan0 284#A34BA560B58CC050
(1502931937.866665) vcan0 284#4B70967DDC60A46F
(1502931937.876847) vcan0 284#E3284F1B05D28678
(1502931937.887141) vcan0 284#2028EA75FA14CA16
(1502931937.897408) vcan0 284#99C97577488DF64D
(1502931937.907581) vcan0 284#8EFC066D2728BD39
(1502931937.917875) vcan0 284#D4943F64783AFF7E
(1502931937.928319) vcan0 284#6A25DF735C999972
(1502931937.938601) vcan0 284#78DC823B64438F48
(1502931937.949022) vcan0 284#D18B7365142FC66A
(1502931937.959474) vcan0 284#3F064C60AA1CF55B
(1502931937.969697) vcan0 284#C590B066788F034E
(1502931937.980090) vcan0 284#1CD3A2318234233A
(1502931937.990538) vcan0 284#732F621E98B7A22A
(1502931938.000804) vcan0 284#A533525F6ED87115
(1502931938.011223) vcan0 284#8358AC53497FF73F
(1502931938.021632) vcan0 284#23653266CEC84251
(1502931938.031923) vcan0 284#25E09B2F078E8101
(1502931938.042371) vcan0 284#D39AC94945088625
(1502931938.052700) vcan0 284#01A34B186D643F41
(1502931938.062979) vcan0 284#8D957C738F9F5205
(1502931938.073360) vcan0 284#948CFC7A612ABC57
(1502931938.083766) vcan0 284#07DA5104FEB1DB6E
(1502931938.094044) vcan0 284#BDC3554A7FB6D43F
(1502931938.104281) vcan0 284#62F56A378F4FC92F
(1502931938.114500) vcan0 284#93E59A2AA1FBB617
(1502931938.124673) vcan0 284#396CBE0B58764B11
(1502931938.134886) vcan0 284#198BBA65553F613D
(1502931938.145084) vcan0 284#DBAA6E4B8CBA1C04
(1502931938.155205) vcan0 284#EDF6036880DEC02A
(1502931938.165412) vcan0 284#FA928E19714FB03B
(1502931938.175614) vcan0 284#C95DB86A1EF8C07F
(1502931938.185731) vcan0 284#3F18F30CEE3D541A
(1502931938.195930) vcan0 284#2586420113B3BC56
(1502931938.206146) vcan0 284#3346DA3F26298E19
(1502931938.216276) vcan0 284#8017FC17C1DB5633
(1502931938.226459) vcan0 284#B6C8E01E14A4F812
(1502931938.236655) vcan0 284#2206130BBDA23223
(1502931938.246772) vcan0 284#1256D401E0C96855
(1502931938.256967) vcan0 284#3D590763744B3F39
(1502931938.267175) vcan0 284#6F193205D03EA20D
(1502931938.277359) vcan0 284#1547F650A885F010
(1502931938.287570) vcan0 284#29B5ED1E2FD2B036
(1502931938.297782) vcan0 284#FDC4514E04605C6A
(1502931938.307900) vcan0 284#BB8CCD3AEABB5536
(1502931938.318101) vcan0 284#843E1D15B61F5C54
(1502931938.328307) vcan0 284#5B0B06724E9CD57F
(1502931938.338479) vcan0 284#D4171D549B23F97E
(1502931938.348699) vcan0 284#3CDA291AF99D5F55
(1502931938.358915) vcan0 284#AED6B5557020045A
(1502931938.369032) vcan0 284#1FC7ED6E2EEEB16D
(1502931938.379230) vcan0 284#31FC5A0DD58FCE0D
(1502931938.389417) vcan0 284#4292AA0053026E18
(1502931938.399531) vcan0 284#9332013154E87E02
(1502931938.409747) vcan0 284#33CCD66DD08B0814
(1502931938.419968) vcan0 284#C833BE3BA2E50873
(1502931938.430141) vcan0 284#A0CAAA21DD7AB40C
(1502931938.440373) vcan0 284#4A6BF903C97F9840
(1502931938.450586) vcan0 284#0C4D654347304B52
(1502931938.460706) vcan0 284#CDDFF42AC8D9327E
(1502931938.470902) vcan0 284#32ECA008521E1240
(1502931938.481094) vcan0 284#7EF98E528DF7A67A
(1502931938.491240) vcan0 284#A0BAE73F5211AC26
(1502931938.501461) vcan0 284#281BA079DC94115A
(1502931938.511671) vcan0 284#4BAF0B7CD6F1554F
(1502931938.521793) vcan0 284#4CB515346A76F96A
(1502931938.531983) vcan0 284#04E0073D7DB17041
(1502931938.542178) vcan0 284#4006C8784672B23D
(1502931938.552299) vcan0 284#D1B3DE59D338C929
(1502931938.562513) vcan0 284#9A5A31400480B547
(1502931938.572727) vcan0 284#A3C4D13D628EEF7B
(1502931938.582957) vcan0 284#A765BE3A438F7C5F
(1502931938.593170) vcan0 284#4009A408F1D0B73E
(1502931938.603393) vcan0 284#0D0F15204C56094C
(1502931938.613523) vcan0 284#39010311DAEE094B
(1502931938.623740) vcan0 284#14303C4A6BEDA319
(1502931938.633966) vcan0 284#2C0D1C0B9229CB1C
(1502931938.644136) vcan0 284#F8E44A14CCC7034B
(1502931938.654356) vcan0 284#E43A77432100EB0D
(1502931938.664565) vcan0 284#A95C15252FEA823F
(1502931938.674685) vcan0 284#F7F1405DF5112B59
(1502931938.684883) vcan0 284#9A607C2AFCD1481A
(1502931938.695088) vcan0 284#73C39B1ADA664423
(1502931938.705202) vcan0 284#4244FB5744777A74
(1502931938.715409) vcan0 284#AD9F0D4DDD9E2C18
(1502931938.725611) vcan0 284#48F72F3C5064DF0A
(1502931938.735774) vcan0 284#3F2D1C14EF5CEE76
(1502931938.745991) vcan0 284#93F35B6A7F36C01C
(1502931938.756208) vcan0 284#E12DA635A002710A
(1502931938.766330) vcan0 284#CC8CC9681A2FA946
(1502931938.776545) vcan0 284#7BF17A55E0BC0533
(1502931938.786752) vcan0 284#851C4D60A7FE9660
(1502931938.796918) vcan0 284#73E6D04F7D019874
(1502931938.807306) vcan0 284#74C69A2B57214813
(1502931938.817630) vcan0 284#9E0183021D23B050
(1502931938.827898) vcan0 284#870BCB5296F3C35F
(1502931938.838254) vcan0 284#1235DB29216C477D
(1502931938.848625) vcan0 284#92C50C7A85F87644
(1502931938.858860) vcan0 284#FBD28B20D4090852
(1502931938.869238) vcan0 284#C96FF138A872996D
(1502931938.879593) vcan0 284#B1A8346A12672175
(1502931938.889865) vcan0 284#F8D67878F1D5507E
(1502931938.900235) vcan0 284#01C40F6C8BCAD462
(1502931938.910475) vcan0 284#700C111BE2F1B521
(1502931938.920599) vcan0 284#2CCD456D3C99DA03
(1502931938.930975) vcan0 284#FC205F68A7BEC042
(1502931938.941191) vcan0 284#1D56E036813DAC48
(1502931938.951306) vcan0 284#4EBD5723903CB106
(1502931938.961621) vcan0 284#FF3E443DC283F24E
(1502931938.971834) vcan0 284#E75DF9199D40C73F
(1502931938.982021) vcan0 284#DFA6A21F6E69C46C
(1502931938.992396) vcan0 284#33348B1FF2DB7D49
(1502931939.002634) vcan0 284#8FD50B6AC5F99719
(1502931939.012762) vcan0 284#77D4F40D8AA8970A
(1502931939.023043) vcan0 284#9A03A06B4144E646
(1502931939.033289) vcan0 284#321B31784BACD455
(1502931939.043445) vcan0 284#53AB073C2AF2A970
(1502931939.053836) vcan0 284#3C822554546F1728
(1502931939.064088) vcan0 284#B6BC7E53AD8E366F
(1502931939.074214) vcan0 284#3761CD49E289C440
(1502931939.084425) vcan0 284#E927117333822C32
(1502931939.094626) vcan0 284#89488503067EF129
(1502931939.104742) vcan0 284#B5BFD87AD705DD26
(1502931939.115109) vcan0 284#96BAA230B4FE1C38
(1502931939.125319) vcan0 284#9A89CF757E189C4A
(1502931939.135492) vcan0 284#513FE47779307215
(1502931939.145876) vcan0 284#EC81603785736F17
(1502931939.156126) vcan0 284#6B0CF05E7C576C21
(1502931939.166250) vcan0 284#4A6D0731E3E0E46C
(1502931939.176590) vcan0 284#0600042CE470A71C
(1502931939.186809) vcan0 284#2425CB33391B3524
(1502931939.196962) vcan0 284#301D7C7277D0D26F
(1502931939.207350) vcan0 284#630DDF146C9FA146
(1502931939.217584) vcan0 284#CB3FEA1719CA5D68
(1502931939.227721) vcan0 284#192ED83502A1B761
(1502931939.238097) vcan0 284#FB5322290356E928
(1502931939.248320) vcan0 284#3623E413849CA72C
(1502931939.258440) vcan0 284#09D4DA52EBE2BC0E
(1502931939.268828) vcan0 284#5CA28453A08E7D03
(1502931939.279062) vcan0 284#9FE1D946F62B5449
(1502931939.289241) vcan0 284#1EA7194EF020BE3E
(1502931939.299594) vcan0 284#6F5CC65E0A297A05
(1502931939.309840) vcan0 284#75942D56DB68B63D
(1502931939.319959) vcan0 284#8680E626C0013507
(1502931939.330174) vcan0 284#BE499B2A8D80EA52
(1502931939.340376) vcan0 284#A472DC23E26E665E
(1502931939.350516) vcan0 284#C69B1F77D48F5816
(1502931939.360892) vcan0 284#593F394E29A9FE0B
(1502931939.371130) vcan0 284#412FFA5C247F2366
(1502931939.381251) vcan0 284#43735C745A5DD212
(1502931939.391607) vcan0 284#2720DB473EC77E1D
(1502931939.401810) vcan0 284#5DB3BB3B5D43BF5B
(1502931939.411931) vcan0 284#C363264A6787960E
(1502931939.422327) vcan0 284#48267C6A1F06AB1D
(1502931939.432552) vcan0 284#07161412E7075631
(1502931939.442703) vcan0 284#1532FF6625BD2D60
(1502931939.453045) vcan0 284#D7281470848EC545
(1502931939.463287) vcan0 284#2FE6A7654DBD4146
(1502931939.473476) vcan0 284#5FF77B03B6668E0C
(1502931939.483678) vcan0 284#0DBF764D1D41172E
(1502931939.493862) vcan0 284#43E7785FB1315371
(1502931939.503978) vcan0 284#FFAF7D0C09839856
(1502931939.514308) vcan0 284#86C1AB0758EFB65A
(1502931939.524501) vcan0 284#322C9762C7F0A564
(1502931939.534677) vcan0 284#7D6EDA40759FF356
(1502931939.545071) vcan0 284#214E7877A48EB508
(1502931939.555291) vcan0 284#B46672747F013433
(1502931939.565409) vcan0 284#01D2746477CA983E
(1502931939.575782) vcan0 284#E688CA4149F8F04E
(1502931939.585981) vcan0 284#96D0435CED9EDE53
(1502931939.596137) vcan0 284#30004700AB024343
(1502931939.606534) vcan0 284#125C0C3407295B70
(1502931939.616791) vcan0 284#2F9108094142B419
(1502931939.626967) vcan0 284#54E69C368F88840C
(1502931939.637385) vcan0 284#F7A8422661A51304
(1502931939.647728) vcan0 284#ACC99B3A3A90BB05
(1502931939.657969) vcan0 284#13D76675AC791947
(1502931939.668329) vcan0 284#4313545C9998127D
(1502931939.678652) vcan0 284#0469D021763FEB3E
(1502931939.688910) vcan0 284#6089B86181D7AA62
(1502931939.699298) vcan0 284#EBDEDE1581D73059
(1502931939.709633) vcan0 284#2566606B9F45510A
(1502931939.719828) vcan0 284#00D9640C2638D54F
(1502931939.730185) vcan0 284#1610EA48E6612F4E
(1502931939.740492) vcan0 284#6F30C61EACE02D25
(1502931939.750742) vcan0 284#D3000E229F300D1F
(1502931939.761090) vcan0 284#57E37068E55C1A56
(1502931939.771417) vcan0 284#A759680F87747971
(1502931939.781613) vcan0 284#279FCE6FFB3F0546
(1502931939.791978) vcan0 284#16FDFD7D1E481116
(1502931939.802295) vcan0 284#5DE5184AC2C69938
(1502931939.812556) vcan0 284#59D8CC1B70BC7F3F
(1502931939.823001) vcan0 284#6E40B37F9CEB2078
(1502931939.833269) vcan0 284#0955923C73A98321
(1502931939.843490) vcan0 284#122B0C3769DE4A1E
(1502931939.853828) vcan0 284#F4802E04FE09EB4C
(1502931939.864119) vcan0 284#EAB57B771AE78E6F
(1502931939.874316) vcan0 284#9D4F3C57EB8EE003
(1502931939.884606) vcan0 284#401F643FB45F2620
(1502931939.894910) vcan0 284#D1F00F52B04F2A5E
(1502931939.905170) vcan0 284#60405445A5F11D74
(1502931939.915417) vcan0 284#4F80377DB823C52D
(1502931939.925648) vcan0 284#8A4E384AF6D99F0C
(1502931939.935804) vcan0 284#3F983E1FB1ED063A
(1502931939.946102) vcan0 284#F219A55255953C1D
(1502931939.956303) vcan0 284#D03518504FFFBD1C
(1502931939.966420) vcan0 284#175CD655290EE56B
(1502931939.976748) vcan0 284#BFBB3D5C869C8955
(1502931939.986961) vcan0 284#C5F90564C810D018
(1502931939.997114) vcan0 284#F9450D77D824121B
(1502931940.007438) vcan0 284#31EF1A37EDC63B7B
(1502931940.017618) vcan0 284#D62EFD671BA5962E
(1502931940.027727) vcan0 284#07AECA6A737E393F
(1502931940.038072) vcan0 284#0634773248CD2E2A
(1502931940.048288) vcan0 284#27DE5F5FD8248704
(1502931940.058406) vcan0 284#F81C5908881EB424
(1502931940.068746) vcan0 284#7D16A578479D9005
(1502931940.078939) vcan0 284#404279520765DD42
(1502931940.089116) vcan0 284#3E7730127FDAB771
(1502931940.099496) vcan0 284#B952E47C3091D564
(1502931940.109717) vcan0 284#D46FF40E8988FC4C
(1502931940.119836) vcan0 284#7F909301EBCBCA64
(1502931940.130075) vcan0 284#B296E1383E4CD15D
(1502931940.140278) vcan0 284#7168543A7790E71C
(1502931940.150458) vcan0 284#065DA1766AAE6131
(1502931940.160801) vcan0 284#4FB5F937374CBC2D
(1502931940.170993) vcan0 284#58759D2C25E4F61F
(1502931940.181105) vcan0 284#52F1525C5F236817
(1502931940.191496) vcan0 284#9962305F5925CA0E
(1502931940.201703) vcan0 284#A7F09641C040903E
(1502931940.211822) vcan0 284#314A51139F0DF049
(1502931940.222125) vcan0 284#485F4463AE60F60B
(1502931940.232298) vcan0 284#E7AA804F88A1BD35
(1502931940.242467) vcan0 284#B5C5D34E2522B161
(1502931940.252818) vcan0 284#077C75276E18B84B
(1502931940.263079) vcan0 284#55B38646DBEB6936
(1502931940.273193) vcan0 284#F7A0B418D4431A48
(1502931940.283497) vcan0 284#C7B7341BA9379651
(1502931940.293696) vcan0 284#1290EB2538208955
(1502931940.303856) vcan0 284#21C87D6E18ED8C1C
(1502931940.314174) vcan0 284#A3CEEA06707D7726
(1502931940.324338) vcan0 284#4F39494AFB438833
(1502931940.334469) vcan0 284#96616E46A12A9C26
(1502931940.344699) vcan0 284#5A67F04A2FC49E25
(1502931940.354896) vcan0 284#FA4F66350258870C
(1502931940.365013) vcan0 284#EF042F642B9AB748
(1502931940.375221) vcan0 284#A165775638647347
(1502931940.385372) vcan0 284#D9FAAD548810F825
(1502931940.395543) vcan0 284#C005317D8FC08123
(1502931940.405790) vcan0 284#AD32A907C881A624
(1502931940.416004) vcan0 284#FDD8396F02E62F4E
(1502931940.426119) vcan0 284#A36D105BF579EE07
(1502931940.436320) vcan0 284#D6294A166A254576
(1502931940.446474) vcan0 284#9EB18459E8B9353C
(1502931940.456622) vcan0 284#A345CE4BBF790248
(1502931940.466826) vcan0 284#00A7C2584614B952
(1502931940.476978) vcan0 284#30F7796E4FE00B23
(1502931940.487083) vcan0 284#41584106C658E834
(1502931940.497283) vcan0 284#F10AA8499BBF3151
(1502931940.507462) vcan0 284#F51C875AEB5A0E7F
(1502931940.517572) vcan0 284#9D17B95DE421B63E
(1502931940.527774) vcan0 284#17F5C5473F7D3034
(1502931940.537966) vcan0 284#1C862906F0EF731C
(1502931940.548120) vcan0 284#C78D285ADD8B5A03
(1502931940.558331) vcan0 284#7FB0F53F75C0D161
(1502931940.568483) vcan0 284#A50D01287D892F2F
(1502931940.578588) vcan0 284#77A60130487B1103
(1502931940.588787) vcan0 284#72031E374ED04B46
(1502931940.598978) vcan0 284#B3A0567910B5A210
(1502931940.609141) vcan0 284#368A810256E62445
(1502931940.619372) vcan0 284#D02EA5583731445B
(1502931940.629571) vcan0 284#9CFADD1700261F47
(1502931940.639794) vcan0 284#8611507EDD521F1E
(1502931940.650077) vcan0 284#C67E077C771CF847
(1502931940.660372) vcan0 284#7812516FBB9B8E56
(1502931940.670552) vcan0 284#63770647162A0A4D
(1502931940.680867) vcan0 284#9FBD44157A6CCC0E
(1502931940.691151) vcan0 284#55A73A01BC436E1B
(1502931940.701396) vcan0 284#6A5C402B1C35635B
(1502931940.711728) vcan0 284#99CFC81EEA0C366B
(1502931940.722010) vcan0 284#91F5343D3EDDC946
(1502931940.732260) vcan0 284#6796651A099C366D
(1502931940.742633) vcan0 284#8658DB49D9998351
(1502931940.752995) vcan0 284#576C823339F93143
(1502931940.763194) vcan0 284#E94E26628DF60336
(1502931940.773486) vcan0 284#8FDF5608B97DCB3A
(1502931940.783772) vcan0 284#C42748112BDA3420
(1502931940.794042) vcan0 284#B9A3EA014B39980F
(1502931940.804392) vcan0 284#082D543E7F22F27D
(1502931940.814694) vcan0 284#C2559057813FA52D
(1502931940.824936) vcan0 284#3ABE805425CD961E
(1502931940.835229) vcan0 284#9769AF7ADA7BC569
(1502931940.845526) vcan0 284#9F39632DEC10EA7B
(1502931940.855755) vcan0 284#96BF33050A96A358
(1502931940.866085) vcan0 284#08464D572F8FFC23
(1502931940.876344) vcan0 284#F4A2D9439A3B8214
(1502931940.886521) vcan0 284#6D6CC66A5B393F5E
(1502931940.896841) vcan0 284#A3D7B801F3C4A134
(1502931940.907158) vcan0 284#34D3C22FFA433B35
(1502931940.917361) vcan0 284#2DBED3771D22E911
(1502931940.927713) vcan0 284#873A3F6BBC9D2A00
(1502931940.937949) vcan0 284#D79FB44C4C62877C
(1502931940.948103) vcan0 284#E8775F2090439F4E
(1502931940.958319) vcan0 284#979B1F0CF0A4B35E
(1502931940.968469) vcan0 284#1066914C59F1AF63
(1502931940.978575) vcan0 284#71E4580C4A241221
(1502931940.988779) vcan0 284#7FBE4602084E0807
(1502931940.998970) vcan0 284#24A0D70A1EF8A92F
(1502931941.009131) vcan0 284#F45EF202BA5F0B10
(1502931941.019349) vcan0 284#288E4D08FDA43F5A
(1502931941.029503) vcan0 284#E9EE07341C31274C
(1502931941.039660) vcan0 284#97E0C16E565BCE1E
(1502931941.049874) vcan0 284#776A662A3AB87A70
(1502931941.060058) vcan0 284#4A207053AB3D295A
(1502931941.070175) vcan0 284#34FCB52577DE434B
(1502931941.080380) vcan0 284#C95F126CBB36F510
(1502931941.090527) vcan0 284#337C6E4BA0FFC638
(1502931941.100701) vcan0 284#07997C0D1BF4CD6B
(1502931941.110935) vcan0 284#304366079E349C19
(1502931941.121095) vcan0 284#0C99814A40A9F753
(1502931941.131209) vcan0 284#F8254C7D7D7DDA56
(1502931941.141414) vcan0 284#8BCD097577E4927F
(1502931941.151607) vcan0 284#86CBE25DAF6DE17F
(1502931941.161755) vcan0 284#95DC3C2F7A2AD560
(1502931941.171966) vcan0 284#6ACDEC0FBE6A8A37
(1502931941.182127) vcan0 284#77CF143B53BCF443
(1502931941.192232) vcan0 284#DA9BB1030EB0D629
(1502931941.202442) vcan0 284#AA17C3625206182E
(1502931941.212633) vcan0 284#4868511AF4373336
(1502931941.222753) vcan0 284#FD4341087C640740
(1502931941.232967) vcan0 284#6B167701C6A35374
(1502931941.243170) vcan0 284#389BFC509E92E54C
(1502931941.253323) vcan0 284#66A31A2D3F34795E
(1502931941.263529) vcan0 284#BA86B33897E68034
(1502931941.273685) vcan0 284#DE681578C61F3503
(1502931941.283791) vcan0 284#D78F7808D68E6175
(1502931941.294011) vcan0 284#439D0F5A625D827D
(1502931941.304216) vcan0 284#4D73F474C968F237
(1502931941.314365) vcan0 284#12CB637DE24F3124
(1502931941.324553) vcan0 284#4493C7187C98500D
(1502931941.334710) vcan0 284#A0BABB5BBB62DC53
(1502931941.344866) vcan0 284#CF5445517B566D5F
(1502931941.355075) vcan0 284#CA12B37D796C0834
(1502931941.365225) vcan0 284#CD5C850D127B0418
(1502931941.375331) vcan0 284#6DA43B6ACAA0C615
(1502931941.385535) vcan0 284#8FDF0B58D8BAB26B
(1502931941.395729) vcan0 284#91441A0AC77A0829
(1502931941.405884) vcan0 284#774D9838F7E73437
(1502931941.416106) vcan0 284#06AF810731D44B71
(1502931941.426256) vcan0 284#8ECEB56BE417977F
(1502931941.436361) vcan0 284#F7F38074665E2E74
(1502931941.446561) vcan0 284#BAA6F8743A91904E
(1502931941.456750) vcan0 284#C8BBB071071AED69
(1502931941.466909) vcan0 284#04FA8206DA86146F
(1502931941.477116) vcan0 284#EA691E0E488D4A1F
(1502931941.487264) vcan0 284#561F657C8A24DA69
(1502931941.497434) vcan0 284#03F026732674AA4D
(1502931941.507644) vcan0 284#057B4749CD02DA70
(1502931941.517850) vcan0 284#9FE0B201D2D7CC56
(1502931941.527967) vcan0 284#E07DDE080D85EE6B
(1502931941.538160) vcan0 284#9D78936C6F5DEA60
(1502931941.548351) vcan0 284#E53FA1572EBDAD76
(1502931941.558505) vcan0 284#36D8F2095C8D3910
(1502931941.568718) vcan0 284#25A5E22D3C877411
(1502931941.578872) vcan0 284#8D618501B4739819
(1502931941.588981) vcan0 284#219F0B1184550676
(1502931941.599204) vcan0 284#1AD2C60DDB450406
(1502931941.609390) vcan0 284#BFE69644E28D777F
(1502931941.619503) vcan0 284#E35FF16FC3E0194B
(1502931941.629706) vcan0 284#BD148C6ECDC90F7E
(1502931941.639915) vcan0 284#0B6E646A1334F16A
(1502931941.650139) vcan0 284#57EEE9670E5E8B5D
(1502931941.660461) vcan0 284#39A89B385D693131
(1502931941.670766) vcan0 284#DC60654ED9884E3A
(1502931941.680949) vcan0 284#2F41FE07BCDE4357
(1502931941.691223) vcan0 284#E60D3D26CCB99174
(1502931941.701522) vcan0 284#2B3C2E38CB4DDE7D
(1502931941.711775) vcan0 284#FA763F6B61142142
(1502931941.722110) vcan0 284#28DB170E201C2219
(1502931941.732425) vcan0 284#9D9B9553B53C9D0F
(1502931941.742637) vcan0 284#D48FBA32BE3AA164
(1502931941.753055) vcan0 284#3A92A305EE618140
(1502931941.763371) vcan0 284#9A80A56AF9783A4A
(1502931941.773560) vcan0 284#D0EFF83F7DE0965A
(1502931941.783860) vcan0 284#BC5954158D04852E
(1502931941.794125) vcan0 284#4AAAA658C7C7B87F
(1502931941.804395) vcan0 284#A1387619A1989040
(1502931941.814766) vcan0 284#D525445DDAE01152
(1502931941.825078) vcan0 284#FE01C271B186A92B
(1502931941.835287) vcan0 284#B369600C2E43C079
(1502931941.845598) vcan0 284#6D65ED0299779D32
(1502931941.855902) vcan0 284#FAFC516E98A11B3B
(1502931941.866158) vcan0 284#65C57B30F5739159
(1502931941.876508) vcan0 284#F9B53C7D8DA0933E
(1502931941.886822) vcan0 284#1590B3729751D250
(1502931941.897015) vcan0 284#42DD304EE91F6E25
(1502931941.907366) vcan0 284#558C73357C6FD453
(1502931941.917690) vcan0 284#D781EF65EF0C1920
(1502931941.927904) vcan0 284#75E80E1EA771E825
(1502931941.938247) vcan0 284#6CEDAF7A31426333
(1502931941.948481) vcan0 284#35766D54B6975653
(1502931941.958652) vcan0 284#F8091C33D6AEE36D
(1502931941.968996) vcan0 284#5830E713CE2F6010
(1502931941.979193) vcan0 284#B08FF53F5632A905
(1502931941.989306) vcan0 284#7FB6093C64F9554C
(1502931941.999554) vcan0 284#8475697FED1BF73E
(1502931942.009750) vcan0 284#FD70F37E7F72BB6D
(1502931942.019868) vcan0 284#85BD127A62366F2F
(1502931942.030170) vcan0 284#74E64C477F734F77
(1502931942.040346) vcan0 284#EFD6026E8976003A
(1502931942.050514) vcan0 284#16C5214832B4333C
(1502931942.060849) vcan0 284#72966E5F6B51957D
(1502931942.071024) vcan0 284#AE23081049185E45
(1502931942.081137) vcan0 284#5B5EAE1D240C172E
(1502931942.091361) vcan0 284#F089466BC74B5E18
(1502931942.101561) vcan0 284#554E7A612500B43F
(1502931942.111717) vcan0 284#7EE3B46B4E589614
(1502931942.122029) vcan0 284#FBAE972DD6139C7F
(1502931942.132205) vcan0 284#1C88F624AC3E8D6D
(1502931942.142315) vcan0 284#2C4645059B3E0061
(1502931942.152669) vcan0 284#1038E339B1BBAE04
(1502931942.162916) vcan0 284#885AF71F0DA9D638
(1502931942.173034) vcan0 284#302E6A720E180A1A
(1502931942.183297) vcan0 284#70DF4568A414B739
(1502931942.193473) vcan0 284#8D8B59115FB64856
(1502931942.203649) vcan0 284#2D8BB773A3507B59
(1502931942.214083) vcan0 284#916A7C129F212653
(1502931942.224309) vcan0 284#0EA21057408E8422
(1502931942.234424) vcan0 284#E83984186900BF74
(1502931942.244718) vcan0 284#649A9B50D8C3CA03
(1502931942.254926) vcan0 284#314C1D0DB9E81532
(1502931942.265088) vcan0 284#FEC37E43AF2FD278
(1502931942.275394) vcan0 284#0741AC46F9721671
(1502931942.285572) vcan0 284#85436E7823C9A26B
(1502931942.295689) vcan0 284#A5B1A35EB189B37D
(1502931942.306093) vcan0 284#BF07A34CB5E98618
(1502931942.316323) vcan0 284#6245620247629A6C
(1502931942.326448) vcan0 284#C3925D519273CC74
(1502931942.336791) vcan0 284#557AA4063372A339
(1502931942.347009) vcan0 284#3688832EE205FE17
(1502931942.357148) vcan0 284#9228EC0F63133B22
(1502931942.367482) vcan0 284#8556797124936822
(1502931942.377672) vcan0 284#0235617594F88948
(1502931942.387785) vcan0 284#6421ED44EA6EE50D
(1502931942.398115) vcan0 284#FDF8483DC8BB8815
(1502931942.408327) vcan0 284#C332B0112E45664A
(1502931942.418480) vcan0 284#81A49E47C1F62E55
(1502931942.428815) vcan0 284#DD74384389E54A0E
(1502931942.438983) vcan0 284#BA69454662B8A63B
(1502931942.449151) vcan0 284#ACAEED79601BE924
(1502931942.459470) vcan0 284#14425A396BB69046
(1502931942.469678) vcan0 284#1505703D7687BC3B
(1502931942.479800) vcan0 284#B3182B33D897CD0E
(1502931942.490092) vcan0 284#09FB88300893CF39
(1502931942.500265) vcan0 284#0B0A71483F830C5F
(1502931942.510440) vcan0 284#EB98CD519E325D58
(1502931942.520789) vcan0 284#A396470170EF4643
(1502931942.531014) vcan0 284#C2C5C57AA5CBA876
(1502931942.541144) vcan0 284#04E8D00B26E7B23F
(1502931942.551487) vcan0 284#903A8E0402E11949
(1502931942.561686) vcan0 284#EEA23B55536D3E16
(1502931942.571802) vcan0 284#302680136F47DA1C
(1502931942.582059) vcan0 284#14646D6B0E9BB856
(1502931942.592232) vcan0 284#F82C252BCECDB231
(1502931942.602382) vcan0 284#70535F12A5DB1225
(1502931942.612707) vcan0 284#2EE99B568495B94B
(1502931942.622944) vcan0 284#1092A36B44EE0B14
(1502931942.633074) vcan0 284#FB1C7607C3AACE1E
(1502931942.643396) vcan0 284#1C86D9220418FF37
(1502931942.653669) vcan0 284#CC3D9E5828904A6B
(1502931942.663931) vcan0 284#439B0B17B7D66B2A
(1502931942.674230) vcan0 284#C6C2A743E6315318
(1502931942.684529) vcan0 284#27C6B26D88886D3E
(1502931942.694737) vcan0 284#8CFDFB0E2CAE8379
(1502931942.705070) vcan0 284#AE6F207E1C388A13
(1502931942.715417) vcan0 284#2E8F9D429C125C53
(1502931942.725652) vcan0 284#6FA5C8295EB51D56
(1502931942.736025) vcan0 284#0B5A367083093615
(1502931942.746343) vcan0 284#6C50D62C04875B1B
(1502931942.756603) vcan0 284#51D7E846DDA3353F
(1502931942.766977) vcan0 284#A9626E4080C0841D
(1502931942.777297) vcan0 284#6139EF0AB9F4112C
(1502931942.787511) vcan0 284#C4AE90315C566512
(1502931942.797868) vcan0 284#7D9FE04AE0346A54
(1502931942.808186) vcan0 284#606E644A49DD7E23
(1502931942.818442) vcan0 284#08C5B43FA4097061
(1502931942.828808) vcan0 284#00B4EA4DCE875C03
(1502931942.839123) vcan0 284#8A3BC379277A9D3B
(1502931942.849319) vcan0 284#5610CA411639BF08
(1502931942.859680) vcan0 284#532821350480EA3F
(1502931942.869993) vcan0 284#3271491C81B7BE77
(1502931942.880191) vcan0 284#A0924613A1161246
(1502931942.890534) vcan0 284#E06CDC4DACEC7C03
(1502931942.900833) vcan0 284#2420485B4CBDB27A
(1502931942.911136) vcan0 284#B073D81E76F73022
(1502931942.921534) vcan0 284#2961E83959D6465F
(1502931942.931881) vcan0 284#F6B7B53F8B9AD744
(1502931942.942307) vcan0 284#12CB580BBA664671
(1502931942.952574) vcan0 284#E7F03C578F6A3956
(1502931942.962774) vcan0 284#9A9BB045485FA121
(1502931942.972945) vcan0 284#D847B879A3606505
(1502931942.983129) vcan0 284#EC681103D8FBA247
(1502931942.993276) vcan0 284#71E8C10876A4D47C
(1502931943.003380) vcan0 284#00764003C8F88B4A
(1502931943.013621) vcan0 284#8DDD9305539E6138
(1502931943.023807) vcan0 284#CC78760ABF4EDD21
(1502931943.033919) vcan0 284#D55520306D0BBD1D
(1502931943.044112) vcan0 284#6165EF67B5C2FC7D
(1502931943.054311) vcan0 284#19F8392185853743
(1502931943.064465) vcan0 284#0180AF78C96B1240
(1502931943.074675) vcan0 284#FB7C68652BE19732
(1502931943.084823) vcan0 284#2242591FF1341E25
(1502931943.094936) vcan0 284#B67B6F77340DB22A
(1502931943.105140) vcan0 284#AB9B64169D6CAC4E
(1502931943.115342) vcan0 284#C477EB004637155C
(1502931943.125480) vcan0 284#E5CB4D709CBFA37A
(1502931943.135694) vcan0 284#E9977A61D1345F73
(1502931943.145882) vcan0 284#75BB46425A803C6A
(1502931943.156041) vcan0 284#48D9337075318745
(1502931943.166256) vcan0 284#2279C834D5B6C775
(1502931943.176401) vcan0 284#C8CFE87DEFF13E3F
(1502931943.186507) vcan0 284#9405A5179D25092E
(1502931943.196710) vcan0 284#5CFDFB5CF56A947F
(1502931943.206882) vcan0 284#52E8052C75F5357E
(1502931943.217060) vcan0 284#7BF0CB425468B524
(1502931943.227280) vcan0 284#3E61483E766D3428
(1502931943.237438) vcan0 284#7F494D5760A3A15D
(1502931943.247543) vcan0 284#68A2524D35C5BC4E
(1502931943.257724) vcan0 284#94B05308133EB763
(1502931943.267907) vcan0 284#D231691D58283F09
(1502931943.278024) vcan0 284#5975CC3FB8FDB60D
(1502931943.288228) vcan0 284#F5E7E203420D4721
(1502931943.298384) vcan0 284#893216016AA32946
(1502931943.308537) vcan0 284#9D8D830BD10B4A71
(1502931943.318771) vcan0 284#DFD4B00BBF064C40
(1502931943.328984) vcan0 284#A6C21167A7A49909
(1502931943.339098) vcan0 284#AEF88A7F3BC8B67E
(1502931943.349302) vcan0 284#45CAA2370AF6865C
(1502931943.359492) vcan0 284#30334B7E97B2A863
(1502931943.369641) vcan0 284#7FEBBC5AAB231741
(1502931943.379850) vcan0 284#EB1A5E08BD4C0519
(1502931943.390003) vcan0 284#22914B696A64AB5F
(1502931943.400108) vcan0 284#1DF0A6768A339E36
(1502931943.410317) vcan0 284#9F29682EB2A0FA7E
(1502931943.420514) vcan0 284#9D71551A725BD14B
(1502931943.430629) vcan0 284#0AC93908F7E6215A
(1502931943.440807) vcan0 284#2A598859FFB01C0C
(1502931943.450946) vcan0 284#39F4687BB38B9E5A
(1502931943.461108) vcan0 284#69544652D681EC06
(1502931943.471331) vcan0 284#8597E84B4829F75D
(1502931943.481492) vcan0 284#968838472B5AFA32
(1502931943.491601) vcan0 284#F0CD90674481C346
(1502931943.501797) vcan0 284#6622B1313598331F
(1502931943.511983) vcan0 284#4F774A239755FC2F
(1502931943.522133) vcan0 284#CC4ADC02CE62077E
(1502931943.532337) vcan0 284#42791371B8653A0B
(1502931943.542488) vcan0 284#8CAF0C17640A5F5A
(1502931943.552593) vcan0 284#22CAE56AA99FB30D
(1502931943.562805) vcan0 284#EE3DFD10C2F34D19
(1502931943.573040) vcan0 284#5B40AE0C8CAF522B
(1502931943.583159) vcan0 284#344F1F656609E814
(1502931943.593351) vcan0 284#839674055EA8A73E
(1502931943.603494) vcan0 284#65BA0421BC8ADD00
(1502931943.613663) vcan0 284#11344619CF0E4B73
(1502931943.623894) vcan0 284#930CCA0796CB2E65
(1502931943.634111) vcan0 284#173842512995024F
(1502931943.644228) vcan0 284#C22529180706D338
(1502931943.654417) vcan0 284#6D16C6152848DA49
(1502931943.664661) vcan0 284#3C9E0658BC8D1039
(1502931943.674873) vcan0 284#BF9DD67909E9E25A
(1502931943.685165) vcan0 284#8BF017370217EA6A
(1502931943.695457) vcan0 284#C14E1D6617A0244E
(1502931943.705636) vcan0 284#66214945E3180351
(1502931943.716003) vcan0 284#C03FD85B555F4656
(1502931943.726320) vcan0 284#A50C516A1C808668
(1502931943.736594) vcan0 284#E10E9901D95B704F
(1502931943.746926) vcan0 284#82896E7D64A50D07
(1502931943.757175) vcan0 284#3704180EE743731E
(1502931943.767327) vcan0 284#2030EB0749385E27
(1502931943.777529) vcan0 284#B652BE11B33CB50F
(1502931943.787686) vcan0 284#DF038D0CCE8A0063
(1502931943.797795) vcan0 284#DCD1B75EA129B624
(1502931943.807992) vcan0 284#D590D31B4AE87D74
(1502931943.818181) vcan0 284#CA71906E122FDA73
(1502931943.828334) vcan0 284#06768E2D890F6768
(1502931943.838550) vcan0 284#1B18BD4E9166A664
(1502931943.848717) vcan0 284#8B265153DC66DA34
(1502931943.858887) vcan0 284#A806CB32F2479A18
(1502931943.869085) vcan0 284#BF7FDD056946A30E
(1502931943.879237) vcan0 284#47A7E06E658C2E70
(1502931943.889348) vcan0 284#85C6297728B67970
(1502931943.899549) vcan0 284#3EE89E3F07509874
(1502931943.909699) vcan0 284#8C5B877776ECB64D
(1502931943.919873) vcan0 284#EE930B13AC8B727F
(1502931943.930090) vcan0 284#BF241575A5E6C924
(1502931943.940239) vcan0 284#60C8270F9E28A201
(1502931943.950343) vcan0 284#7371CA073C9ADF6D
(1502931943.960544) vcan0 284#4052582648029E23
(1502931943.970732) vcan0 284#86825D620AC4E814
(1502931943.980848) vcan0 284#5A3178178DF8EB0F
(1502931943.991032) vcan0 284#93D34F7D75493566
(1502931944.001182) vcan0 284#1E5F92741FFAA050
(1502931944.011298) vcan0 284#51B00F1BC7655D27
(1502931944.021609) vcan0 284#11423B691130ED20
(1502931944.031783) vcan0 284#30AC003658E91B58
(1502931944.041897) vcan0 284#76BC1B11B5722A2D
(1502931944.052097) vcan0 284#809F9548B4A4BA50
(1502931944.062295) vcan0 284#BCC2C2210CFB1C40
(1502931944.072443) vcan0 284#2A91711EAA56CE34
(1502931944.082655) vcan0 284#B8868F3FE9B58613
(1502931944.092814) vcan0 284#4F3D9859184FB74E
(1502931944.102957) vcan0 284#88DE2815C2AE6261
(1502931944.113145) vcan0 284#55E9963CC830813B
(1502931944.123355) vcan0 284#0BB10005DB6BF41E
(1502931944.133475) vcan0 284#D2F4695065E2781C
(1502931944.143672) vcan0 284#6864E02E65C8B94D
(1502931944.153869) vcan0 284#DB2BAE0287C37223
(1502931944.164033) vcan0 284#84C25A1E2CDCBD1D
(1502931944.174228) vcan0 284#4E29D04A95049607
(1502931944.184373) vcan0 284#3D0CAB3E7ED5D000
(1502931944.194481) vcan0 284#EDEDB15FB3C8C64F
(1502931944.204683) vcan0 284#3348FB2D6D8D4728
(1502931944.214868) vcan0 284#686D8120EF0ABE4F
(1502931944.225021) vcan0 284#7988646892FEF23E
(1502931944.235242) vcan0 284#99618C04320FF427
(1502931944.245395) vcan0 284#7CB47952E99E245E
(1502931944.255504) vcan0 284#4A5EAB760493A267
(1502931944.265730) vcan0 284#AB4D873F9F474233
(1502931944.275918) vcan0 284#CCC32323B6FE8744
(1502931944.286060) vcan0 284#7BB336529EB88D73
(1502931944.296250) vcan0 284#1CE10061E3171701
(1502931944.306408) vcan0 284#03814741F70CAF63
(1502931944.316589) vcan0 284#6ADB89248843A25F
(1502931944.326845) vcan0 284#23E96C01B8045A6F
(1502931944.337037) vcan0 284#1D48386761F51740
(1502931944.347148) vcan0 284#36DA2A700B36EA46
(1502931944.357325) vcan0 284#14BEDE0F6922261E
(1502931944.367515) vcan0 284#78C3316F7C2B6030
(1502931944.377667) vcan0 284#582DE46DF24B9657
(1502931944.387871) vcan0 284#0F2A536FF28E7072
(1502931944.398007) vcan0 284#245B8A7F8BDECC41
(1502931944.408110) vcan0 284#DB2D95506EB93576
(1502931944.418332) vcan0 284#8F716F29867B1C10
(1502931944.428517) vcan0 284#0E0178295B35934C
(1502931944.438628) vcan0 284#3D7AA45489B4AE7B
(1502931944.448817) vcan0 284#F9ED2040595BA535
(1502931944.458998) vcan0 284#6CCCC57CFC6E6801
(1502931944.469205) vcan0 284#50685419D7A74F21
(1502931944.479498) vcan0 284#84B20A617351C11A
(1502931944.489782) vcan0 284#8FACA910A2FA4248
(1502931944.499947) vcan0 284#D446D95AC686D400
(1502931944.510269) vcan0 284#AD302D0FE904B86A
(1502931944.520545) vcan0 284#2FA9FA1E25F45E7E
(1502931944.530789) vcan0 284#6530181B88D6DE0C
(1502931944.541073) vcan0 284#1740F555745A6B0A
(1502931944.551397) vcan0 284#7A654F7F3B9B7F55
(1502931944.561647) vcan0 284#FF38384C5593E44F
(1502931944.571983) vcan0 284#AA54B54B8EAAA775
(1502931944.582317) vcan0 284#DB0E0160B8552D75
(1502931944.592519) vcan0 284#E9DF3A421889A534
(1502931944.602931) vcan0 284#410ADC70E2CD5B02
(1502931944.613245) vcan0 284#71E44A6AADD6A16D
(1502931944.623522) vcan0 284#DF3CC403C14C9F03
(1502931944.633840) vcan0 284#847EF10E63EFCE64
(1502931944.644132) vcan0 284#359E601E142B9B1F
(1502931944.654311) vcan0 284#05EA112D09E53979
(1502931944.664628) vcan0 284#DAB16F20B21A3F3C
(1502931944.674889) vcan0 284#F2E9F163095B6A3F
(1502931944.685039) vcan0 284#D80E9E3A581A0A7F
(1502931944.695256) vcan0 284#9131494CEF4E9310
(1502931944.705422) vcan0 284#CC7475090B97984B
(1502931944.715530) vcan0 284#2BEA1266CCADAD55
(1502931944.725759) vcan0 284#602A7D1BD53EC831
(1502931944.735961) vcan0 284#5A58554B3C397E7B
(1502931944.746079) vcan0 284#8D94F5264438900D
(1502931944.756292) vcan0 284#54C22330CE9ED117
(1502931944.766493) vcan0 284#2606EC0FC6A66E1A
(1502931944.776649) vcan0 284#7B7573050543B013
(1502931944.786865) vcan0 284#87F30D1E00F46414
(1502931944.797031) vcan0 284#69327F78BC916E3C
(1502931944.807137) vcan0 284#141F00346E1C9125
(1502931944.817342) vcan0 284#C676A835EED06F54
(1502931944.827544) vcan0 284#2137D061B8609A19
(1502931944.837663) vcan0 284#F72BDA13F9456E1C
(1502931944.847871) vcan0 284#107BA418895D2360
(1502931944.858039) vcan0 284#E894012DDDEF1922
(1502931944.868203) vcan0 284#94F4BB2B137F1413
(1502931944.878418) vcan0 284#A99DC777F51E3947
(1502931944.888585) vcan0 284#E8BDDC4403F61C43
(1502931944.898699) vcan0 284#3158B7427552D26B
(1502931944.908906) vcan0 284#472EAD50851ADB72
(1502931944.919076) vcan0 284#43F1A3036E349960
(1502931944.929246) vcan0 284#4BC1490DBF661709
(1502931944.939474) vcan0 284#73774974D3B4572B
(1502931944.949639) vcan0 284#BF5A7C1DDCA9C86C
(1502931944.959757) vcan0 284#8F46C667D3797C51
(1502931944.969965) vcan0 284#4BC6591255BD6E1D
(1502931944.980167) vcan0 284#C14AEC256CFD2974
(1502931944.990289) vcan0 284#0E1E0937B876C639
(1502931945.000496) vcan0 284#654398101E99AD4F
(1502931945.010664) vcan0 284#41D4E9194DD8993D
(1502931945.020777) vcan0 284#FB88C771D6C8A545
(1502931945.030983) vcan0 284#6157AE50A4268F69
(1502931945.041146) vcan0 284#CBE7DE0C49158B15
(1502931945.051256) vcan0 284#A81CAC2CFC3F964F
(1502931945.061467) vcan0 284#BF675D01EF4A597D
(1502931945.071660) vcan0 284#815A714202590105
(1502931945.081816) vcan0 284#5D7FF25DCD1BBB4F
(1502931945.092037) vcan0 284#C1BF180ED1F63B52
(1502931945.102201) vcan0 284#A0D0127B801A952B
(1502931945.112310) vcan0 284#ADA0043F2F17D962
(1502931945.122513) vcan0 284#5394117DF8665E51
(1502931945.132718) vcan0 284#85D4470014DFFD22
(1502931945.142855) vcan0 284#6464884593F25037
(1502931945.153045) vcan0 284#CD55C45CC9A72056
(1502931945.163241) vcan0 284#B18BFE060E2AAE76
(1502931945.173362) vcan0 284#1780BA13AD14C678
(1502931945.183551) vcan0 284#E4F2533C78D76864
(1502931945.193719) vcan0 284#513B5562AFDA3249
(1502931945.203830) vcan0 284#C1ECF379F957010F
(1502931945.214022) vcan0 284#AB1AC9188054517B
(1502931945.224210) vcan0 284#E9A25A0C2D753A5B
(1502931945.234376) vcan0 284#83AD520046224D6A
(1502931945.244585) vcan0 284#FA90F52A446D6B0E
(1502931945.254754) vcan0 284#1719893C9A610826
(1502931945.264918) vcan0 284#C587003AC5B98D7B
(1502931945.275142) vcan0 284#C978E108181C1237
(1502931945.285348) vcan0 284#BD20EC4C4E4D2909
(1502931945.295466) vcan0 284#2DFB0F5A22857412
(1502931945.305668) vcan0 284#E13F7A40FA50D436
(1502931945.315826) vcan0 284#EB2C956893CB7847
(1502931945.326004) vcan0 284#087B822D02AD4F7C
(1502931945.336283) vcan0 284#40E03E40ED6DD669
(1502931945.346475) vcan0 284#7A84B860911B9422
(1502931945.356594) vcan0 284#9C4809333C71AC5A
(1502931945.366825) vcan0 284#8B7395314863D24B
(1502931945.377042) vcan0 284#BCC5FD557416F03D
(1502931945.387246) vcan0 284#75D80C273F735056
(1502931945.397513) vcan0 284#BA383D286F690252
(1502931945.407784) vcan0 284#84E0BB64D251C664
(1502931945.417964) vcan0 284#09CB0A784968BC1E
(1502931945.428273) vcan0 284#970B5460D243EC00
(1502931945.438589) vcan0 284#6184CE55542C402D
(1502931945.448804) vcan0 284#2191150A8E7FDE2F
(1502931945.459124) vcan0 284#76B1B43F02D18F4A
(1502931945.469951) vcan0 284#88D0B26662DE4928
(1502931945.480238) vcan0 284#959C0812914B3514
(1502931945.490514) vcan0 284#648B9924D57C4752
(1502931945.500755) vcan0 284#7EB90B7EDF0F5205
(1502931945.510934) vcan0 284#6798DB741A021531
(1502931945.521164) vcan0 284#1B81FE5FF20B7126
(1502931945.531369) vcan0 284#6265E77CD746FC35
(1502931945.541554) vcan0 284#66226164D73DF423
(1502931945.551786) vcan0 284#17BA4C0C205B9E0C
(1502931945.561919) vcan0 284#46A7F6759B9A0871
(1502931945.572102) vcan0 284#F2AC64714F72016E
(1502931945.582323) vcan0 284#E402C50F89B8B851
(1502931945.592480) vcan0 284#22B6ED6E45879365
(1502931945.602632) vcan0 284#DEE4F87E43470379
(1502931945.612914) vcan0 284#D40672155496AD3E
(1502931945.623047) vcan0 284#451893435CD7247C
(1502931945.633211) vcan0 284#B674F766DBB49B55
(1502931945.643405) vcan0 284#ED225A101B00910B
(1502931945.653562) vcan0 284#B031E3276BDC650E
(1502931945.663737) vcan0 284#FA0FE31017CABE1C
(1502931945.673942) vcan0 284#86DE7A3F1591E170
(1502931945.684132) vcan0 284#09D62F43E843623C
(1502931945.694287) vcan0 284#ECD7DD266FF89027
(1502931945.704471) vcan0 284#C081566003922A33
(1502931945.714636) vcan0 284#90532F3406294D56
(1502931945.724798) vcan0 284#9E2C332482009425
(1502931945.734991) vcan0 284#569B4E44822FF833
(1502931945.745143) vcan0 284#0CB94C7778513C33
(1502931945.755299) vcan0 284#C8B68B19EA9D4576
(1502931945.765515) vcan0 284#BB983F2C9CBDFD2E
(1502931945.775698) vcan0 284#3E34F33400B1D26F
(1502931945.785878) vcan0 284#F894222BF5A8EA1B
(1502931945.796105) vcan0 284#DB656E45E6B77C3B
(1502931945.806243) vcan0 284#10A97B278C97516D
(1502931945.816377) vcan0 284#5194E2490AB95E38
(1502931945.826582) vcan0 284#A361100AD7725D09
(1502931945.836772) vcan0 284#1F4A4029AD37404D
(1502931945.846930) vcan0 284#C0B6BF450B221E50
(1502931945.857146) vcan0 284#1C30D17480381626
(1502931945.867329) vcan0 284#0FB44803AC830029
(1502931945.877489) vcan0 284#8661637CADE07B27
(1502931945.887709) vcan0 284#2F84944EDCFCB140
(1502931945.897867) vcan0 284#3010745B3B3DE145
(1502931945.908021) vcan0 284#544EEE73F8C6FF74
(1502931945.918243) vcan0 284#25DB263C0FE72D20
(1502931945.928378) vcan0 284#9484FD23630F1A71
(1502931945.938553) vcan0 284#109800108C19204F
(1502931945.948809) vcan0 284#58B8040DEBFD6E55
(1502931945.958952) vcan0 284#72D19C0A68618034
(1502931945.969132) vcan0 284#7795C042C4657F54
(1502931945.979367) vcan0 284#721ADF6C1BF7D04C
(1502931945.989550) vcan0 284#9BD8DC5D91641F16
(1502931945.999707) vcan0 284#C82E111A5B8F9C23
(1502931946.009932) vcan0 284#9D863D66E45EE20E
(1502931946.020064) vcan0 284#DBC7B249AC3A8669
(1502931946.030193) vcan0 284#91E2E23762291646
(1502931946.040418) vcan0 284#591B0211C0667706
(1502931946.050577) vcan0 284#3E26C806892B766C
(1502931946.060730) vcan0 284#FBA3584C9374B67A
(1502931946.070948) vcan0 284#81F27561207F7F08
(1502931946.081122) vcan0 284#A25BE41A15777305
(1502931946.091296) vcan0 284#838E9979B2F3E42A
(1502931946.101545) vcan0 284#A2909354DC469E06
(1502931946.111679) vcan0 284#9EF153001462305F
(1502931946.121803) vcan0 284#44A81E3B15871443
(1502931946.132032) vcan0 284#D8C7AF33B7C2FD27
(1502931946.142236) vcan0 284#307EE50F74A08C11
(1502931946.152423) vcan0 284#48271D3EF8ACF629
(1502931946.162646) vcan0 284#CF2F2935E5AD5A24
(1502931946.172870) vcan0 284#DD0BD938ABF7DB7E
(1502931946.183044) vcan0 284#91E8E00D6EEEBB70
(1502931946.193258) vcan0 284#0D21F244EB03E31E
(1502931946.203445) vcan0 284#2E5533774B47BA4B
(1502931946.213600) vcan0 284#742F590B29F98B43
(1502931946.223835) vcan0 284#DEBB7046F621CF6C
(1502931946.234124) vcan0 284#49780B4C81175561
(1502931946.244378) vcan0 284#0B994272CC06A545
(1502931946.254655) vcan0 284#330B3A0CAD29D646
(1502931946.264949) vcan0 284#A84D434CD1FC8D0C
(1502931946.275223) vcan0 284#C28B0626EDF56107
(1502931946.285503) vcan0 284#E783A24F9A53B659
(1502931946.295800) vcan0 284#A4B85F2F1702885F
(1502931946.306015) vcan0 284#0EF4426BECDF7C6D
(1502931946.316281) vcan0 284#10AF7E09DE236C20
(1502931946.326569) vcan0 284#D28DD711EDBA5742
(1502931946.336818) vcan0 284#891B481F6376B81F
(1502931946.347108) vcan0 284#5BA91333963C3A64
(1502931946.357375) vcan0 284#4E7A9B3E89FE462A
(1502931946.367584) vcan0 284#E183F42FC3A9F449
(1502931946.377852) vcan0 284#B2F7D26DC03F6576
(1502931946.388134) vcan0 284#B9CBC336FB6FDE39
(1502931946.398348) vcan0 284#4157BA57C4640629
(1502931946.408609) vcan0 284#C776837F7462F463
(1502931946.418843) vcan0 284#728EDC6F70C4C64B
(1502931946.429021) vcan0 284#465F8270341AE315
(1502931946.439243) vcan0 284#5DBA28532DE32440
(1502931946.449449) vcan0 284#CE6D996F01738802
(1502931946.459616) vcan0 284#44E5AC1FDD61DC5A
(1502931946.470748) vcan0 284#ED52057054942B29
(1502931946.480934) vcan0 284#BB85487BBFE0DC01
(1502931946.491114) vcan0 284#414F836B44A1901A
(1502931946.501334) vcan0 284#235795219CF8961E
(1502931946.511464) vcan0 284#DADDCA7E71D13060
(1502931946.521634) vcan0 284#25F7DD48BB61BF2E
(1502931946.531851) vcan0 284#347B252AD7EEB036
(1502931946.542037) vcan0 284#7BA12425ED46E960
(1502931946.552228) vcan0 284#D25E8F70BCF8DE7C
(1502931946.562443) vcan0 284#B2ABEF099AD51270
(1502931946.572618) vcan0 284#315BD360243ACC79
(1502931946.582806) vcan0 284#0A9AD93B77BA5551
(1502931946.593065) vcan0 284#5854AF0F6754020F
(1502931946.603196) vcan0 284#A49D7A1126C2487F
(1502931946.613361) vcan0 284#68C78A11E8822731
(1502931946.623583) vcan0 284#0324255A551A9001
(1502931946.633719) vcan0 284#3D17535ABEA96D55
(1502931946.643899) vcan0 284#15FB6C037E66D645
(1502931946.654115) vcan0 284#024BFE6F38520225
(1502931946.664296) vcan0 284#1B5F6D64DC28C96E
(1502931946.674489) vcan0 284#A923330540564B2D
(1502931946.684670) vcan0 284#988A881DDE9E582F
(1502931946.694843) vcan0 284#1845FC63132CAD42
(1502931946.705028) vcan0 284#CBE54110EAA38B54
(1502931946.715236) vcan0 284#D0248C3F7D91311A
(1502931946.725365) vcan0 284#84799E4401805F20
(1502931946.736027) vcan0 284#A1CBFD138E137800
(1502931946.746234) vcan0 284#783AB571F91FAD23
(1502931946.756376) vcan0 284#F5677A0F1CD82F03
