(1502932531.590019) vcan0 284#10050604991DA05D
(1502932531.600298) vcan0 284#19BBAD43EABF081F
(1502932531.610531) vcan0 284#87F8DF6C7F5E225F
(1502932531.620693) vcan0 284#54DA8A55C1F33479
(1502932531.630998) vcan0 284#5058C253AAF6C045
(1502932531.641181) vcan0 284#4343711F9BB1420D
(1502932531.651295) vcan0 284#881C0637CC1FE23D
(1502932531.661619) vcan0 284#A678B23DAC25410B
(1502932531.671844) vcan0 284#36F70209CCBF9A59
(1502932531.681967) vcan0 284#C1E47F0E784EBC07
(1502932531.692283) vcan0 284#997CE33AFD829560
(1502932531.702484) vcan0 284#B2E508204F86AA70
(1502932531.712598) vcan0 284#7B296A15E5939716
(1502932531.722980) vcan0 284#96BDFA48329C6C21
(1502932531.733160) vcan0 284#22A3FD24869EAD36
(1502932531.743364) vcan0 284#2FBA1A3532A80329
(1502932531.753666) vcan0 284#1FBC4D144875C878
(1502932531.764079) vcan0 284#1D680C48A6B42D01
(1502932531.774321) vcan0 284#C7D3EA577142971D
(1502932531.784650) vcan0 284#67A8627A172CAD2B
(1502932531.794889) vcan0 284#1B395863AAEBD319
(1502932531.805013) vcan0 284#B2DDEF38A3555E1A
(1502932531.815334) vcan0 284#760BB6575956A276
(1502932531.825538) vcan0 284#4F7B9F25AD02B960
(1502932531.835657) vcan0 284#25163D5010601F34
(1502932531.845982) vcan0 284#25517568BE92200B
(1502932531.856183) vcan0 284#0DE3B414D7367E08
(1502932531.866343) vcan0 284#0D19CB7B880C1F2A
(1502932531.876671) vcan0 284#BCCA151FA3D6C544
(1502932531.886879) vcan0 284#BBA88B4BDE6D1344
(1502932531.897000) vcan0 284#2975737BEA62A600
(1502932531.907333) vcan0 284#1116176D4831C10F
(1502932531.917556) vcan0 284#32D86E792E7E2335
(1502932531.927679) vcan0 284#EEE5EE10F9AB5951
(1502932531.938003) vcan0 284#9FC0BA52558E510B
(1502932531.948197) vcan0 284#11D8067DBAF91236
(1502932531.958310) vcan0 284#FF792525C3B5F635
(1502932531.968601) vcan0 284#5D4F71507685DB7C
(1502932531.978833) vcan0 284#1C0C992CACCA1076
(1502932531.989022) vcan0 284#2388945D4122D67C
(1502932531.999359) vcan0 284#BC2A302A48D90946
(1502932532.009557) vcan0 284#FFB4F607CA0DE53E
(1502932532.019673) vcan0 284#1F10884E0DCEC103
(1502932532.030000) vcan0 284#521A0469DBDA9D6D
(1502932532.040197) vcan0 284#B0A487480DC38F34
(1502932532.050312) vcan0 284#B948B131DA19FB43
(1502932532.060619) vcan0 284#F7253635CA5EC81E
(1502932532.070822) vcan0 284#224BBC5329FEA42E
(1502932532.080976) vcan0 284#F8DCEB531131AB64
(1502932532.091315) vcan0 284#23AAFE7F979DA626
(1502932532.101631) vcan0 284#66BFFC6F3482057D
(1502932532.111875) vcan0 284#5197B95C66392215
(1502932532.122196) vcan0 284#F737FC32AEE62A2D
(1502932532.132491) vcan0 284#DCBEFD111444955F
(1502932532.142667) vcan0 284#5AB13B23FF46926F
(1502932532.153059) vcan0 284#55666B5C17DC6B4D
(1502932532.163357) vcan0 284#47209C35551B6264
(1502932532.173613) vcan0 284#E1E9500C66302404
(1502932532.183911) vcan0 284#62E9236833045575
(1502932532.194205) vcan0 284#410BC271128EAB30
(1502932532.204388) vcan0 284#41C7E429FA537323
(1502932532.214682) vcan0 284#ECA7A67438ED1A5F
(1502932532.224977) vcan0 284#C5B23B420FF36248
(1502932532.235155) vcan0 284#62EBBF0DBD8F2716
(1502932532.245422) vcan0 284#20240E2D8595BE0D
(1502932532.255719) vcan0 284#552DCE3C86E30A1D
(1502932532.265964) vcan0 284#B917C40AA6C48719
(1502932532.276314) vcan0 284#EC1C2D32B04FC03D
(1502932532.286640) vcan0 284#55ABB246C8DB2A44
(1502932532.296911) vcan0 284#C493551DAF5CEE69
(1502932532.307223) vcan0 284#C722BD331AFAC079
(1502932532.317524) vcan0 284#C6385A370E435969
(1502932532.327702) vcan0 284#6F15235EA722AB43
(1502932532.338002) vcan0 284#74737D6DD1FE4646
(1502932532.348305) vcan0 284#DB260039B57E3F5F
(1502932532.358480) vcan0 284#E38CF2761CEEE462
(1502932532.368754) vcan0 284#B0D2B202D034996B
(1502932532.379046) vcan0 284#54DBFF417585EE44
(1502932532.389315) vcan0 284#DF27FC33B6C6BF4F
(1502932532.399632) vcan0 284#3215165BFF4B0A61
(1502932532.409932) vcan0 284#3B5C7E5D8742E417
(1502932532.420112) vcan0 284#852F157EF4734268
(1502932532.430420) vcan0 284#2E076C31724C4230
(1502932532.440718) vcan0 284#A5C3022683B21E78
(1502932532.450897) vcan0 284#3A286D7469575843
(1502932532.461206) vcan0 284#320F0D62024B2A28
(1502932532.471483) vcan0 284#8351193DF9476719
(1502932532.481746) vcan0 284#108E8311F2663C1B
(1502932532.492083) vcan0 284#A06A125D8501017F
(1502932532.502385) vcan0 284#C36583617B911216
(1502932532.512566) vcan0 284#3A80405EA7F27558
(1502932532.522939) vcan0 284#977FF778EA52F360
(1502932532.533192) vcan0 284#77270F44EC5AF73A
(1502932532.543390) vcan0 284#5FD8E125564F0B78
(1502932532.553678) vcan0 284#A221B70A92EDF700
(1502932532.563983) vcan0 284#559B1559DE7D3568
(1502932532.574243) vcan0 284#1930DC18DACA2A57
(1502932532.584545) vcan0 284#D2F177504737484A
(1502932532.594858) vcan0 284#4C176D0777B57A76
(1502932532.605052) vcan0 284#CAE96642873FDA7B
