(1502934413.985168) vcan0 284#7312C31019AD7654
(1502934413.995437) vcan0 284#BE15831619B8CA26
(1502934414.005954) vcan0 284#DB27F90E07F28766
(1502934414.016243) vcan0 284#87CEA8509EAD117F
(1502934414.026536) vcan0 284#5A4E4936F94F8175
(1502934414.037057) vcan0 284#36A99C69C152E24D
(1502934414.047416) vcan0 284#8B1415259C1ACA70
(1502934414.057648) vcan0 284#6DC1BF1E8B814E4B
(1502934414.067871) vcan0 284#91C88A1F0F62F464
(1502934414.077988) vcan0 284#08055B095F512D58
(1502934414.088256) vcan0 284#CE0CBC5C4DD05564
(1502934414.098740) vcan0 284#28FBC655FB1C475B
(1502934414.109075) vcan0 284#4A20716CB4C40565
(1502934414.122721) vcan0 284#AD73AC72945CF402
(1502934414.133101) vcan0 284#5E8CBD078D51251A
(1502934414.143304) vcan0 284#A401F840D19E8018
(1502934414.153515) vcan0 284#A6FE9B6E62177B57
(1502934414.163707) vcan0 284#EA564B3F8226957D
(1502934414.173830) vcan0 284#6909033E7225F40F
(1502934414.184055) vcan0 284#20D4A67CC3574C74
(1502934414.194275) vcan0 284#6B757505567D4366
(1502934414.204400) vcan0 284#84AA2E42F7898A2A
(1502934414.214589) vcan0 284#F2970D57F16BEE60
(1502934414.224785) vcan0 284#820BD97583609876
(1502934414.234901) vcan0 284#00CEE2458A10347F
(1502934414.245089) vcan0 284#E3B1C54ECFDA9E22
(1502934414.255284) vcan0 284#D7E089630BAD8C24
(1502934414.265474) vcan0 284#CAF7E57D2201FB4F
(1502934414.275673) vcan0 284#BF719209776B9270
(1502934414.285885) vcan0 284#B65DEF521EFE4F11
(1502934414.296005) vcan0 284#04BDB70A5A5FE713
(1502934414.306195) vcan0 284#EF9CD029AABB5379
(1502934414.316388) vcan0 284#BC76626BDAF31B69
(1502934414.326503) vcan0 284#2CE2E87626806529
(1502934414.336690) vcan0 284#4C1910794DB68F73
(1502934414.346896) vcan0 284#E9D7B11DB78E857E
(1502934414.357075) vcan0 284#A333D3596E82E05F
(1502934414.367331) vcan0 284#AE18102996CBE030
(1502934414.377548) vcan0 284#5FEECE403024E91E
(1502934414.387675) vcan0 284#192C792760BCB106
(1502934414.397860) vcan0 284#BB341D1EFCDD3E76
(1502934414.408052) vcan0 284#2F9750299215A701
(1502934414.418218) vcan0 284#088BCB1AF98E3627
(1502934414.428417) vcan0 284#B416A251C7FC5D24
(1502934414.438629) vcan0 284#70FAC8176A749124
(1502934414.448751) vcan0 284#E5FAAD3574B78022
(1502934414.458976) vcan0 284#C4D37838D5977E5F
(1502934414.469170) vcan0 284#1E73D41B814ADB23
(1502934414.479292) vcan0 284#AF8B9A484B55BD12
(1502934414.489481) vcan0 284#A7CA404DFBA4AA41
(1502934414.499677) vcan0 284#980B4D0690A2F26A
(1502934414.509798) vcan0 284#B23330403B3F2060
(1502934414.520023) vcan0 284#FE24D34A614C4069
(1502934414.530227) vcan0 284#D10A01115E13A20B
(1502934414.540349) vcan0 284#91702908EB367A38
(1502934414.550544) vcan0 284#BECF53124CA54626
(1502934414.560740) vcan0 284#E714B92EED66A43B
(1502934414.570936) vcan0 284#DFBAED27EF9F8449
(1502934414.581134) vcan0 284#E6F5DA6293D18F79
(1502934414.591322) vcan0 284#B79CE26D56F0A37A
(1502934414.601449) vcan0 284#FE45211E9C979023
(1502934414.611640) vcan0 284#CAA7241DC2199A56
(1502934414.621829) vcan0 284#712F0F03E81AF938
(1502934414.631953) vcan0 284#4364757A20BBA94B
(1502934414.642141) vcan0 284#3370B64BEA2EB647
(1502934414.652361) vcan0 284#1B60540DCB7B0352
(1502934414.662539) vcan0 284#7BD1A832CE93844D
(1502934414.672740) vcan0 284#07BB233279F67B7D
(1502934414.682972) vcan0 284#2FE0C436D8C52443
(1502934414.693102) vcan0 284#D7091E09C050EE3E
(1502934414.703282) vcan0 284#C3FC9E7B95D9711B
(1502934414.713501) vcan0 284#0DF63465AB11582A
(1502934414.723665) vcan0 284#82401657ECB0220D
(1502934414.733862) vcan0 284#9AB1DC736836F139
(1502934414.744070) vcan0 284#7F82B206514EBF61
(1502934414.754242) vcan0 284#BE2695347DC8D324
(1502934414.764562) vcan0 284#EEE54F0588CEB951
(1502934414.774927) vcan0 284#40E26D7B5F155F08
(1502934414.785130) vcan0 284#71E9B20A8346E375
(1502934414.795471) vcan0 284#80D00854A4596956
(1502934414.805895) vcan0 284#6E75993D9B305D61
(1502934414.816157) vcan0 284#70D56C28E9464270
(1502934414.826527) vcan0 284#69C4E12E7790905A
(1502934414.836845) vcan0 284#623DBE6D98A4A665
(1502934414.847040) vcan0 284#4F56B51D3A47DC76
(1502934414.857347) vcan0 284#59F5942413535419
(1502934414.867711) vcan0 284#CF204E1266EBC909
(1502934414.877955) vcan0 284#BE64AC4352616469
(1502934414.888350) vcan0 284#529CEC1658168937
(1502934414.898687) vcan0 284#BA975523D11E9F1D
(1502934414.908874) vcan0 284#AA64481979BEEA57
(1502934414.919185) vcan0 284#4FE77242984A981E
(1502934414.929523) vcan0 284#018DA4298FC9E03D
(1502934414.939718) vcan0 284#F75FF72672765734
(1502934414.950054) vcan0 284#1210C4337730007B
(1502934414.960408) vcan0 284#17D0C00A80855D71
(1502934414.970616) vcan0 284#13615D5C87A52D33
(1502934414.980941) vcan0 284#69CC9F617C253F0B
(1502934414.991186) vcan0 284#FE35BE0DCC095E4F
(1502934415.001392) vcan0 284#15CAE5704D8C732B
