(1502935108.669204) vcan0 284#7DE87C63D00C6916
(1502935108.679576) vcan0 284#F2AC2F331DF4A145
(1502935108.689932) vcan0 284#73EFA57D02835E7D
(1502935108.700150) vcan0 284#B68EA8226FEA5C61
(1502935108.710375) vcan0 284#FE790C4E98105603
(1502935108.720504) vcan0 284#561816374CD20F5F
(1502935108.730648) vcan0 284#D4461D735CF54104
(1502935108.740848) vcan0 284#07923B510B6D6E76
(1502935108.750983) vcan0 284#1C745054CF298859
(1502935108.761085) vcan0 284#560BBD3ED9465820
(1502935108.771315) vcan0 284#E8136D2112867F0A
(1502935108.781501) vcan0 284#FADB11148EF97019
(1502935108.791621) vcan0 284#CA6E356D2E621515
(1502935108.801818) vcan0 284#3346F06183B5F90D
(1502935108.811954) vcan0 284#CEC88A141F34381C
(1502935108.822058) vcan0 284#BC9A7E044BB10778
(1502935108.832249) vcan0 284#EF40A132AF47AE37
(1502935108.842389) vcan0 284#68A5A93D62304730
(1502935108.852493) vcan0 284#B1CA0C351E345260
(1502935108.862697) vcan0 284#D11AA411AF441903
(1502935108.872939) vcan0 284#B644A8632733BA48
(1502935108.883112) vcan0 284#FB1629628B8BC556
(1502935108.893313) vcan0 284#8328FC4C03A96433
(1502935108.903445) vcan0 284#96F8334DA09C4C21
(1502935108.913546) vcan0 284#D2D2EC0CEC03F10B
(1502935108.923721) vcan0 284#79E3A441BBE6592E
(1502935108.933897) vcan0 284#FF89701673BFB655
(1502935108.944012) vcan0 284#49E0CA47C9F8A503
(1502935108.954211) vcan0 284#A221CC6A7C26BB29
(1502935108.964375) vcan0 284#4DAE9F1170EA567F
(1502935108.974557) vcan0 284#9B5AF34509491E16
(1502935108.984761) vcan0 284#BB9B5E778A9B9478
(1502935108.994905) vcan0 284#B890CC4D23410835
(1502935109.005007) vcan0 284#EDCBDB286A5BD902
(1502935109.015202) vcan0 284#41755A15BEE67F3A
(1502935109.025350) vcan0 284#19A0F205F8B90279
(1502935109.035491) vcan0 284#E6193A0315B71B68
(1502935109.045703) vcan0 284#8345C84F69423650
(1502935109.055838) vcan0 284#1860801B193EFC1C
(1502935109.065940) vcan0 284#09DF8271EA326D28
(1502935109.076206) vcan0 284#0642ED2882C22733
(1502935109.086355) vcan0 284#A519C75605CC5D3F
(1502935109.096461) vcan0 284#F681DE08EEF9911E
(1502935109.106674) vcan0 284#CEC4034398A3AA73
(1502935109.116803) vcan0 284#6A204D481B73A354
(1502935109.126905) vcan0 284#088E0173057B400E
(1502935109.137107) vcan0 284#25BCC16AC329606A
(1502935109.147258) vcan0 284#9016D506DD4C8E38
(1502935109.157364) vcan0 284#E66A681F7DE2B02F
(1502935109.167557) vcan0 284#47A8673B27E0C234
(1502935109.177741) vcan0 284#3BC9306A61485A41
(1502935109.187900) vcan0 284#1F9AC52D21E36A6D
(1502935109.198239) vcan0 284#76FF7529A2DF8D7D
(1502935109.208570) vcan0 284#8B25A13D8E5FF644
(1502935109.218739) vcan0 284#BC1D8A1A9404242F
(1502935109.229071) vcan0 284#7892636DC25F7743
(1502935109.239363) vcan0 284#17C74B621EAC2A44
(1502935109.249536) vcan0 284#C72BD5020D492A6B
(1502935109.259830) vcan0 284#0CA6BC6295F0D845
(1502935109.270096) vcan0 284#A5ECD45E77C6092B
(1502935109.280343) vcan0 284#B1637C1AAD7AD651
(1502935109.290668) vcan0 284#7C414A39D61F3E05
(1502935109.300956) vcan0 284#70A4363C0C581F40
(1502935109.311124) vcan0 284#B36CCC3D560F9F5B
(1502935109.321422) vcan0 284#893AD06FFB143479
(1502935109.331696) vcan0 284#7DEF6110C503015A
(1502935109.341856) vcan0 284#5C5D8E3A9D89273E
(1502935109.352190) vcan0 284#E6E66B47D25C0464
(1502935109.362474) vcan0 284#3F69B53B710C0D05
(1502935109.372646) vcan0 284#60BCFA28FB863F56
(1502935109.383031) vcan0 284#06113134D84E5E16
(1502935109.393346) vcan0 284#BDE6B6191DD87C16
(1502935109.403511) vcan0 284#F6FA885A84128C1C
(1502935109.413759) vcan0 284#2A21A70103A1453D
(1502935109.424007) vcan0 284#1A036562CF0D7C60
(1502935109.434218) vcan0 284#7A674F68CB66E17C
(1502935109.444486) vcan0 284#7C885232F6A89921
(1502935109.454734) vcan0 284#A1861F02EC2C896E
(1502935109.464885) vcan0 284#0301B96154F3EB3F
(1502935109.475191) vcan0 284#423C284A8C3B8951
(1502935109.485428) vcan0 284#4F082039BF2B8A5A
(1502935109.495585) vcan0 284#513F8A2BAB65AE73
(1502935109.505845) vcan0 284#5CB5B1183826F672
(1502935109.516095) vcan0 284#7DC2B2579C1E6754
(1502935109.526246) vcan0 284#A9320378DD7EAD00
(1502935109.536484) vcan0 284#97A5A62AAF43342C
(1502935109.546738) vcan0 284#B6CD0B17558C5D44
(1502935109.556889) vcan0 284#CC1BB142ACC89471
(1502935109.567145) vcan0 284#D99EE960F63C5844
(1502935109.577390) vcan0 284#AF69DA2EF3A14E43
(1502935109.587672) vcan0 284#C54AD42429D12917
(1502935109.597970) vcan0 284#BE08304041D32657
(1502935109.608259) vcan0 284#207AC3385F8F4F42
(1502935109.618417) vcan0 284#2D00B045237B7C1A
(1502935109.628679) vcan0 284#B4823B026F3CD80F
(1502935109.638943) vcan0 284#AFB6056C038B5B3B
(1502935109.649097) vcan0 284#2F68626A01F68F17
(1502935109.659376) vcan0 284#AFF0092F8B1D1403
(1502935109.669665) vcan0 284#391C860A2CB3BC06
(1502935109.680116) vcan0 284#273C7B57E24E8902
