(1502934415.951467) vcan0 284#E985F71A4D7D5D0C
(1502934415.961694) vcan0 284#5FE72C765A8F2C62
(1502934415.973355) vcan0 284#7AAEB33196A9E778
(1502934415.983546) vcan0 284#67283672D5D2DF2C
(1502934415.993722) vcan0 284#06139B45F0118F3B
(1502934416.003854) vcan0 284#45AAF15F5283C213
(1502934416.014007) vcan0 284#A2604C7F01B25923
(1502934416.024212) vcan0 284#45F1BF1E62CC7916
(1502934416.034414) vcan0 284#16D08F360C4E103A
(1502934416.044763) vcan0 284#9D169A0DA3688F4F
(1502934416.054995) vcan0 284#4215A90070970F48
(1502934416.065184) vcan0 284#350D2944DAD93F2A
(1502934416.075367) vcan0 284#4877CA1C68278729
(1502934416.085591) vcan0 284#8375A9394761DC4D
(1502934416.095733) vcan0 284#38C4247568100F12
(1502934416.105836) vcan0 284#4FB84F2A214A1C10
(1502934416.116033) vcan0 284#B58D6C1EAE9F7C20
(1502934416.126178) vcan0 284#7CD94872303C2050
(1502934416.136324) vcan0 284#44496419E3017F64
(1502934416.146520) vcan0 284#050F007D4A5CFF5E
(1502934416.156665) vcan0 284#D3130E204AB9F15C
(1502934416.166812) vcan0 284#9CDFC17275745A1F
(1502934416.177039) vcan0 284#4B6B4B00E1D08111
(1502934416.187230) vcan0 284#D840D435613BDB36
(1502934416.197344) vcan0 284#EE1E924B75576E43
(1502934416.207534) vcan0 284#04A46A0630343B4C
(1502934416.217670) vcan0 284#E5EE7D0B39B1934A
(1502934416.227772) vcan0 284#0A0E7B762E664828
(1502934416.237967) vcan0 284#A1D81A748D832430
(1502934416.248113) vcan0 284#75C72476D99C3F69
(1502934416.258219) vcan0 284#F5933342C57F7420
(1502934416.268411) vcan0 284#FBE65B79AB21A060
(1502934416.278604) vcan0 284#731FF14077C0A46B
(1502934416.288721) vcan0 284#DB5DC030B868555A
(1502934416.298936) vcan0 284#5AC22350E06CC02D
(1502934416.309120) vcan0 284#02C554392DD63170
(1502934416.319237) vcan0 284#2A26B20A9FA4162C
(1502934416.329431) vcan0 284#A34A8C0F7591FD0A
(1502934416.339612) vcan0 284#8075983D7B8B6045
(1502934416.349724) vcan0 284#D6CCD8416E942A09
(1502934416.359981) vcan0 284#F0E2CE08DB704348
(1502934416.370161) vcan0 284#9EC86555D5D14C14
(1502934416.380342) vcan0 284#1422D712A9D6E04B
(1502934416.390517) vcan0 284#0338953CB6FAF106
(1502934416.400713) vcan0 284#365A057C79FFB932
(1502934416.410827) vcan0 284#8F9731702CEE383E
(1502934416.421019) vcan0 284#3E7F2E538A7E8D69
(1502934416.431201) vcan0 284#D70FD91EB19E1F14
(1502934416.441340) vcan0 284#013F3255B26D994F
(1502934416.451545) vcan0 284#6907756E5B015625
(1502934416.461687) vcan0 284#92DA597D6CCCC927
(1502934416.471864) vcan0 284#89D78715BC000C08
(1502934416.482292) vcan0 284#0B71E0532C221425
(1502934416.492541) vcan0 284#319209138BE67811
(1502934416.502699) vcan0 284#A7AD746A075FE254
(1502934416.513054) vcan0 284#FA7AA31A97904373
(1502934416.523313) vcan0 284#E2CF251D98430970
(1502934416.533541) vcan0 284#6C629007F7F1FC2F
(1502934416.543835) vcan0 284#411AEA3B709A2544
(1502934416.554120) vcan0 284#ADECEE367874EF37
(1502934416.564337) vcan0 284#E999DF763C842027
(1502934416.574557) vcan0 284#A462287627190E4A
(1502934416.584838) vcan0 284#C702AE107B720115
(1502934416.595173) vcan0 284#D8B72D5EC841E065
(1502934416.605494) vcan0 284#2DE09A6442BFA24C
(1502934416.615784) vcan0 284#2443360BBFBAF461
(1502934416.625955) vcan0 284#AE8B6C74AD1ABE20
(1502934416.636234) vcan0 284#7BBB006AB9FC4C48
(1502934416.646525) vcan0 284#D93CD245AC4D0A7D
(1502934416.656697) vcan0 284#44E3C55980EA4630
(1502934416.667053) vcan0 284#B3ACEC513E5E6974
(1502934416.677328) vcan0 284#177B8A23967C126F
(1502934416.687482) vcan0 284#D7A1726483DD1A2B
(1502934416.697686) vcan0 284#8D6E0F1F18BC5C20
(1502934416.707823) vcan0 284#F377406F3A5BFE55
(1502934416.717922) vcan0 284#90304C58DC112066
(1502934416.728125) vcan0 284#76DF1E7D3493744E
(1502934416.738308) vcan0 284#032B2E303DE2CC0D
(1502934416.748422) vcan0 284#AF057663DCE25B0E
(1502934416.758614) vcan0 284#0624AD73DCE51048
(1502934416.768794) vcan0 284#1EA2FE5A2A67E37E
(1502934416.778993) vcan0 284#9BA0052ACC2D6B4F
(1502934416.789198) vcan0 284#D781A11F165C0614
(1502934416.799333) vcan0 284#852AB817B0BE7365
(1502934416.809433) vcan0 284#C2A91011C90D7E71
(1502934416.819616) vcan0 284#30A9BA157656FD62
(1502934416.829752) vcan0 284#086CE76547244539
(1502934416.839889) vcan0 284#0CD30F52DF0D5A4A
(1502934416.850110) vcan0 284#CA01606499411F71
(1502934416.860260) vcan0 284#F7C9B66ABE79A053
(1502934416.870413) vcan0 284#D39C1D4788FA0243
(1502934416.880644) vcan0 284#9A8BC039497C3C44
(1502934416.890852) vcan0 284#BC8D77119EB6EE69
(1502934416.900962) vcan0 284#875E09526C93ED74
(1502934416.911163) vcan0 284#7A994A788D82B645
(1502934416.921313) vcan0 284#4879FE3C983B4953
(1502934416.931421) vcan0 284#B7E99944E4190467
(1502934416.941615) vcan0 284#6469B4228E6B3B64
(1502934416.951762) vcan0 284#FA750A7BE9936C3A
(1502934416.961869) vcan0 284#3E2AAF49BD1F1B0C
