(1502932383.071223) vcan0 284#467ECA2E178D2E48
(1502932383.171398) vcan0 284#198F6C3C5E221842
(1502932383.271627) vcan0 284#FD256D7A265FBA2C
(1502932383.371891) vcan0 284#54CF1846AB3E9065
(1502932383.472169) vcan0 284#19B9925F77A2D266
(1502932383.572442) vcan0 284#7D6131327C76DE75
(1502932383.672719) vcan0 284#B8AF64116C0F1240
(1502932383.773010) vcan0 284#4E07B2309D718117
(1502932383.873289) vcan0 284#11F52D3CEAEBF323
(1502932383.973591) vcan0 284#EA7F5F38E50CCC4F
(1502932384.073868) vcan0 284#DB0BCE151EF22F2F
(1502932384.174152) vcan0 284#224243624C416214
(1502932384.274438) vcan0 284#FDCB944419AD5547
(1502932384.374708) vcan0 284#1251E46FBFFDC267
(1502932384.474967) vcan0 284#30B5F04F1E26012F
(1502932384.575225) vcan0 284#278D37507733BB7E
(1502932384.675505) vcan0 284#36B32F77401CA40C
(1502932384.775779) vcan0 284#D555D34033D99C71
(1502932384.876045) vcan0 284#677B5E392A25EC06
(1502932384.976328) vcan0 284#DE172D578034F118
(1502932385.076616) vcan0 284#A1C7BE6D5C795E09
(1502932385.176890) vcan0 284#FDAACF0E5977237F
(1502932385.277165) vcan0 284#C88870494BB2813F
(1502932385.377446) vcan0 284#F6E8A416D97D9E05
(1502932385.477728) vcan0 284#359E7563E168044F
(1502932385.578007) vcan0 284#BF8A6A5511AA4379
(1502932385.678277) vcan0 284#FF5A347EE1CCAD37
(1502932385.778552) vcan0 284#5DEBA50DFC26C942
(1502932385.878811) vcan0 284#FB79037F6F3C8A7D
(1502932385.979086) vcan0 284#BB248C2A2B2FF44E
(1502932386.079356) vcan0 284#8E628B2CE3B1C37A
(1502932386.179627) vcan0 284#A262AF4DC415BB23
(1502932386.279902) vcan0 284#23CE670778B8820E
(1502932386.380177) vcan0 284#F7EE57158A49C640
(1502932386.480446) vcan0 284#A2DD6E15D606856C
(1502932386.580720) vcan0 284#0B7EB75943A52D03
(1502932386.680995) vcan0 284#3280E37508298768
(1502932386.781268) vcan0 284#9C1C5102FA08543F
(1502932386.881531) vcan0 284#53DB08289205F618
(1502932386.981806) vcan0 284#D486F24489797E0B
(1502932387.082077) vcan0 284#736EFA6793115D1A
(1502932387.182354) vcan0 284#9A23C20472C92E66
(1502932387.282625) vcan0 284#74DE0A52F70E6812
(1502932387.382965) vcan0 284#6EF0F7286F580E51
(1502932387.483243) vcan0 284#674BF20F2A158453
(1502932387.583537) vcan0 284#9B870220F5AD7D3C
(1502932387.683807) vcan0 284#0DC7474E3DEAB16D
(1502932387.784088) vcan0 284#B9C338603095AF55
(1502932387.884341) vcan0 284#B5A2347CB0B29075
(1502932387.984629) vcan0 284#BBDE75165780A311
(1502932388.084913) vcan0 284#86B91562C65C2D70
(1502932388.185180) vcan0 284#9A25D114B839F957
(1502932388.285462) vcan0 284#CE85B45836422217
(1502932388.385729) vcan0 284#B3424D172161BD00
(1502932388.486005) vcan0 284#C947183087C93F5C
(1502932388.586280) vcan0 284#AADA3B0C3CB61218
(1502932388.686543) vcan0 284#1ADB9C7644FEFD10
(1502932388.786803) vcan0 284#AF7F417E8EB9A748
(1502932388.887077) vcan0 284#3C0D66231D703927
(1502932388.987351) vcan0 284#FE11B619A3585833
(1502932389.087622) vcan0 284#4785BD7A9999B839
(1502932389.187872) vcan0 284#9806D66F544C0549
(1502932389.288114) vcan0 284#D6836A2751CA0E50
(1502932389.388355) vcan0 284#85E1B41E8C269F23
(1502932389.488625) vcan0 284#017D9F4540C02A35
(1502932389.588895) vcan0 284#E3A642358836B527
(1502932389.689166) vcan0 284#061D58257ECC134A
(1502932389.789425) vcan0 284#4070AE7FD4A20C7E
(1502932389.889700) vcan0 284#B40E3661F3B2FB16
(1502932389.989972) vcan0 284#F503CA7E7D564E11
(1502932390.090240) vcan0 284#7A7C3B73A0DE050B
(1502932390.190506) vcan0 284#BA0C61299457D869
(1502932390.290779) vcan0 284#E4DC031C698CA227
(1502932390.391046) vcan0 284#2311803220EA693F
(1502932390.491312) vcan0 284#86FCDB4E2123364C
(1502932390.591577) vcan0 284#C342C272CE819949
(1502932390.691844) vcan0 284#BABCEE055B499862
(1502932390.792114) vcan0 284#22CE9E129040592D
(1502932390.892383) vcan0 284#AC13A732A7AF5331
(1502932390.992651) vcan0 284#1C67F850AE904678
(1502932391.092990) vcan0 284#E76F7E66000E3B06
(1502932391.193268) vcan0 284#36C7FB1FED8CD60B
(1502932391.293552) vcan0 284#7EDA4E507637AA1F
(1502932391.393813) vcan0 284#C12FE30932E98431
(1502932391.494082) vcan0 284#6AEAA536B733AD08
(1502932391.594354) vcan0 284#B03FD342E466E129
(1502932391.694614) vcan0 284#5712B3136A4C346C
(1502932391.794895) vcan0 284#79BEB9133BEFB62F
(1502932391.895162) vcan0 284#D3D8D6139CCF3946
(1502932391.995431) vcan0 284#5CD9206F59D5B262
(1502932392.095694) vcan0 284#BDF26F121F1CE361
(1502932392.195975) vcan0 284#27574C2C77AF5E18
(1502932392.296240) vcan0 284#7B657B444A25EB3E
(1502932392.396513) vcan0 284#07F0B74527792277
(1502932392.496777) vcan0 284#F1D43E702457B016
(1502932392.597048) vcan0 284#D509696FD944BD56
(1502932392.697319) vcan0 284#2465EB1C0BD1640F
(1502932392.797596) vcan0 284#C6D19362A23F3A6D
(1502932392.897868) vcan0 284#82080F2F8801776C
(1502932392.998140) vcan0 284#D428BF1EECF2B465
