(1502930354.177757) vcan0 284#2ACA6D440D8EB931
(1502930354.187888) vcan0 284#F38A151263BC653B
(1502930354.198086) vcan0 284#1CA0427169FC884B
(1502930354.208451) vcan0 284#BF83DC528F2FD67E
(1502930354.218647) vcan0 284#9A616E4FFD7C7777
(1502930354.228971) vcan0 284#47F97B7A3FBD5D5A
(1502930354.239184) vcan0 284#82024B0326B14268
(1502930354.249297) vcan0 284#82BAB32EF094324B
(1502930354.259600) vcan0 284#0382F4013E246F16
(1502930354.269832) vcan0 284#6DF314683A854C40
(1502930354.279977) vcan0 284#193C7926DD258427
(1502930354.290268) vcan0 284#14E1285AA16F0052
(1502930354.300488) vcan0 284#E7739B01FD7EB737
(1502930354.310608) vcan0 284#EA7DCB182C2AC57A
(1502930354.320898) vcan0 284#0BB34C1E2E6FAA1D
(1502930354.331126) vcan0 284#4419D873357DBA62
(1502930354.341279) vcan0 284#3CFD634F37A4ED05
(1502930354.351573) vcan0 284#9839201E589DA640
(1502930354.361796) vcan0 284#A0A0765157BDFC70
(1502930354.371966) vcan0 284#E7CC7C3F3A02E520
(1502930354.382276) vcan0 284#553A74682FC6F839
(1502930354.392505) vcan0 284#7ABF427BD73CBF6B
(1502930354.402625) vcan0 284#55773B22FC79F629
(1502930354.412993) vcan0 284#C7D1F13658F92F24
(1502930354.423231) vcan0 284#3A9E654034C5061F
(1502930354.433410) vcan0 284#927E7C6453DADE66
(1502930354.443653) vcan0 284#11EB8A46A65FA53E
(1502930354.453880) vcan0 284#F549DF38F85E2648
(1502930354.464000) vcan0 284#A4DE5C76DFC7AA51
(1502930354.474298) vcan0 284#2489EB42AF91A914
(1502930354.484526) vcan0 284#0D37556F68A2C336
(1502930354.494646) vcan0 284#E50E64774934B93E
(1502930354.504938) vcan0 284#9F46B13C7D488415
(1502930354.515146) vcan0 284#A2D15F7F3FE7270E
(1502930354.525338) vcan0 284#D5058106899EDC3E
(1502930354.535606) vcan0 284#7AE90C2F2A40F56E
(1502930354.545820) vcan0 284#B864D578F4A84F2A
(1502930354.555940) vcan0 284#017DB45A0DDC101B
(1502930354.566225) vcan0 284#F0224654C94EA611
(1502930354.576421) vcan0 284#65D5403F2AC1AB14
(1502930354.586540) vcan0 284#FD13AD30F853BD23
(1502930354.596821) vcan0 284#7D9B8A7B0FFF3777
(1502930354.607028) vcan0 284#9EB3626272E56934
(1502930354.617193) vcan0 284#075E5E3F4292BF58
(1502930354.627516) vcan0 284#51AD14062CE74902
(1502930354.637738) vcan0 284#F223696D5FE46975
(1502930354.647908) vcan0 284#94890D39D732CD64
(1502930354.658193) vcan0 284#A818233434D0BE75
(1502930354.668408) vcan0 284#547B517A4AEA8233
(1502930354.678579) vcan0 284#73B7E6032981D200
(1502930354.688862) vcan0 284#D4885F72EDA0F332
(1502930354.699074) vcan0 284#53C1C76F8CED346B
(1502930354.709199) vcan0 284#E149435D553E7C4A
(1502930354.719507) vcan0 284#9AC94506D16C8931
(1502930354.729723) vcan0 284#1E8D225CFF9E8645
(1502930354.739897) vcan0 284#FB2D35461BA1CF0C
(1502930354.750166) vcan0 284#F7F2436979C9BF41
(1502930354.760526) vcan0 284#2AA0070496A6A64B
(1502930354.770788) vcan0 284#EBAE297632FE6543
(1502930354.781066) vcan0 284#D83866243D5C3E7C
(1502930354.791544) vcan0 284#5EE5AF45CA5CCF11
(1502930354.801819) vcan0 284#9C40A871F26EBD7E
(1502930354.812087) vcan0 284#A18F9C764459CB25
(1502930354.822622) vcan0 284#263F7C74F60AEE70
(1502930354.833000) vcan0 284#8F434E599AF66278
(1502930354.843272) vcan0 284#1F8CC07163CCAD4B
(1502930354.853592) vcan0 284#8797562B734D8861
(1502930354.863844) vcan0 284#EFB9E23669E19908
(1502930354.874163) vcan0 284#C88B042C8983283D
(1502930354.884694) vcan0 284#3A4E233AE6182708
(1502930354.894983) vcan0 284#8922AF02367C5800
(1502930354.905230) vcan0 284#01BAF6148015F36B
(1502930354.915556) vcan0 284#AF4518422C5AFE18
(1502930354.925831) vcan0 284#16BC99379AF44138
(1502930354.936122) vcan0 284#5E58645CEFF4FF5B
(1502930354.946507) vcan0 284#D7508034BC3D1422
(1502930354.956729) vcan0 284#B951CF6D73912826
(1502930354.966982) vcan0 284#AEACD1205BE16B64
(1502930354.977198) vcan0 284#B8EAF34BD5EB4D15
(1502930354.987397) vcan0 284#51EC5955472E4225
(1502930354.997642) vcan0 284#6FE2B00D70781A47
(1502930355.007824) vcan0 284#AAFAEF70F6790739
(1502930355.017980) vcan0 284#E3C5A22899B4D227
(1502930355.028203) vcan0 284#5F5BA141AB51A754
(1502930355.038400) vcan0 284#2338FB649AA9C47B
(1502930355.048566) vcan0 284#916ACE5CAC5AAA67
(1502930355.058810) vcan0 284#D0251D7C9324C571
(1502930355.068991) vcan0 284#2C709D537F6B353E
(1502930355.079128) vcan0 284#BF7EC30A432C370B
(1502930355.089372) vcan0 284#196077761DD72767
(1502930355.099557) vcan0 284#32213767F1B0F72A
(1502930355.109672) vcan0 284#D9143C09EB720655
(1502930355.119930) vcan0 284#6442205187C10D2A
(1502930355.130134) vcan0 284#465472391C2D141D
(1502930355.140256) vcan0 284#5CAD5B3F9740CC0E
(1502930355.150551) vcan0 284#635B5642CB8F0C4D
(1502930355.160799) vcan0 284#08B9E6550D564633
(1502930355.170951) vcan0 284#C2091406EB7E897E
(1502930355.181207) vcan0 284#A70A195B2165B547
(1502930355.191390) vcan0 284#97D03053CA421440
(1502930355.201515) vcan0 284#BB0E7A43283BFF2F
(1502930355.211763) vcan0 284#769DBE278B34973F
(1502930355.221982) vcan0 284#BB5FC421A20D5C7B
(1502930355.232279) vcan0 284#0AA0CC7D7ADE872C
(1502930355.242550) vcan0 284#E539930624004474
(1502930355.252779) vcan0 284#97B5AF13175BCA6D
(1502930355.262958) vcan0 284#15B13B1F70CAEB1C
(1502930355.273152) vcan0 284#03CED04279F35B70
(1502930355.283463) vcan0 284#F88BF9464922437C
(1502930355.293652) vcan0 284#9620700D54395506
(1502930355.303894) vcan0 284#E1620F0BF97BC64F
(1502930355.314090) vcan0 284#20C96153E91BF660
(1502930355.324267) vcan0 284#07D20C03E2D27559
(1502930355.334487) vcan0 284#D49A7F5FAEDC255E
(1502930355.344676) vcan0 284#03382B216B6BB032
(1502930355.354853) vcan0 284#781F3A1EBF46A564
(1502930355.365070) vcan0 284#94A6AF62EEBCF845
(1502930355.375251) vcan0 284#4A7B3C244F067404
(1502930355.385396) vcan0 284#90CA5441551B0922
(1502930355.395643) vcan0 284#CAE4FB307604E847
(1502930355.405828) vcan0 284#791B4D16619AAB44
(1502930355.415935) vcan0 284#8D5FB2358ECC8835
(1502930355.426178) vcan0 284#D2649761902D8378
(1502930355.436373) vcan0 284#07C0E425CAF09028
(1502930355.446541) vcan0 284#DA4FC6749DE05433
(1502930355.456805) vcan0 284#1E2AE62EBBB2D57F
(1502930355.466986) vcan0 284#975C1B033EF34702
(1502930355.477091) vcan0 284#A4CECB609E2E2806
(1502930355.487340) vcan0 284#20C6BD5B78694B40
(1502930355.497520) vcan0 284#4C0B4E6424FEE87C
(1502930355.507629) vcan0 284#E4D4FB72C42A8802
(1502930355.517820) vcan0 284#E3448E61787BAB55
(1502930355.528016) vcan0 284#B2E780482DC0CA05
(1502930355.538214) vcan0 284#C7811F5A42B2D509
(1502930355.548467) vcan0 284#82DBD32791661B0B
(1502930355.558667) vcan0 284#B8B6BD51FBF6203E
(1502930355.568804) vcan0 284#F300C74F46167007
(1502930355.579027) vcan0 284#89C3A973C5655E31
(1502930355.589228) vcan0 284#D643F37F91838E19
(1502930355.599372) vcan0 284#8F56EF59B093B974
(1502930355.609566) vcan0 284#2E64E34CAD80D508
(1502930355.619743) vcan0 284#6B468F74C5C0FE4F
(1502930355.629912) vcan0 284#EC731D0B0F155B55
(1502930355.640192) vcan0 284#63EF26560C3ADB66
(1502930355.650441) vcan0 284#887EA615AFFA743A
(1502930355.660692) vcan0 284#3038C4636C53A208
(1502930355.670972) vcan0 284#7325FD3C137D5245
(1502930355.681234) vcan0 284#E4CE4D5E250D7E05
(1502930355.691471) vcan0 284#413D1D4BAB506D38
(1502930355.701695) vcan0 284#68BF530FC318F172
(1502930355.711921) vcan0 284#3DB7884320761161
(1502930355.722137) vcan0 284#BF0F123130B84F13
(1502930355.732416) vcan0 284#668C816848D3BB24
(1502930355.742692) vcan0 284#F51DAE443DD07468
(1502930355.752949) vcan0 284#D9564A3E84749D1E
(1502930355.763193) vcan0 284#ED632E5D08BB2D0B
(1502930355.773378) vcan0 284#31F5722759AABD51
(1502930355.783492) vcan0 284#CD7B2C5B1D699032
(1502930355.793732) vcan0 284#68BF1827316B5331
(1502930355.803904) vcan0 284#2AA36B19F03DBF3C
(1502930355.814011) vcan0 284#E065C86B5ADB2F7D
(1502930355.824226) vcan0 284#5C916145548BC528
(1502930355.834428) vcan0 284#6E5882424060AF23
(1502930355.844551) vcan0 284#7998432EAF959F0D
(1502930355.854832) vcan0 284#ECB01C5CE157973D
(1502930355.865050) vcan0 284#72AE90002968A51F
(1502930355.875196) vcan0 284#02CEA81E31BEA231
(1502930355.885481) vcan0 284#5920F532685A2A07
(1502930355.895681) vcan0 284#7A915E564E3EA377
(1502930355.905859) vcan0 284#A52A9F6F53E8A814
(1502930355.916094) vcan0 284#D2B24016938ECD4C
(1502930355.926295) vcan0 284#5BA3D61F03A8B33D
(1502930355.936477) vcan0 284#EC388B1E291F037B
(1502930355.946715) vcan0 284#2111447054F8A345
(1502930355.956932) vcan0 284#5A8A562C4BB4AF09
(1502930355.967050) vcan0 284#453663023AF01E18
(1502930355.977276) vcan0 284#A58FDF06A1C7C447
(1502930355.987461) vcan0 284#8E7BE44013E86149
(1502930355.997606) vcan0 284#E227746B0814286F
(1502930356.007854) vcan0 284#C27D0157CED89047
(1502930356.018028) vcan0 284#E96BBF2C352C9257
(1502930356.028185) vcan0 284#F7403667EB39684B
(1502930356.038467) vcan0 284#66EA340950612B1A
(1502930356.048684) vcan0 284#54949252E07B935F
(1502930356.058853) vcan0 284#9E9FCE11F9BE3142
(1502930356.069129) vcan0 284#34643C7470520F28
(1502930356.079314) vcan0 284#8C4DFF0E8F071314
(1502930356.089423) vcan0 284#73FAC26578868A2D
(1502930356.099662) vcan0 284#B826160F940B0756
(1502930356.109859) vcan0 284#CD7E2E7312B16C3B
(1502930356.119965) vcan0 284#DFBFB65F12B59175
(1502930356.130199) vcan0 284#4DA18B53854F9666
(1502930356.140418) vcan0 284#B37C563DDB1C7014
(1502930356.150535) vcan0 284#9837F82F95A4CA28
(1502930356.160766) vcan0 284#E33098035BB5F906
(1502930356.170972) vcan0 284#637D5B70CD9C5730
(1502930356.181122) vcan0 284#90E18B5E5ABE9157
(1502930356.191372) vcan0 284#B8D6BF7BF6CBC067
(1502930356.201566) vcan0 284#AA1FBD710C6B524E
(1502930356.211675) vcan0 284#D747544748BF8B03
(1502930356.221907) vcan0 284#062A84100BAC903B
(1502930356.232110) vcan0 284#B8119B2B9277831F
(1502930356.242333) vcan0 284#9AB3A34F2C0C5E11
(1502930356.252601) vcan0 284#0BFE0D4D53DAB95E
(1502930356.262815) vcan0 284#C0176567D87C3C40
(1502930356.273045) vcan0 284#658B261AA0D71B47
(1502930356.283229) vcan0 284#EA31CE35B22CB26D
(1502930356.293415) vcan0 284#2527B22D9DAE2473
(1502930356.303587) vcan0 284#8E492202BD5EAA5D
(1502930356.313802) vcan0 284#3353EF1B717ABA05
(1502930356.324006) vcan0 284#1814A46496D04A0C
(1502930356.334166) vcan0 284#3E171236A8F52F43
(1502930356.344433) vcan0 284#F18EDC63F7EDD131
(1502930356.354659) vcan0 284#9FC1F02A9BAE9955
(1502930356.364819) vcan0 284#0359240076094572
(1502930356.375024) vcan0 284#E46D25590983A810
(1502930356.385197) vcan0 284#81B5D52D9C7FC004
(1502930356.395308) vcan0 284#9CFA2B301B69797D
(1502930356.405502) vcan0 284#C88B1E16A7F8397D
(1502930356.415692) vcan0 284#6E43335C89A3837D
(1502930356.425796) vcan0 284#7F75763DD4CE5976
(1502930356.436020) vcan0 284#297B9F4469A74473
(1502930356.446202) vcan0 284#86FB0B644EA25172
(1502930356.456381) vcan0 284#0656696614452E66
(1502930356.466605) vcan0 284#0B01FC4F39A95802
(1502930356.476989) vcan0 284#86BFE86B2415A034
(1502930356.487263) vcan0 284#D079A30EC4D6FA21
(1502930356.497486) vcan0 284#CC0AD077C1088072
(1502930356.507881) vcan0 284#BBC4CC536BCCC022
(1502930356.518147) vcan0 284#5CB71948BF1DF153
(1502930356.528380) vcan0 284#E1D5051540253F21
(1502930356.538667) vcan0 284#C8A09964628BDB42
(1502930356.548919) vcan0 284#DDA4FF25649BC514
(1502930356.559207) vcan0 284#7EF45440A5301E3C
(1502930356.569613) vcan0 284#0B94FF11EC37881C
(1502930356.579914) vcan0 284#2ED4A1398A09764F
(1502930356.590137) vcan0 284#C006E212574F417E
(1502930356.600494) vcan0 284#F3B0BA424702EE76
(1502930356.610746) vcan0 284#A5F19270FA062429
(1502930356.620968) vcan0 284#5B471C5DB1F28E40
(1502930356.631318) vcan0 284#33B07C2BE1060549
(1502930356.641622) vcan0 284#D5072F75032A203A
(1502930356.651841) vcan0 284#A6DDFF6AA112FF6C
(1502930356.662186) vcan0 284#C432A02C61A2CC3E
(1502930356.672391) vcan0 284#0DDFBF0F21EAB974
(1502930356.682596) vcan0 284#20C0BD12EEB4C524
(1502930356.692790) vcan0 284#610FF915E9605777
(1502930356.702950) vcan0 284#5140A1673EB4F83B
(1502930356.713149) vcan0 284#4DFC1C0CCF34F627
(1502930356.723345) vcan0 284#E4E4167859901C1E
(1502930356.733520) vcan0 284#BB6C7E4412B9B831
(1502930356.743775) vcan0 284#E399926D7C736057
(1502930356.753976) vcan0 284#6A08FA2FD74A4D30
(1502930356.764180) vcan0 284#C3754E4E0FFA8C20
(1502930356.774413) vcan0 284#D15171591EBD6A2B
(1502930356.784608) vcan0 284#C0EC1B610402EE04
(1502930356.794773) vcan0 284#00C46F7495F44A56
(1502930356.804982) vcan0 284#082C0E3FA6A16F5F
(1502930356.815153) vcan0 284#37074A43CC5EAE6B
(1502930356.825300) vcan0 284#07443C1E44E60953
(1502930356.835521) vcan0 284#ED4868602804FA30
(1502930356.845718) vcan0 284#329BCF774F586176
(1502930356.855882) vcan0 284#1165512883DB705F
(1502930356.866140) vcan0 284#8D0C5A325E616E34
(1502930356.876326) vcan0 284#5210670771F1702A
(1502930356.886439) vcan0 284#B7F18A520E7DE54B
(1502930356.896668) vcan0 284#84AA295C9B8B1D40
(1502930356.906878) vcan0 284#8AF04523EEB2230C
(1502930356.916999) vcan0 284#72D66A704D669471
(1502930356.927256) vcan0 284#FDACB02C4328DC49
(1502930356.937464) vcan0 284#6B23FF1CBE99CC0D
(1502930356.947659) vcan0 284#472ACA4E6BE76E11
(1502930356.957882) vcan0 284#538E17644F56D80D
(1502930356.968103) vcan0 284#1189DE708A956127
(1502930356.978278) vcan0 284#1CB5867919CD1A0F
(1502930356.988489) vcan0 284#CE7B6B7A09FEEE59
(1502930356.998709) vcan0 284#41D1144001173B72
(1502930357.008880) vcan0 284#5856505052366668
(1502930357.019093) vcan0 284#84F2AB51E662AA02
(1502930357.029309) vcan0 284#B097D41CD7021359
(1502930357.039507) vcan0 284#57541B2D68895F6F
(1502930357.049717) vcan0 284#E57FF824DBFE4409
(1502930357.059940) vcan0 284#03157D2F6F703E48
(1502930357.070109) vcan0 284#C9B1681575EBE71F
(1502930357.080305) vcan0 284#BCD6D239C75E1942
(1502930357.090495) vcan0 284#B813C46927FAD156
(1502930357.100655) vcan0 284#85F8E54FFF3D8E38
(1502930357.110850) vcan0 284#93E14068D886FD33
(1502930357.121025) vcan0 284#4F946646A46A1F59
(1502930357.131190) vcan0 284#631C5F5B6B49ED3F
(1502930357.141398) vcan0 284#BD373A683198CA55
(1502930357.151589) vcan0 284#7447DC19FE084F28
(1502930357.161787) vcan0 284#32AF0548CD9D2C6A
(1502930357.171910) vcan0 284#503FB510B7A1B119
(1502930357.182112) vcan0 284#B300D76C01D7892D
(1502930357.192291) vcan0 284#8EA4C4720A55F219
(1502930357.202457) vcan0 284#6960E91C7324BD17
(1502930357.212669) vcan0 284#E65337236C75664C
(1502930357.222891) vcan0 284#E294FB5FAF05A038
(1502930357.233015) vcan0 284#E1604E6C9E6BCE19
(1502930357.243287) vcan0 284#7664B97A99741256
(1502930357.253519) vcan0 284#C565A070FB5C9F4A
(1502930357.263686) vcan0 284#98B2A00E5847E158
(1502930357.273891) vcan0 284#D4E39C7EE7460755
(1502930357.284032) vcan0 284#FDB100323700FC59
(1502930357.294142) vcan0 284#5290F414BAE93A1A
(1502930357.304335) vcan0 284#6898C62FC7D7D02E
(1502930357.314491) vcan0 284#B9F289429B47CC77
(1502930357.324600) vcan0 284#9475FD1809323F53
(1502930357.334799) vcan0 284#52E97D114776D405
(1502930357.345012) vcan0 284#0A09C900E08D4204
(1502930357.355134) vcan0 284#51CBC61F7369B21D
(1502930357.365364) vcan0 284#53B2FF1B371FFE42
(1502930357.375624) vcan0 284#DFDE186A3547FB7B
(1502930357.385794) vcan0 284#E7249E7BC03F6756
(1502930357.396098) vcan0 284#D3B2C9155D895776
(1502930357.406395) vcan0 284#59B4792C98186A06
(1502930357.416573) vcan0 284#59E6F640F2661A3B
(1502930357.426890) vcan0 284#F15F4B5F2DCA933F
(1502930357.437169) vcan0 284#D9AD2110EE114C11
(1502930357.447436) vcan0 284#64CA8F192C3E1625
(1502930357.457785) vcan0 284#A8FB862BCC625649
(1502930357.468071) vcan0 284#F315E75361EE106E
(1502930357.478254) vcan0 284#67AA2241878BE46C
(1502930357.488587) vcan0 284#6B205041B993A052
(1502930357.498888) vcan0 284#CE01B97275291942
(1502930357.509070) vcan0 284#9921E3561FCD7F12
(1502930357.519382) vcan0 284#E992CB5FECD3E272
(1502930357.529677) vcan0 284#57EC7D55C871E449
(1502930357.539920) vcan0 284#211BDE6E3E111C51
(1502930357.550310) vcan0 284#89B14B20F4CDA704
(1502930357.560610) vcan0 284#9B9A7347E265C54C
(1502930357.570853) vcan0 284#8DE6110BF4806A08
(1502930357.581179) vcan0 284#D4CCDF077E465D6A
(1502930357.591476) vcan0 284#214BFE47AE7A0118
(1502930357.601660) vcan0 284#6C58A97B85158E61
(1502930357.611977) vcan0 284#DAB8173D14543027
(1502930357.622273) vcan0 284#5278E42ACDCEFE10
(1502930357.632453) vcan0 284#76424115B922076C
(1502930357.642740) vcan0 284#545AE37DE1629156
(1502930357.653060) vcan0 284#73B6A73E225C9C70
(1502930357.663348) vcan0 284#568CAA180CD88A15
(1502930357.673638) vcan0 284#41291C033F1F7678
(1502930357.683846) vcan0 284#F9AB6D0898159A58
(1502930357.693969) vcan0 284#08915A421AC74B77
(1502930357.704154) vcan0 284#D626B6299142A662
(1502930357.714295) vcan0 284#0F95F37B72C12971
(1502930357.724423) vcan0 284#73A86B2F9C7B0507
(1502930357.734630) vcan0 284#6642947948754B37
(1502930357.744838) vcan0 284#1AC26271888D9241
(1502930357.754967) vcan0 284#F6EF4C4F861A0C6D
(1502930357.765175) vcan0 284#0DA32023D0A8640C
(1502930357.775333) vcan0 284#9A6E3C145F1B054E
(1502930357.785444) vcan0 284#9D77631D10B17D29
(1502930357.795651) vcan0 284#193E0C3AF1D1461B
(1502930357.805799) vcan0 284#F1130F008CF4B378
(1502930357.815905) vcan0 284#132EE30B48A0B918
(1502930357.826109) vcan0 284#98CC3E0E5457FF0E
(1502930357.836256) vcan0 284#87BF2F119178AC16
(1502930357.846449) vcan0 284#ED6C99678F508A53
(1502930357.856675) vcan0 284#AC3FF80DC3934F11
(1502930357.866870) vcan0 284#20933036BBD4EB09
(1502930357.876992) vcan0 284#35557902943B9C65
(1502930357.887198) vcan0 284#5750F1109C970D7C
(1502930357.897348) vcan0 284#DCB0E71C71125402
(1502930357.907457) vcan0 284#2425A03DD2A0346C
(1502930357.917657) vcan0 284#F72C606F31C8C060
(1502930357.927849) vcan0 284#A2499978919B9C03
(1502930357.937967) vcan0 284#91E3C52E3FC1FC15
(1502930357.948221) vcan0 284#A24C1A2DAA21D268
(1502930357.958441) vcan0 284#309343319360292D
(1502930357.968591) vcan0 284#3616866143C1263D
(1502930357.978804) vcan0 284#DB00E345CEE2C46F
(1502930357.988954) vcan0 284#9718264C63C01257
(1502930357.999059) vcan0 284#605B71068485BF33
(1502930358.009259) vcan0 284#F2109D2A0C9B6914
(1502930358.019408) vcan0 284#48190F4513A4CD60
(1502930358.029517) vcan0 284#C76F551E7D6E8847
(1502930358.039707) vcan0 284#A7DF69461EC0462F
(1502930358.049908) vcan0 284#1906964383905163
(1502930358.060029) vcan0 284#8FD29A313D2B3601
(1502930358.070246) vcan0 284#5531864F86FFFA20
(1502930358.080409) vcan0 284#6FF3F661F77A1F48
(1502930358.090518) vcan0 284#179B972400D7BC10
(1502930358.100719) vcan0 284#363C1C5EB9E7B151
(1502930358.110872) vcan0 284#AAF88E7966CF5F0F
(1502930358.120981) vcan0 284#4D48DB7EE00E155B
(1502930358.131188) vcan0 284#A990864C2849BE44
(1502930358.141377) vcan0 284#AEF1D94A40A9AC18
(1502930358.151555) vcan0 284#8B09D11B0E4D4B51
(1502930358.161769) vcan0 284#C52E6C4C7E1A6E46
(1502930358.171961) vcan0 284#1AE8B4650D487B11
(1502930358.182077) vcan0 284#91BE3B27E1570A04
(1502930358.192285) vcan0 284#8AB60359389EA56D
(1502930358.202436) vcan0 284#FF175133A4BC991C
(1502930358.212542) vcan0 284#BB2EF7508EEAEB64
(1502930358.222743) vcan0 284#E1E7CF1D10607D20
(1502930358.232905) vcan0 284#14EAE60550DBC67F
(1502930358.243069) vcan0 284#07DB9C682C857E2A
(1502930358.253313) vcan0 284#50B283103D17B946
(1502930358.263508) vcan0 284#E56C307CFAAA120A
(1502930358.273632) vcan0 284#A3E6185632B50B7B
(1502930358.283825) vcan0 284#DAB927654C779F22
(1502930358.293971) vcan0 284#5BFEC93F89AB0130
(1502930358.304084) vcan0 284#8C204C3BE6079B5B
(1502930358.314284) vcan0 284#97F84C01514FB807
(1502930358.324427) vcan0 284#64220922B2E00167
(1502930358.334534) vcan0 284#5E973319F5E04449
(1502930358.344727) vcan0 284#93380C6BE94D3772
(1502930358.354940) vcan0 284#2D7FEA3693505D1E
(1502930358.365113) vcan0 284#8D0AD10EE8ADE107
(1502930358.375328) vcan0 284#213B49036EF2A02C
(1502930358.385529) vcan0 284#F80D5F2836253009
(1502930358.395670) vcan0 284#BFCD672CFFE8FB10
(1502930358.405989) vcan0 284#62AAAE330F80EB3C
(1502930358.416277) vcan0 284#3C00B5574717DF2F
(1502930358.426455) vcan0 284#0A2BFE46DFE6CD2D
(1502930358.436764) vcan0 284#7ACCEA2AE4E4252C
(1502930358.447046) vcan0 284#2B5E6D50D5CAB46A
(1502930358.457251) vcan0 284#6D90275CB87EB90B
(1502930358.467567) vcan0 284#BBD24F460589745D
(1502930358.477875) vcan0 284#09CE711320F55868
(1502930358.488100) vcan0 284#B76976446865A52C
(1502930358.498414) vcan0 284#15D69D314AA2822F
(1502930358.508707) vcan0 284#51B3DC1E43558868
(1502930358.518879) vcan0 284#DDF2DF4DDEBDAD2D
(1502930358.529202) vcan0 284#2B036A70FF2D2951
(1502930358.539502) vcan0 284#4CB04E5A2411C918
(1502930358.549771) vcan0 284#3553595A0B7EB606
(1502930358.560113) vcan0 284#23FAC42997FD070E
(1502930358.570415) vcan0 284#1BFEA14360FA7901
(1502930358.580661) vcan0 284#DE14E73D2529A00A
(1502930358.591035) vcan0 284#3FE1472F58E1D168
(1502930358.601335) vcan0 284#090EC6366B3FB57F
(1502930358.611515) vcan0 284#2DAC8653779EED12
(1502930358.621877) vcan0 284#23BE6E0BE97ED619
(1502930358.632173) vcan0 284#7C2762702C8CE01E
(1502930358.642365) vcan0 284#09742F023391D834
(1502930358.652628) vcan0 284#94F1854B1E4ACD33
(1502930358.663038) vcan0 284#7D335B64E5A4626A
(1502930358.673352) vcan0 284#619F551C5B263B32
(1502930358.683683) vcan0 284#C36210188DA2BF0C
(1502930358.693955) vcan0 284#5A54640310135F72
(1502930358.704091) vcan0 284#B1B388258FA7BD5D
(1502930358.714281) vcan0 284#1B911579D4AD4D4F
(1502930358.724423) vcan0 284#26A5C56B368FB73C
(1502930358.734528) vcan0 284#34A8C75004BAAC29
(1502930358.744720) vcan0 284#5BB8574774890F00
(1502930358.754933) vcan0 284#5D9B7E1265C61D7E
(1502930358.765051) vcan0 284#DFC8C47F8A470566
(1502930358.775274) vcan0 284#DC640B110287330B
(1502930358.785436) vcan0 284#73C6DB7F588C6D01
(1502930358.795544) vcan0 284#2E13142A7C3A0B02
(1502930358.805749) vcan0 284#8B1D4636C3049A75
(1502930358.815894) vcan0 284#9B84D8350851A11A
(1502930358.825995) vcan0 284#A8A9FC5FFC232E52
(1502930358.836194) vcan0 284#6377DC4C6C0C0D78
(1502930358.846387) vcan0 284#89C6ED5EBDCB4050
(1502930358.856580) vcan0 284#7C1F6C6A3A7A7604
(1502930358.866792) vcan0 284#4C73FE2D97B08163
(1502930358.876963) vcan0 284#0F28C4537218C419
(1502930358.887075) vcan0 284#CE3F392043D08B24
(1502930358.897281) vcan0 284#77D2704329F89067
(1502930358.907427) vcan0 284#B7599B24D46DEF55
(1502930358.917533) vcan0 284#8EBEAE6596226024
(1502930358.927732) vcan0 284#5EB5F43B6A23BA76
(1502930358.937885) vcan0 284#98A9932FD27BD03B
(1502930358.948082) vcan0 284#C2AF2778C7BCA759
(1502930358.958313) vcan0 284#4EB6DB3D4DCD6D2E
(1502930358.968508) vcan0 284#8AC1414FE93AB473
(1502930358.978620) vcan0 284#561E0F49326B3E2F
(1502930358.988807) vcan0 284#E65EE245B995EB15
(1502930358.998964) vcan0 284#9E774B276F25D024
(1502930359.009070) vcan0 284#77612C661A97B711
(1502930359.019291) vcan0 284#AA9F4629C3D42A14
(1502930359.029472) vcan0 284#B2473975B9C70A7D
(1502930359.039584) vcan0 284#36EDEE2D80877215
(1502930359.049764) vcan0 284#FC979621ADBF5F71
(1502930359.059951) vcan0 284#A97F037DB4F13146
(1502930359.070112) vcan0 284#812D4F47383EB262
(1502930359.080332) vcan0 284#4A14926ADFE24303
(1502930359.090492) vcan0 284#A2616C59E3BD251A
(1502930359.100602) vcan0 284#B15E143F65119451
(1502930359.110802) vcan0 284#AA7ACD730015F07C
(1502930359.120952) vcan0 284#B2DE0100343C0F43
(1502930359.131056) vcan0 284#E94FA47008FD1049
(1502930359.141255) vcan0 284#66A74D72CFAE8636
(1502930359.151447) vcan0 284#C292FC5E051F9919
(1502930359.161561) vcan0 284#3FD4565B39F42845
(1502930359.171767) vcan0 284#1FB6502BE9739D04
(1502930359.181955) vcan0 284#FCC85359D1FD8920
(1502930359.192070) vcan0 284#A23BA80132B64207
(1502930359.202251) vcan0 284#5185FC359ED33E23
(1502930359.212398) vcan0 284#DF75A278FB040033
(1502930359.222502) vcan0 284#52C5706960A3F13F
(1502930359.232701) vcan0 284#3343B2159DD90254
(1502930359.242875) vcan0 284#40863543D5A41E6F
(1502930359.253075) vcan0 284#8097286EF1E44902
(1502930359.263283) vcan0 284#3AB6B2402A12F661
(1502930359.273479) vcan0 284#F1F9397FED94B440
(1502930359.283592) vcan0 284#5E4E0525DB49DE6F
(1502930359.293788) vcan0 284#F591C509C4F55217
(1502930359.303931) vcan0 284#AAF86426B724C268
(1502930359.314035) vcan0 284#C914EC30E9CCBB01
(1502930359.324226) vcan0 284#F018EB2DE9CA3C5C
(1502930359.334373) vcan0 284#D2405906EDE13E07
(1502930359.344477) vcan0 284#BAC8C67C747C0108
(1502930359.354826) vcan0 284#1F98810E0C4EC332
(1502930359.365011) vcan0 284#1350402BFF0D2407
(1502930359.375197) vcan0 284#0753C3656515B114
(1502930359.385394) vcan0 284#5FB115473A96757B
(1502930359.395529) vcan0 284#02EFB3689F374B0A
(1502930359.405640) vcan0 284#0F3B946A8286DC56
(1502930359.415890) vcan0 284#911C950C4AF1462B
(1502930359.426171) vcan0 284#AC98D2388216CF0B
(1502930359.436330) vcan0 284#3786FB6B0AE7D75D
(1502930359.446610) vcan0 284#5D60AD7B2C18C175
(1502930359.456893) vcan0 284#CFDC2A7508591222
(1502930359.467058) vcan0 284#E43C835E98F11626
(1502930359.478982) vcan0 284#F125CE23D4556E0C
(1502930359.489271) vcan0 284#81BC5302C466272A
(1502930359.499481) vcan0 284#C137AD133C851A7F
(1502930359.509690) vcan0 284#38E32832E1CF2E22
(1502930359.519883) vcan0 284#48D3DD314B33695D
(1502930359.530055) vcan0 284#E0DD52294F26A117
(1502930359.540237) vcan0 284#B1481A723F8F6870
(1502930359.550399) vcan0 284#89BC1613B337CE5A
(1502930359.560615) vcan0 284#DFC6B37A98F7AA7D
(1502930359.570808) vcan0 284#36BEAA3170E34807
(1502930359.580974) vcan0 284#E2E8F128E2567D6A
(1502930359.591152) vcan0 284#F2F91713196FED14
(1502930359.601336) vcan0 284#ED3D5548505AC50E
(1502930359.611449) vcan0 284#4687AE0ABC1A803D
(1502930359.625350) vcan0 284#58B3D7302AC43169
(1502930359.635549) vcan0 284#540C976349D9A554
(1502930359.645661) vcan0 284#FE19A075D6C8EA65
(1502930359.656497) vcan0 284#0D40CD7EC0514D09
(1502930359.666700) vcan0 284#124E05654623F630
(1502930359.676857) vcan0 284#A1217C2B5A21E316
(1502930359.687053) vcan0 284#91565F0E81FFCE54
(1502930359.697243) vcan0 284#A947842E429F7900
(1502930359.707356) vcan0 284#C08E374532049B41
(1502930359.717552) vcan0 284#F6D6475B9F55EB3F
(1502930359.727702) vcan0 284#CAFB453F2C95F20C
(1502930359.737807) vcan0 284#0F393447ADE43768
(1502930359.748025) vcan0 284#0EEC6F7702334C5A
(1502930359.758220) vcan0 284#C653257DFB29C53F
(1502930359.768331) vcan0 284#528D11690CDBD307
(1502930359.778542) vcan0 284#B744457DAA40E919
(1502930359.788746) vcan0 284#369F05710C51DC60
(1502930359.798858) vcan0 284#F3198F6E35B9A566
(1502930359.809043) vcan0 284#E219C746015A5C6D
(1502930359.819227) vcan0 284#F50AF36FF467CC2B
(1502930359.829335) vcan0 284#477D521E962C6F1B
(1502930359.839550) vcan0 284#4E89AF42D8D3B12C
(1502930359.850293) vcan0 284#172C3E70F7D03371
(1502930359.860474) vcan0 284#1B732B2DD7BA7535
(1502930359.872098) vcan0 284#29D5CE32114A7308
(1502930359.882288) vcan0 284#77106175F3D01472
(1502930359.892391) vcan0 284#3DDF65158649953C
(1502930359.902613) vcan0 284#A0B54C5A4BCBD50C
(1502930359.912933) vcan0 284#887CE11667097257
(1502930359.923048) vcan0 284#47F59A4CDA09F37F
(1502930359.933330) vcan0 284#73E4455FFE39E049
(1502930359.943773) vcan0 284#844ADC19AA834B50
(1502930359.953962) vcan0 284#0A8BBC2A78646B08
(1502930359.964281) vcan0 284#DF3CF136ECA48371
(1502930359.974485) vcan0 284#79BEC775D447E426
(1502930359.984602) vcan0 284#E00C501DC03B1A14
(1502930359.994907) vcan0 284#6A7453422E96FF5F
(1502930360.005215) vcan0 284#980FCC4081A09132
(1502930360.015325) vcan0 284#25673351B382F76D
(1502930360.025611) vcan0 284#585B07684E3C0204
(1502930360.035761) vcan0 284#C4CC6A76CF6B685D
(1502930360.045864) vcan0 284#420D177601ACD00B
(1502930360.056143) vcan0 284#56B5FD19E2C26350
(1502930360.066536) vcan0 284#4D77A618DE31DF30
(1502930360.076704) vcan0 284#49CCD527946C4165
(1502930360.086825) vcan0 284#B93BD230BDB01B07
(1502930360.097140) vcan0 284#92A6212F3D86AE4A
(1502930360.107338) vcan0 284#673467579D31DE59
(1502930360.117663) vcan0 284#B5EA19534671580E
(1502930360.127830) vcan0 284#89D6614B2EA9E148
(1502930360.137932) vcan0 284#1AB93C356AE3B168
(1502930360.148271) vcan0 284#EEE4FB5C842D9077
(1502930360.158655) vcan0 284#9879B14887F4C71D
(1502930360.168767) vcan0 284#05CE212ABEE0E419
(1502930360.179060) vcan0 284#3A77BF0B5D292912
(1502930360.189272) vcan0 284#0C1DE71DFF432A02
(1502930360.199386) vcan0 284#2D95916F4E2AFE13
(1502930360.209672) vcan0 284#00F0FA0D834A8F09
(1502930360.219889) vcan0 284#31ED61644D67A126
(1502930360.230026) vcan0 284#617C6E3A7AB9370C
(1502930360.240318) vcan0 284#E1D3E20B1AB8406B
(1502930360.250589) vcan0 284#376A5313747A043B
(1502930360.260848) vcan0 284#583EEF359E9EBA6A
(1502930360.271161) vcan0 284#11ACE2140D290909
(1502930360.281461) vcan0 284#E40F13799A824460
(1502930360.291641) vcan0 284#3CD2EA51FEC84F2E
(1502930360.303370) vcan0 284#0466F6482AB7E62E
(1502930360.313841) vcan0 284#82F6DF259DDFA711
(1502930360.324036) vcan0 284#B1ABAE4C87C40150
(1502930360.334272) vcan0 284#5BC08C2BEC226E58
(1502930360.344514) vcan0 284#E5ED2A6267DD7349
(1502930360.354751) vcan0 284#EB66985A1283BC51
(1502930360.365094) vcan0 284#B607725DEB569368
(1502930360.375379) vcan0 284#95CD4B5BE7F4D341
(1502930360.385567) vcan0 284#39BE340FF649BA15
(1502930360.395797) vcan0 284#61AE0B4E1A92171B
(1502930360.406047) vcan0 284#1102FB0099185F61
(1502930360.416226) vcan0 284#8E0C1C566940EA36
(1502930360.426450) vcan0 284#37B7194C9FB8FE6A
(1502930360.436684) vcan0 284#7669F33F1CC72C45
(1502930360.446852) vcan0 284#3A3B434BB23BDE11
(1502930360.457176) vcan0 284#1A907C733EA13914
(1502930360.467446) vcan0 284#DDF2C4409D865C19
(1502930360.477687) vcan0 284#DB80E1258E9E730D
(1502930360.487941) vcan0 284#244B5E6936416E51
(1502930360.498189) vcan0 284#7AC1E1650939894B
(1502930360.508377) vcan0 284#9E1EE21A65287A40
(1502930360.518590) vcan0 284#1BBC451D54265478
(1502930360.528964) vcan0 284#517F0D29B0899178
(1502930360.539295) vcan0 284#3B1B283A8A3D4238
(1502930360.549529) vcan0 284#A7D34B0E9CC93308
(1502930360.559718) vcan0 284#A4CF5953B8D5460F
(1502930360.569863) vcan0 284#35E2926933DC7529
(1502930360.580067) vcan0 284#211631466D99AC35
(1502930360.590224) vcan0 284#D2947414977F2406
(1502930360.600371) vcan0 284#8960D97A0CD0B75F
(1502930360.610587) vcan0 284#4ABB0218A3F0556E
(1502930360.620714) vcan0 284#4B71F17327AEC758
(1502930360.635538) vcan0 284#4077B20726F2D219
(1502930360.645744) vcan0 284#B54C3B6665C21071
(1502930360.655903) vcan0 284#5D33416B300E1D4C
(1502930360.666091) vcan0 284#6EFB993CFB512306
(1502930360.676301) vcan0 284#9536970C8AB7DF59
(1502930360.686458) vcan0 284#4F78777EE6B5A435
(1502930360.696678) vcan0 284#3A4171528A939F38
(1502930360.706835) vcan0 284#70F3E66DE114BD60
(1502930360.716941) vcan0 284#265DD34015C34041
(1502930360.727106) vcan0 284#99EA03705C3F662A
(1502930360.737279) vcan0 284#489FB66ABA003536
(1502930360.747386) vcan0 284#C9D812601A342B7F
(1502930360.758292) vcan0 284#5280593C5239EC5A
(1502930360.768515) vcan0 284#2704E35E9C3B5C54
(1502930360.778645) vcan0 284#F52942497275D452
(1502930360.788853) vcan0 284#C3E9232D36A1F450
(1502930360.799066) vcan0 284#9867A76C78365F13
(1502930360.809171) vcan0 284#9B630542F59AE857
(1502930360.819406) vcan0 284#A8447C5F095F9F7E
(1502930360.829604) vcan0 284#F0EC0B5E3E7B136C
(1502930360.839712) vcan0 284#93167F583F65835C
(1502930360.849903) vcan0 284#2431B821CE57F02A
(1502930360.860095) vcan0 284#C9F8221595249F0F
(1502930360.870201) vcan0 284#AF6CAD0BF055F655
(1502930360.880398) vcan0 284#AAE7DF504957B17B
(1502930360.890592) vcan0 284#4C955C00F286963B
(1502930360.900701) vcan0 284#0358E631156E6F60
(1502930360.910889) vcan0 284#0CBBC13A55D83F6E
(1502930360.921083) vcan0 284#67A75B3B33BFA419
(1502930360.931235) vcan0 284#F1139C425CD19D04
(1502930360.941441) vcan0 284#A534796CB4FDBF6F
(1502930360.951652) vcan0 284#927292553E9C2059
(1502930360.961816) vcan0 284#2D341F032DD69717
(1502930360.972058) vcan0 284#33370931D5789B62
(1502930360.982264) vcan0 284#373537162424150F
(1502930360.992372) vcan0 284#13F4AE4ECA4BB66E
(1502930361.002561) vcan0 284#6389986B38256770
(1502930361.012753) vcan0 284#98A3A6192D82BB00
(1502930361.022866) vcan0 284#CD49060048105425
(1502930361.033045) vcan0 284#1DD8B1567731E650
(1502930361.043229) vcan0 284#91670521696D0E57
(1502930361.053365) vcan0 284#69B87C0C94BFEB52
(1502930361.063588) vcan0 284#7EDB7D3775733E47
(1502930361.073776) vcan0 284#EA972B41E582D972
(1502930361.083923) vcan0 284#A932E360DBABC703
(1502930361.094097) vcan0 284#415477774E675C4D
(1502930361.104299) vcan0 284#90A98773D4C6094D
(1502930361.114417) vcan0 284#8C037D26BDDDA676
(1502930361.124582) vcan0 284#019DA164C03A8657
(1502930361.134773) vcan0 284#9256425938D2D87A
(1502930361.144880) vcan0 284#E45E9B66A64AF127
(1502930361.155055) vcan0 284#031E8F6947E83352
(1502930361.165233) vcan0 284#DE6F58189BC13503
(1502930361.175346) vcan0 284#746AEF52ABB95E18
(1502930361.185496) vcan0 284#E3D189289142A129
(1502930361.195670) vcan0 284#22EB446974398F49
(1502930361.205770) vcan0 284#FAAFAF008BA3C175
(1502930361.215951) vcan0 284#09F97A1C788B2D38
(1502930361.226139) vcan0 284#0017003DF390A65D
(1502930361.236303) vcan0 284#5D0E072BA949E31D
(1502930361.246700) vcan0 284#CE3C6E619F627E22
(1502930361.257035) vcan0 284#F8B03F6B5EE6F554
(1502930361.267293) vcan0 284#7329886F84B4BC11
(1502930361.277735) vcan0 284#1BC49C4B74C62954
(1502930361.288015) vcan0 284#44EF4269AE1ADF24
(1502930361.298184) vcan0 284#AD98024F284EDE4F
(1502930361.308548) vcan0 284#5465D04CB0B69138
(1502930361.318805) vcan0 284#7036122232D52865
(1502930361.328979) vcan0 284#4B78C73BE4A00175
(1502930361.339434) vcan0 284#DD8E877D2F4A5164
(1502930361.349731) vcan0 284#76E3A21EFF79CC66
(1502930361.359981) vcan0 284#A383E02D7093521F
(1502930361.370306) vcan0 284#8A1D8E5CAC7C5B4A
(1502930361.380597) vcan0 284#E91E80578A348E19
(1502930361.390797) vcan0 284#9F0D0228462D8702
(1502930361.401152) vcan0 284#347E71376E4A7009
(1502930361.411485) vcan0 284#E58F05252C2FB122
(1502930361.421658) vcan0 284#CC30665E58B98D14
(1502930361.434562) vcan0 284#B0E36D34E8F4022A
(1502930361.444771) vcan0 284#CD7FB768F5D2B01D
(1502930361.454924) vcan0 284#960FE24E7A18BA37
(1502930361.465115) vcan0 284#1D218F6DEA74B21B
(1502930361.475257) vcan0 284#2ACF4B708D57A10F
(1502930361.485407) vcan0 284#1C4ADB007547132C
(1502930361.495628) vcan0 284#72F8A204F9D8627E
(1502930361.505761) vcan0 284#A4916410E8DB4523
(1502930361.515886) vcan0 284#F8522F654815453E
(1502930361.526100) vcan0 284#586F98428270BD41
(1502930361.536223) vcan0 284#F491A008418E181A
(1502930361.546348) vcan0 284#0CA54B5B949FA230
(1502930361.556561) vcan0 284#88BB9F1C4023BD12
(1502930361.566738) vcan0 284#02EA123A6D4BA541
(1502930361.576877) vcan0 284#6C526E35CE1A7918
(1502930361.587186) vcan0 284#C60433561D36DC69
(1502930361.597333) vcan0 284#B60F7C429384EA3E
(1502930361.607455) vcan0 284#12098D074C1F5E11
(1502930361.617659) vcan0 284#0D9DA4762F2A1C75
(1502930361.627789) vcan0 284#3694102D376CF066
(1502930361.637920) vcan0 284#BD81BD0452DEEB2D
(1502930361.648141) vcan0 284#ACB303132F7A6009
(1502930361.658266) vcan0 284#4BB74E2C51456823
(1502930361.673202) vcan0 284#1756A62C430A7E11
(1502930361.683446) vcan0 284#995AAD616FC53E6F
(1502930361.693565) vcan0 284#C57A3B538DEC4D6A
(1502930361.703743) vcan0 284#B1535709D21F872E
(1502930361.713949) vcan0 284#218CF01A390FF725
(1502930361.724060) vcan0 284#1243444123760355
(1502930361.734247) vcan0 284#A65A9C677F95B276
(1502930361.744634) vcan0 284#F2907C6D6C5FCF3D
(1502930361.754760) vcan0 284#9CCB8E60A8A0F82F
(1502930361.765543) vcan0 284#FFE3B97CAED41B68
(1502930361.775869) vcan0 284#F5BF56410C815E73
(1502930361.786012) vcan0 284#DDFE375D2B54676E
(1502930361.796215) vcan0 284#43ED4E5A9A80F561
(1502930361.806422) vcan0 284#7E32531CF0A0526D
(1502930361.816556) vcan0 284#C9FA556BC9E9A148
(1502930361.826767) vcan0 284#41E6BA10E050FC17
(1502930361.836969) vcan0 284#0DF41F5ADA406872
(1502930361.847080) vcan0 284#50163B07D26E5B2D
(1502930361.857296) vcan0 284#672DB65C016A9210
(1502930361.867484) vcan0 284#A48EE25B89B9A677
(1502930361.877602) vcan0 284#3A798936B7D1261D
(1502930361.887807) vcan0 284#AC2FAA4CE0D3251E
(1502930361.898020) vcan0 284#3667D9139EC0263A
(1502930361.908133) vcan0 284#4D33F55BD2326874
(1502930361.918530) vcan0 284#47611F6A4C17AF58
(1502930361.928743) vcan0 284#8007845C3C21762B
(1502930361.938857) vcan0 284#59980D4C5D06BC39
(1502930361.949047) vcan0 284#6775DD199C855C26
(1502930361.959240) vcan0 284#F886B11BE5A73036
(1502930361.969414) vcan0 284#8C26AF13C1810707
(1502930361.979652) vcan0 284#AF91D27ECD0C6A24
(1502930361.989830) vcan0 284#A2D2031FBC85F258
(1502930361.999938) vcan0 284#A74DD216F2E83E26
(1502930362.010143) vcan0 284#8EF44D060F7B8873
(1502930362.020342) vcan0 284#F352D13633833062
(1502930362.030466) vcan0 284#98342F6B2DCC5A6D
(1502930362.040697) vcan0 284#EA54577F4464D937
(1502930362.050919) vcan0 284#0DA0800B20BC3013
(1502930362.061036) vcan0 284#E32400725AD37567
(1502930362.071655) vcan0 284#F2EE98072A861F5C
(1502930362.082133) vcan0 284#A7EA244072F61C64
(1502930362.092479) vcan0 284#66A795070083320C
(1502930362.103268) vcan0 284#CFFCD81DCD1C7321
(1502930362.113681) vcan0 284#9C088F32C7838A39
(1502930362.123947) vcan0 284#B3C4A357292F3E46
(1502930362.134293) vcan0 284#8905924062567656
(1502930362.144519) vcan0 284#F63BA86A2BD8955F
(1502930362.154710) vcan0 284#1EDC682F9E897A01
(1502930362.165089) vcan0 284#1DC1D405ACD0B635
(1502930362.175402) vcan0 284#AD0403751014A63C
(1502930362.185644) vcan0 284#DF53E71745393260
(1502930362.195961) vcan0 284#3DE0002AC9A83E17
(1502930362.206231) vcan0 284#899D0B184A808135
(1502930362.216415) vcan0 284#E9646F2A6CC20B0A
(1502930362.226736) vcan0 284#A553F71CDB530832
(1502930362.237005) vcan0 284#96482B664C3E1C5D
(1502930362.247164) vcan0 284#4D4A2516FCEFC06D
(1502930362.257506) vcan0 284#4CC14E691D47FE33
(1502930362.267706) vcan0 284#CA0C340FE8C9DD1B
(1502930362.277822) vcan0 284#E4CA886D7DD1D766
(1502930362.288013) vcan0 284#11F91B626DD01A2E
(1502930362.298154) vcan0 284#DF274E3D0835C44C
(1502930362.308256) vcan0 284#98A8B00DFD03B76C
(1502930362.318457) vcan0 284#A6BE3E4EB5698513
(1502930362.328612) vcan0 284#A9D46D2253C34143
(1502930362.338717) vcan0 284#C57D2B508928553A
(1502930362.348913) vcan0 284#98FC7323025E2C7A
(1502930362.359056) vcan0 284#52D19351219A7F3B
(1502930362.369228) vcan0 284#4DDEAD2F3C36037C
(1502930362.379459) vcan0 284#8E5C8B45F231A54C
(1502930362.389639) vcan0 284#178A0B2E24A5B62B
(1502930362.399751) vcan0 284#3E70C12965D43044
(1502930362.409946) vcan0 284#219577198A311013
(1502930362.420087) vcan0 284#821B2F78EBA1AB28
(1502930362.430191) vcan0 284#72FBED2E66E6B765
(1502930362.440413) vcan0 284#6873830F84F40911
(1502930362.450556) vcan0 284#D4B6D213479BD14C
(1502930362.460660) vcan0 284#8C29CE5D6C5F8321
(1502930362.470857) vcan0 284#449F883932E80C2C
(1502930362.481001) vcan0 284#22C90835ED73F65B
(1502930362.491144) vcan0 284#85AB4E6FE7463405
(1502930362.501354) vcan0 284#769C4B161DA8C212
(1502930362.511498) vcan0 284#EAA4607FC96DDF67
(1502930362.521603) vcan0 284#3E42424E37830E2F
(1502930362.531797) vcan0 284#05A4E263CC9ECD13
(1502930362.541938) vcan0 284#29B5B37B1C2EEE11
(1502930362.552038) vcan0 284#F143843F67257525
(1502930362.562238) vcan0 284#81021F5612D9FB58
(1502930362.572417) vcan0 284#F1568538031E4E4E
(1502930362.582566) vcan0 284#FD7AA70163527367
(1502930362.592780) vcan0 284#6A04063465EE2A11
(1502930362.602939) vcan0 284#E7467D783EBBD847
(1502930362.613048) vcan0 284#AC89FC5D73704B56
(1502930362.623238) vcan0 284#AA1A5C69F0288517
(1502930362.633386) vcan0 284#A5585802CCE3641E
(1502930362.643489) vcan0 284#DD9C7B732A04A771
(1502930362.653679) vcan0 284#B42A99235439C709
(1502930362.663842) vcan0 284#47AC69049ECFF922
(1502930362.674034) vcan0 284#1DA7A67186EEAB52
(1502930362.684229) vcan0 284#D5520852224B8955
(1502930362.694419) vcan0 284#528D7966FE07BC4D
(1502930362.704546) vcan0 284#3E79776743D1FD25
(1502930362.714741) vcan0 284#652D3173C07B963D
(1502930362.724881) vcan0 284#55AAF97E5684B62B
(1502930362.734982) vcan0 284#C399E40B5225A100
(1502930362.745179) vcan0 284#B9D629132D9EEA3F
(1502930362.755344) vcan0 284#B713CC11A11DA70B
(1502930362.765452) vcan0 284#6B59C307639DC86F
(1502930362.775661) vcan0 284#148EF26116741F71
(1502930362.785826) vcan0 284#53C64D07BAE64A64
(1502930362.795976) vcan0 284#E257840F3163C97A
(1502930362.806195) vcan0 284#E4EAF15596821D33
(1502930362.816342) vcan0 284#859C90042C975B5A
(1502930362.826447) vcan0 284#34521756A2433776
(1502930362.836646) vcan0 284#B285072D09A51F28
(1502930362.846787) vcan0 284#C48EC04B04138113
(1502930362.856890) vcan0 284#07ADDB7502083833
(1502930362.867095) vcan0 284#48E47E396CDA0C69
(1502930362.877269) vcan0 284#C283CE709D8E7838
(1502930362.887383) vcan0 284#C25EC314861DB37C
(1502930362.897585) vcan0 284#F0B319397C35ED27
(1502930362.907726) vcan0 284#B3BB9D3CA7C7E54A
(1502930362.917831) vcan0 284#1D5394331F156144
(1502930362.928016) vcan0 284#0B65AE3A31E18615
(1502930362.938166) vcan0 284#358980355E2BFC41
(1502930362.948270) vcan0 284#EBC7D17917E10445
(1502930362.958480) vcan0 284#8F8EC53CD0B2C34F
(1502930362.968849) vcan0 284#AE632278142B5641
(1502930362.979130) vcan0 284#FC491F2AE2B5394E
(1502930362.989473) vcan0 284#B66E8D37AECF2657
(1502930362.999757) vcan0 284#EC5A59767AFD4D03
(1502930363.010006) vcan0 284#B2E2A76AF307356C
(1502930363.020330) vcan0 284#7D058636FAC62624
(1502930363.030641) vcan0 284#60E241553F895427
(1502930363.040880) vcan0 284#98559F5C2241056A
(1502930363.051189) vcan0 284#C5A607248809B915
(1502930363.061510) vcan0 284#9E76F2117962A560
(1502930363.071711) vcan0 284#2FD19E60BBC98645
(1502930363.081927) vcan0 284#987706253A364D1B
(1502930363.092125) vcan0 284#EDAA0D5BCD00875A
(1502930363.102304) vcan0 284#9961495DD872DF54
(1502930363.112528) vcan0 284#E4E18B1F28F00E1A
(1502930363.122792) vcan0 284#A825A3249245AE17
(1502930363.133036) vcan0 284#3D1B655BA46FC24E
(1502930363.143243) vcan0 284#75FBE765F389F212
(1502930363.153440) vcan0 284#523FE9256156415C
(1502930363.163626) vcan0 284#6E87401605229110
(1502930363.173961) vcan0 284#545E7648EB8CC64C
(1502930363.184162) vcan0 284#FFE8B734B440B81D
(1502930363.194345) vcan0 284#2A161B74973E5711
(1502930363.204560) vcan0 284#D781BD07F0BC2218
(1502930363.214745) vcan0 284#1F48102775F8AF19
(1502930363.224900) vcan0 284#691FC8784F19AF07
(1502930363.235273) vcan0 284#31C2365F0197CE1D
(1502930363.245555) vcan0 284#894FFC221E6D443A
(1502930363.255675) vcan0 284#CE97557822B14500
(1502930363.265929) vcan0 284#F6DF230FB279E117
(1502930363.276111) vcan0 284#4BA1541A9F05C733
(1502930363.286235) vcan0 284#45BF8F2F88BCB975
(1502930363.296432) vcan0 284#43758902BABA7715
(1502930363.306621) vcan0 284#7B46AC0896B47228
(1502930363.316745) vcan0 284#1B11B971E9CDEC1E
(1502930363.326948) vcan0 284#9BD603396F6F2F3A
(1502930363.337142) vcan0 284#D45AB36B9ABFBB6D
(1502930363.347288) vcan0 284#24B0E757FF70CE5F
(1502930363.357499) vcan0 284#32FE127FFB31A55F
(1502930363.367694) vcan0 284#EF2DF17751462326
(1502930363.377886) vcan0 284#702A5579584DB970
(1502930363.388108) vcan0 284#A05FD22DA1EC8B58
(1502930363.398309) vcan0 284#59E4870E2AAFCE50
(1502930363.408429) vcan0 284#BF59D012277CDD06
(1502930363.418612) vcan0 284#4C601451B639F421
(1502930363.428758) vcan0 284#D9F5BE1E9701696B
(1502930363.438869) vcan0 284#553FBB551EB54E4E
(1502930363.449068) vcan0 284#1FBE226198B44458
(1502930363.459220) vcan0 284#D86FC6639B04CF69
(1502930363.469331) vcan0 284#2E69B700F3807F55
(1502930363.479673) vcan0 284#84D2BB08C93FBB39
(1502930363.489883) vcan0 284#63F0AE0F592D6F74
(1502930363.500063) vcan0 284#64FF762787A09667
(1502930363.510281) vcan0 284#589E3D5496FD8926
(1502930363.520491) vcan0 284#82D23B4747CC2E4C
(1502930363.530661) vcan0 284#E743AD4CF2FC9040
(1502930363.540870) vcan0 284#9F19E83C88A37F7A
(1502930363.551054) vcan0 284#94E91C19F8FD6F4B
(1502930363.561175) vcan0 284#B2524E4B5343ED2B
(1502930363.571463) vcan0 284#1F7A4D52FEB2621C
(1502930363.581676) vcan0 284#097DE14DF86F0C71
(1502930363.591805) vcan0 284#96B4CB075EBC9C23
(1502930363.602009) vcan0 284#17255B3FB572EE68
(1502930363.612173) vcan0 284#F770E17BEF942123
(1502930363.622283) vcan0 284#5077BD5225DA987C
(1502930363.632493) vcan0 284#E315A178D549795B
(1502930363.642656) vcan0 284#EF19543646065008
(1502930363.652767) vcan0 284#2E77E84F5319CB5D
(1502930363.662976) vcan0 284#CDA6E66F86152624
(1502930363.673174) vcan0 284#E91655044F792237
(1502930363.683366) vcan0 284#CDE15470D05A0251
(1502930363.693559) vcan0 284#4176B3776CFB3C2D
(1502930363.703748) vcan0 284#58FE814BD55FD010
(1502930363.713944) vcan0 284#64F9AC780A51D016
(1502930363.724252) vcan0 284#29A3BD3C8373FA4A
(1502930363.734485) vcan0 284#0904333332209F0A
(1502930363.744612) vcan0 284#7BE3063C9FB8FE3A
(1502930363.754815) vcan0 284#91DC3B2E9208627B
(1502930363.764958) vcan0 284#542BED23884D1D2A
(1502930363.775215) vcan0 284#829D831EA5A2AA76
(1502930363.785508) vcan0 284#AD27B62665B32417
(1502930363.795790) vcan0 284#7AEC23529C410A5D
(1502930363.805996) vcan0 284#ABB9741FA8630C22
(1502930363.816367) vcan0 284#EF5AD53A78605B0F
(1502930363.826659) vcan0 284#2E793246D8712A3F
(1502930363.836916) vcan0 284#C7D97D46FB5A8736
(1502930363.847249) vcan0 284#A9CC2C100850313E
(1502930363.857795) vcan0 284#6756C46301CBAE5B
(1502930363.868122) vcan0 284#DEAF014FCB4F715C
(1502930363.878462) vcan0 284#0C1C7F720753BF0B
(1502930363.888683) vcan0 284#4EC36B271520B225
(1502930363.898889) vcan0 284#39735E16C9A67263
(1502930363.909186) vcan0 284#B4D8B060CA4F9A44
(1502930363.919481) vcan0 284#5CAFD45E08049E04
(1502930363.929682) vcan0 284#529DB76EDE4C587D
(1502930363.939929) vcan0 284#ADA6487B00C56D15
(1502930363.950149) vcan0 284#43007D1427936C4D
(1502930363.960272) vcan0 284#9C067872EEB9F133
(1502930363.970543) vcan0 284#CFF6786F8C614D2D
(1502930363.980755) vcan0 284#661A4D43FD6FAB35
(1502930363.990885) vcan0 284#64D3776C2DF4CA09
(1502930364.001183) vcan0 284#F8CA326C0DA0A47C
(1502930364.011410) vcan0 284#3544FC475F21F74F
(1502930364.021529) vcan0 284#0F6B535813F4FD16
(1502930364.031773) vcan0 284#2A71682C1B87D24A
(1502930364.041976) vcan0 284#1A47BD227834D453
(1502930364.052094) vcan0 284#30A7847054BA1B39
(1502930364.062384) vcan0 284#42DB4637E47F3551
(1502930364.072723) vcan0 284#1E0AB67D9E8A1B16
(1502930364.082964) vcan0 284#EC83D35571A76D6C
(1502930364.093251) vcan0 284#7CD773139A2A1C51
(1502930364.103417) vcan0 284#716CDB01BFD7F027
(1502930364.113634) vcan0 284#C1BD881E0D735374
(1502930364.123904) vcan0 284#AD91E25B91B4010E
(1502930364.134129) vcan0 284#99D4A02113AC2F1F
(1502930364.144347) vcan0 284#8E24AD43FEA7180E
(1502930364.154646) vcan0 284#40A0FA2887EFDF2F
(1502930364.164858) vcan0 284#0B48BD0A75E4F670
(1502930364.175058) vcan0 284#E610D77F1AB31063
(1502930364.185270) vcan0 284#89D8F40711823F2C
(1502930364.195485) vcan0 284#353AE32DA31FB22A
(1502930364.205674) vcan0 284#89B6130065E1671E
(1502930364.215964) vcan0 284#F7D9CD63CB915A37
(1502930364.226156) vcan0 284#49619D6F16E48361
(1502930364.236319) vcan0 284#691C764D36E57045
(1502930364.246605) vcan0 284#878BF14DE5F3E960
(1502930364.256815) vcan0 284#D00F8D16F8F7CC4F
(1502930364.266986) vcan0 284#A4CBDA0891CD1535
(1502930364.277227) vcan0 284#056B2044515DBD64
(1502930364.287457) vcan0 284#228217439F3FC165
(1502930364.297613) vcan0 284#6409ED03B1A6C406
(1502930364.307906) vcan0 284#9DE7D973A4A9E72C
(1502930364.318103) vcan0 284#3896A436A82F977E
(1502930364.328222) vcan0 284#1A8EDE1D1EA77B36
(1502930364.338484) vcan0 284#C3E2A761A366D325
(1502930364.348689) vcan0 284#2F29BB62F81C8B0F
(1502930364.358808) vcan0 284#46868550B9DFCE62
(1502930364.369048) vcan0 284#5EFEF22D3E605334
(1502930364.379241) vcan0 284#8471291AA75F901D
(1502930364.389354) vcan0 284#5444D715EE8D9F67
(1502930364.399588) vcan0 284#DD440163DBCFC863
