(1502934419.784423) vcan0 284#DA3552655F0CE526
(1502934419.794760) vcan0 284#13446D5D91113177
(1502934419.805151) vcan0 284#9C47B82CCC163312
(1502934419.815367) vcan0 284#24AF15048748657D
(1502934419.825614) vcan0 284#B94D822DEBD2A02F
(1502934419.835809) vcan0 284#84502971CEEBEB24
(1502934419.845929) vcan0 284#84589740B1E0661A
(1502934419.856177) vcan0 284#B5D423061EFA855C
(1502934419.866369) vcan0 284#A1F1AA71E3CC1858
(1502934419.876494) vcan0 284#7B72F3634A8F9471
(1502934419.886730) vcan0 284#AF083D2BBC0EE736
(1502934419.896940) vcan0 284#37E1D67D82404917
(1502934419.907065) vcan0 284#1549380E3DE0B104
(1502934419.917298) vcan0 284#B22C9974C7951B67
(1502934419.927527) vcan0 284#EC6851444D345571
(1502934419.937659) vcan0 284#56F6305CC79EA329
(1502934419.947895) vcan0 284#AC403A18693A9E39
(1502934419.958096) vcan0 284#58B0D4204888F244
(1502934419.968271) vcan0 284#3551D14B7C5FEA24
(1502934419.978519) vcan0 284#CFD05742EE9E5379
(1502934419.988734) vcan0 284#68328B5454218133
(1502934419.998935) vcan0 284#BC8A3F1EEC8A2215
(1502934420.009185) vcan0 284#0502E84D715F6324
(1502934420.019405) vcan0 284#0A85A871A6F3923F
(1502934420.029530) vcan0 284#542C7C7C86F79B55
(1502934420.039772) vcan0 284#F18227310335B927
(1502934420.049991) vcan0 284#4206830C2864FE2E
(1502934420.060170) vcan0 284#8675023F574FBB1A
(1502934420.070434) vcan0 284#6544B03338A29B33
(1502934420.080665) vcan0 284#1EE5D60152AD0178
(1502934420.090858) vcan0 284#85D6F02474DB075E
(1502934420.101115) vcan0 284#194CA52132172B3D
(1502934420.111336) vcan0 284#DD15A61771FC7942
(1502934420.121470) vcan0 284#7A9F1D0212677763
(1502934420.131705) vcan0 284#ED5B64674A707544
(1502934420.141927) vcan0 284#0106CB5C558EEF3B
(1502934420.152061) vcan0 284#9E91F677BD900A7B
(1502934420.162286) vcan0 284#41191251A393DE45
(1502934420.172507) vcan0 284#2FF06D1F4C9EBA42
(1502934420.182639) vcan0 284#4A877105831CEA1B
(1502934420.192938) vcan0 284#D29556183B0A9936
(1502934420.203158) vcan0 284#8751A343149CD924
(1502934420.213282) vcan0 284#636E97650DC7A502
(1502934420.223501) vcan0 284#6BEB943FC9B24719
(1502934420.233738) vcan0 284#4569413689D06B41
(1502934420.243923) vcan0 284#1B604911CB3F325B
(1502934420.254252) vcan0 284#FDAB731F34ACEE32
(1502934420.264663) vcan0 284#FD565D18DAC11937
(1502934420.274928) vcan0 284#A5A8687577F67A1A
(1502934420.285231) vcan0 284#EC28911A9204CD5C
(1502934420.295592) vcan0 284#C166F05EED2E5C77
(1502934420.305909) vcan0 284#E892BC185FF8E656
(1502934420.316209) vcan0 284#ABBF667229ACCE69
(1502934420.326539) vcan0 284#038CC51CDAAFD411
(1502934420.336836) vcan0 284#754A892C4D133722
(1502934420.347193) vcan0 284#5DCCBE2D47E0DF44
(1502934420.357598) vcan0 284#881DD058E41D6271
(1502934420.367898) vcan0 284#5B7CB969EB8B673E
(1502934420.378273) vcan0 284#F1E40774C6674E29
(1502934420.388713) vcan0 284#B43EAF57374E492A
(1502934420.399022) vcan0 284#4F38BA6ACF9EF868
(1502934420.409405) vcan0 284#028E7B054CE42D0A
(1502934420.419880) vcan0 284#034BE71BFFE4D81D
(1502934420.430159) vcan0 284#26A64741A8F34F11
(1502934420.440521) vcan0 284#76DB533813CFD85B
(1502934420.451005) vcan0 284#3BF81C6E38424417
(1502934420.461231) vcan0 284#00FE3453238BD906
(1502934420.471588) vcan0 284#973A2B6EABBD9B45
(1502934420.482043) vcan0 284#4C37A8709AC6F00A
(1502934420.492242) vcan0 284#856D7057C281311D
(1502934420.502551) vcan0 284#E7D9272DE3392F05
(1502934420.512942) vcan0 284#096211626FF7F705
(1502934420.523132) vcan0 284#C757917665DECA4B
(1502934420.533411) vcan0 284#5B835F44B93C996A
(1502934420.543646) vcan0 284#2B4619750FC20E1C
(1502934420.553780) vcan0 284#F08AE2147B7ED35F
(1502934420.564183) vcan0 284#DF600705F2185E1A
(1502934420.574418) vcan0 284#C762016AE2ABEE20
(1502934420.584540) vcan0 284#F1FD3638EE08492B
(1502934420.594907) vcan0 284#8B9F3E3267D98A70
(1502934420.605157) vcan0 284#01D82107C6975B20
(1502934420.615282) vcan0 284#9F1BCF0701D6565A
(1502934420.625702) vcan0 284#E92235273756FA75
(1502934420.635960) vcan0 284#AD93F21F355ADD17
(1502934420.646094) vcan0 284#D11CEB0032016377
(1502934420.656389) vcan0 284#F7DB0E35B9F6122E
(1502934420.666601) vcan0 284#153B927C013E2017
(1502934420.676720) vcan0 284#28EE0A34DD922373
(1502934420.687053) vcan0 284#661CEB6283716A78
(1502934420.697288) vcan0 284#96CFBC5D91620458
(1502934420.707460) vcan0 284#93337914865A9F72
(1502934420.717824) vcan0 284#0CE1D73772948019
(1502934420.728030) vcan0 284#7873FD0CD443D921
(1502934420.738148) vcan0 284#54406F3A69713445
(1502934420.748478) vcan0 284#C24C224DDFDFAD6C
(1502934420.758681) vcan0 284#D04ABF35C3244454
(1502934420.768857) vcan0 284#A577090D70668E3D
(1502934420.779197) vcan0 284#C4FA9A2E8E9A3E34
(1502934420.789467) vcan0 284#A7BC8833718E8D4E
(1502934420.799685) vcan0 284#C4F41B4C78D97334
