(1502935119.668532) vcan0 284#DF0A8D124ED5D167
(1502935119.678885) vcan0 284#DEEC387506FC0053
(1502935119.689183) vcan0 284#B02D40395A22BE3C
(1502935119.699380) vcan0 284#474C5C7AFBA5953D
(1502935119.709567) vcan0 284#EC346B366ADAFC37
(1502935119.719729) vcan0 284#A811E82AC10B657B
(1502935119.729845) vcan0 284#76EBF56C06DCB633
(1502935119.740020) vcan0 284#E940F46BCD353543
(1502935119.750225) vcan0 284#1904054F58E56E52
(1502935119.760369) vcan0 284#10C76F2FCC3EBA4E
(1502935119.770551) vcan0 284#6804F014B8DA0D49
(1502935119.780728) vcan0 284#C796ED5EE67CDA1B
(1502935119.790869) vcan0 284#3F94F45F92ADCC7C
(1502935119.801047) vcan0 284#81EF0C2D7DEC0045
(1502935119.811242) vcan0 284#52135F0BC4AE622D
(1502935119.821357) vcan0 284#C32B5B5F321EEC1D
(1502935119.831525) vcan0 284#12843415A1189454
(1502935119.841725) vcan0 284#381AED70C2B1744E
(1502935119.851836) vcan0 284#FB3A52117F66496B
(1502935119.862012) vcan0 284#BD570A0CE76FBD47
(1502935119.872184) vcan0 284#E94046236569F236
(1502935119.882348) vcan0 284#A87B22435F2C3C10
(1502935119.892557) vcan0 284#6B45A96A91BC162F
(1502935119.902731) vcan0 284#2D6271538549AE39
(1502935119.912871) vcan0 284#EAA185013D29E102
(1502935119.923046) vcan0 284#5188680852A67516
(1502935119.933213) vcan0 284#F503EF4B181F5667
(1502935119.943409) vcan0 284#382350323498E32B
(1502935119.953601) vcan0 284#AACC2264B9125D5F
(1502935119.963773) vcan0 284#B184E470FDDF816F
(1502935119.973886) vcan0 284#7EC1BF0C74B03F50
(1502935119.984043) vcan0 284#2FFE6D0D9045F421
(1502935119.994231) vcan0 284#15C9D32467185B7E
(1502935120.004379) vcan0 284#53F7687011042636
(1502935120.014548) vcan0 284#E67EA469104F737C
(1502935120.024722) vcan0 284#F873E37DCFBFEA0C
(1502935120.034836) vcan0 284#76B86533A1EF0541
(1502935120.045024) vcan0 284#2EEC261DE1FD0E1E
(1502935120.055226) vcan0 284#32AC1C705B4E9870
(1502935120.065389) vcan0 284#6647BD571C4EA271
(1502935120.075572) vcan0 284#98777973B7CF2560
(1502935120.085763) vcan0 284#6EF417088D7B683F
(1502935120.095874) vcan0 284#CFEE7B47A617683A
(1502935120.106042) vcan0 284#C1134C6B7ABB9E2B
(1502935120.116233) vcan0 284#602AC5197398305C
(1502935120.126343) vcan0 284#779B201BDEEB8426
(1502935120.136497) vcan0 284#E748702CA6998E28
(1502935120.146701) vcan0 284#6E317948FD114451
(1502935120.156823) vcan0 284#0DB2E926C128E238
(1502935120.166993) vcan0 284#0E166A07F3308E10
(1502935120.177184) vcan0 284#D2775535068A4D05
(1502935120.187306) vcan0 284#C2F0781D4830BB68
(1502935120.197512) vcan0 284#A7795346F0DC9F3A
(1502935120.207715) vcan0 284#292ECA06DA257036
(1502935120.217886) vcan0 284#4C2B382B9075875E
(1502935120.228161) vcan0 284#F6731228E4A2B11E
(1502935120.238545) vcan0 284#4745AD3E65682A30
(1502935120.248816) vcan0 284#721E1A5E17342906
(1502935120.259184) vcan0 284#0B80926A33326649
(1502935120.269587) vcan0 284#91EFC7316BAA5704
(1502935120.279758) vcan0 284#A6CA9625088BE84C
(1502935120.289993) vcan0 284#4996DC2A8E130752
(1502935120.300366) vcan0 284#AE247775B8C75573
(1502935120.310604) vcan0 284#8B254B23BBD6601C
(1502935120.320894) vcan0 284#79F0372C993BB52A
(1502935120.331287) vcan0 284#AE07EF2C4B688D61
(1502935120.341465) vcan0 284#9FC5023070F8674A
(1502935120.351804) vcan0 284#9398484A473F5676
(1502935120.362129) vcan0 284#60D50705BDC61251
(1502935120.372306) vcan0 284#2165C62CAC004030
(1502935120.382598) vcan0 284#4D3C9A2F17D9D854
(1502935120.393045) vcan0 284#91A3F14E9481476E
(1502935120.403254) vcan0 284#7C41030503C20B2D
(1502935120.413554) vcan0 284#ABB5707488C1956F
(1502935120.423907) vcan0 284#36F471763CA53826
(1502935120.434066) vcan0 284#F36BED73DDBE081C
(1502935120.444247) vcan0 284#443021733D02CA1E
(1502935120.454443) vcan0 284#6BD20F6EF2549868
(1502935120.464585) vcan0 284#F5C91F12F6F75A11
(1502935120.474762) vcan0 284#AD2BF9046EBA573E
(1502935120.484960) vcan0 284#8F33103C5B33E831
(1502935120.495077) vcan0 284#BA22E51F2EF9126C
(1502935120.505248) vcan0 284#CB2B507C4DBB2D6A
(1502935120.515430) vcan0 284#753869622C015801
(1502935120.525546) vcan0 284#0A82403B969D2F0F
(1502935120.535708) vcan0 284#D801983157BEDA6A
(1502935120.545902) vcan0 284#AE76086469A58900
(1502935120.556015) vcan0 284#EC3F22592AB80B69
(1502935120.566176) vcan0 284#6C67952D97F5924D
(1502935120.576386) vcan0 284#B279A158A35B0724
(1502935120.586496) vcan0 284#D49ACB73A6E58E4C
(1502935120.596643) vcan0 284#801A104018CBEC66
(1502935120.606805) vcan0 284#E3E7586BEBEC1F2E
(1502935120.616915) vcan0 284#0B20854FD8B1787D
(1502935120.627094) vcan0 284#E1E47A3FB84B7E54
(1502935120.637287) vcan0 284#466CD03B70188B7B
(1502935120.647474) vcan0 284#147F6606008FB55B
(1502935120.657667) vcan0 284#9E119E67DFAAB602
(1502935120.667844) vcan0 284#4E4AE345144A074A
(1502935120.678020) vcan0 284#0BAC0E0458CC2301
