(1502932459.480911) vcan0 284#6C9BD94306528E1E
(1502932459.581121) vcan0 284#2472A54C60EC1D50
(1502932459.681302) vcan0 284#0FE0BC2A193AFB69
(1502932459.781490) vcan0 284#6C494F370E043047
(1502932459.881672) vcan0 284#9CC7DF6224469301
(1502932459.981860) vcan0 284#40EB4E794596217E
(1502932460.082043) vcan0 284#BA964B10B584AA46
(1502932460.182230) vcan0 284#80A13240FE14CD66
(1502932460.282482) vcan0 284#9E0EAF76F4DF0F67
(1502932460.382737) vcan0 284#E0A6E529A9F88419
(1502932460.482999) vcan0 284#35F28C31058B0825
(1502932460.583264) vcan0 284#15AAAF0435B54708
(1502932460.683519) vcan0 284#D5C6626F5B930B6B
(1502932460.783785) vcan0 284#46DB21191054297E
(1502932460.884050) vcan0 284#B532DC2D8F13BB65
(1502932460.984307) vcan0 284#6FF4493421CEB571
(1502932461.084571) vcan0 284#956549049466EF00
(1502932461.184836) vcan0 284#82BAD341A445062F
(1502932461.285105) vcan0 284#ADA0EA6AEE032379
(1502932461.385364) vcan0 284#B24936764A68CA4D
(1502932461.485616) vcan0 284#124AB67AF234856F
(1502932461.585871) vcan0 284#8FFEEB4BCCE0010B
(1502932461.686136) vcan0 284#A7B92F3610A01E0C
(1502932461.786400) vcan0 284#CBF5CE7145C8DE2C
(1502932461.886664) vcan0 284#04802E73AB9CB41B
(1502932461.986919) vcan0 284#EEC063463972BB24
(1502932462.087175) vcan0 284#B027BD40036B134B
(1502932462.187438) vcan0 284#6F27032D86EE1F30
(1502932462.287663) vcan0 284#5FFE1E36B5022546
(1502932462.387893) vcan0 284#9642492E1431FB63
(1502932462.488150) vcan0 284#4416E02B06379362
(1502932462.588415) vcan0 284#35FFB055D97B2930
(1502932462.688680) vcan0 284#9A9D8263B7B98417
(1502932462.788949) vcan0 284#7DC12F5F473E6D4E
(1502932462.889213) vcan0 284#A6BDA7102F0B6655
(1502932462.989493) vcan0 284#91A6371CB8075E0B
(1502932463.089768) vcan0 284#2140EB4421A52368
(1502932463.190042) vcan0 284#85E85F16C8F91A7B
(1502932463.290323) vcan0 284#3145427450DE2E08
(1502932463.390598) vcan0 284#0EC2F92735C57067
(1502932463.490865) vcan0 284#FB7AE323FC825D6E
(1502932463.591119) vcan0 284#6F372C0CACA2A064
(1502932463.691380) vcan0 284#00EE7039DE5E2F39
(1502932463.791632) vcan0 284#3291C0145FEC8F6F
(1502932463.891882) vcan0 284#9361547FC8D30943
(1502932463.992155) vcan0 284#731D8B53D877342B
(1502932464.092434) vcan0 284#CE0A9D25A81C3C29
(1502932464.192701) vcan0 284#B1F35D5B68A81F09
(1502932464.293035) vcan0 284#60D6C0402FB58D3A
(1502932464.393306) vcan0 284#B0E68C5706946851
(1502932464.493576) vcan0 284#5EC0F30F418DC473
(1502932464.593852) vcan0 284#BE9BC65C8000DF54
(1502932464.694122) vcan0 284#6232E85B43842673
(1502932464.794400) vcan0 284#48FAF94F93772A50
(1502932464.894658) vcan0 284#9362557B56BCF377
(1502932464.994945) vcan0 284#C93C9B378FDD381F
(1502932465.095216) vcan0 284#533F51663874C743
(1502932465.195491) vcan0 284#3B80D903532DC21F
(1502932465.295759) vcan0 284#16D3F67C6D119A18
(1502932465.396040) vcan0 284#B219520FA9344B7C
(1502932465.496320) vcan0 284#35E5A35B2537DD62
(1502932465.596593) vcan0 284#81AC7F2704F04001
(1502932465.696868) vcan0 284#CD53190C33A0DD02
(1502932465.797150) vcan0 284#6C98600A2D2ADA4C
(1502932465.897418) vcan0 284#62556B3D1C7FED61
(1502932465.997687) vcan0 284#33BE421EC0155F4D
(1502932466.097954) vcan0 284#5E0CB255F259097B
(1502932466.198229) vcan0 284#40163E22C03E9A31
(1502932466.298508) vcan0 284#35DE2F6E89103872
(1502932466.398788) vcan0 284#54B6C401C9408569
(1502932466.499057) vcan0 284#DFCC2B6A1DF35F39
(1502932466.599329) vcan0 284#581EBE08320C7D50
(1502932466.699583) vcan0 284#5567277D939E970C
(1502932466.799845) vcan0 284#85393F706B3A1E7A
(1502932466.900124) vcan0 284#00B031253753917F
(1502932467.000399) vcan0 284#146F69763595D500
(1502932467.100671) vcan0 284#5C8A6E62961BE91D
(1502932467.200939) vcan0 284#398516022ADE876E
(1502932467.301218) vcan0 284#C9BBC620A61D770C
(1502932467.401492) vcan0 284#5708623B2B11325E
(1502932467.501760) vcan0 284#C29C646E8BC6A459
(1502932467.602033) vcan0 284#EB26912B20A91644
(1502932467.702298) vcan0 284#7D20AE542C3DCF4D
(1502932467.802575) vcan0 284#E1E7B075B2FEDD42
(1502932467.902926) vcan0 284#B54D0740359E7577
(1502932468.003193) vcan0 284#7B3F632C941A332A
(1502932468.103473) vcan0 284#5291D530D35D2135
(1502932468.203750) vcan0 284#C726B07AA7F8FC2D
(1502932468.304023) vcan0 284#66FCB8414C60EF6A
(1502932468.404278) vcan0 284#12331B2866ACEA66
(1502932468.504525) vcan0 284#84B3806A26A2841E
(1502932468.604805) vcan0 284#9C41C067E03DEF4C
(1502932468.705074) vcan0 284#BCBD6D3CD5C6D669
(1502932468.805355) vcan0 284#0A1C773B8579345D
(1502932468.905630) vcan0 284#7BE44D766224D976
(1502932469.005899) vcan0 284#B08A663B3E81B264
(1502932469.106172) vcan0 284#EDEA7D509CB1F766
(1502932469.206447) vcan0 284#5E2AC9286A0B2C25
(1502932469.306717) vcan0 284#C8EEC6343F127A1E
(1502932469.407001) vcan0 284#1C0A0A687D3CCE74
