(1502935213.419092) vcan0 284#2ABEEB33F761771D
(1502935213.429478) vcan0 284#6DE283346585804E
(1502935213.439760) vcan0 284#F2903B2F9FFD983C
(1502935213.450090) vcan0 284#67D6AF62BE9F2354
(1502935213.460470) vcan0 284#2F9E7B779D6DC568
(1502935213.470981) vcan0 284#B25AAB216C7CB309
(1502935213.481211) vcan0 284#A58D4247FF49DA41
(1502935213.491396) vcan0 284#5675151988AB7D76
(1502935213.501577) vcan0 284#35A15C1E4DCA6E44
(1502935213.511740) vcan0 284#BD49611B3D981027
(1502935213.522119) vcan0 284#E9724A56F4C26C12
(1502935213.532318) vcan0 284#D262A8344F2AF843
(1502935213.542499) vcan0 284#5B79C4427DC64A5C
(1502935213.552676) vcan0 284#FB8B7F4B0623C64E
(1502935213.562807) vcan0 284#E171AA3478CAF944
(1502935213.572939) vcan0 284#516A71770B309668
(1502935213.583151) vcan0 284#6F2C7162BE4CF52B
(1502935213.593319) vcan0 284#70B5163761BDAC11
(1502935213.603400) vcan0 284#5E4A8E68D78BC619
(1502935213.613692) vcan0 284#1F5DD0658DE80960
(1502935213.623881) vcan0 284#75F98B02D2B77B07
(1502935213.634019) vcan0 284#F964BD691A87CE49
(1502935213.644192) vcan0 284#D10156494FDAD202
(1502935213.654318) vcan0 284#A2324C4007A3B267
(1502935213.664420) vcan0 284#9CA441475F7CAD5B
(1502935213.674627) vcan0 284#443BC30E85178C1D
(1502935213.684809) vcan0 284#533F1A6E169E6B43
(1502935213.694915) vcan0 284#D5418461AFB8DE30
(1502935213.705124) vcan0 284#9364B61FD0CD032D
(1502935213.715323) vcan0 284#B5DBA47F75D66054
(1502935213.725484) vcan0 284#4898FD7106461677
(1502935213.735660) vcan0 284#8006F73CB8C46E54
(1502935213.745835) vcan0 284#C4920B23F1BB0D74
(1502935213.755942) vcan0 284#19821B6622DD990B
(1502935213.766150) vcan0 284#C847D40D39DFEB4B
(1502935213.776299) vcan0 284#AFC5A36B3D416010
(1502935213.786428) vcan0 284#0B976753A82A6155
(1502935213.796621) vcan0 284#57C82E5ADC98BD1C
(1502935213.806811) vcan0 284#F8043458FAFA7A1A
(1502935213.816918) vcan0 284#E33B700494A9751F
(1502935213.827108) vcan0 284#5977287627773313
(1502935213.837255) vcan0 284#1AC1013DADB64264
(1502935213.847434) vcan0 284#3D159F56EF02861E
(1502935213.857634) vcan0 284#5C6F2115D1795576
(1502935213.867773) vcan0 284#BFD0894B114BC614
(1502935213.877882) vcan0 284#4650B64A0769873D
(1502935213.888090) vcan0 284#1791DC0BC656AD07
(1502935213.898231) vcan0 284#BF2DF611DB23E82E
(1502935213.908388) vcan0 284#B712BB7BD9AF1178
(1502935213.918586) vcan0 284#FE00823A805A8F09
(1502935213.928753) vcan0 284#128FFD43ADC62526
(1502935213.938858) vcan0 284#BD9BEF191D266517
(1502935213.949067) vcan0 284#56F1867B15641E74
(1502935213.959234) vcan0 284#F9BE22344EF6BA53
(1502935213.973240) vcan0 284#0F5F990EDDFA9238
(1502935213.983441) vcan0 284#E29F307368D6C104
(1502935213.993558) vcan0 284#0472C64BFC603230
(1502935214.003848) vcan0 284#158D046942876522
(1502935214.014042) vcan0 284#EB63B84E71FC257E
(1502935214.024152) vcan0 284#1301BB18AA34421A
(1502935214.034426) vcan0 284#8247EC1259517163
(1502935214.044622) vcan0 284#B29DC95799D8C81E
(1502935214.054731) vcan0 284#1FA81E6B71CBBF69
(1502935214.064965) vcan0 284#75FCB04DD7BAD966
(1502935214.075163) vcan0 284#4A7BD16173FD3208
(1502935214.085303) vcan0 284#571569705C0ACF25
(1502935214.095529) vcan0 284#20C4582E14B1580A
(1502935214.105723) vcan0 284#7930343D76B5DF29
(1502935214.115864) vcan0 284#2915777E73EF5671
(1502935214.126098) vcan0 284#C4AB9A7D3874100D
(1502935214.136313) vcan0 284#50EAE929A74BCB70
(1502935214.146473) vcan0 284#A14AD211545CB075
(1502935214.156733) vcan0 284#A3ACFD20B6D7D67A
(1502935214.166939) vcan0 284#96E315188F10B66F
(1502935214.177040) vcan0 284#28D4FC78A9E4D030
(1502935214.187257) vcan0 284#3945F809AA1BE90B
(1502935214.197626) vcan0 284#02364214EBE2C161
(1502935214.207893) vcan0 284#44F4B12A22DE607F
(1502935214.225602) vcan0 284#5DAE814BB9F06278
(1502935214.235875) vcan0 284#F9983A66A729532D
(1502935214.246068) vcan0 284#2CEE950050AEA356
(1502935214.256348) vcan0 284#043422534CB2EE2E
(1502935214.266608) vcan0 284#645FFC607D645610
(1502935214.276765) vcan0 284#C367CE588E74735F
(1502935214.287420) vcan0 284#F053AD0187136956
(1502935214.297888) vcan0 284#C6E8836C403E972B
(1502935214.308082) vcan0 284#2E5F34476733567E
(1502935214.318308) vcan0 284#959A4721D20B3268
(1502935214.328558) vcan0 284#1E0B2D792B7E5D39
(1502935214.338805) vcan0 284#611CE85746DF2972
(1502935214.349146) vcan0 284#D5622E6A9A61E061
(1502935214.359435) vcan0 284#F0FA127ED798707E
(1502935214.369628) vcan0 284#8644A24334EFC428
(1502935214.379864) vcan0 284#F976D17DE3F2230F
(1502935214.390053) vcan0 284#EDDF2721F20F0C64
(1502935214.400292) vcan0 284#8A1C773C19CEBD21
(1502935214.410516) vcan0 284#42BEAF3A8E50990F
(1502935214.420687) vcan0 284#6680AC50A71DAC1B
(1502935214.430880) vcan0 284#0CB5EF1F29E87A29
(1502935214.441109) vcan0 284#35921F7BFC089D21
