(1502932503.096581) vcan0 284#0BD930329027B208
(1502932503.196851) vcan0 284#A656C86F19592213
(1502932503.297115) vcan0 284#70E4C96E5499F30A
(1502932503.397390) vcan0 284#5D7DE01F60835444
(1502932503.497662) vcan0 284#D16EDA2152483F4C
(1502932503.597942) vcan0 284#CB38F4038424B163
(1502932503.698211) vcan0 284#1F41253D5F67C768
(1502932503.798483) vcan0 284#FF524705DB043E25
(1502932503.898742) vcan0 284#C4EF8D5C2DC14441
(1502932503.999009) vcan0 284#084DC07388A3CD57
(1502932504.099271) vcan0 284#C3CB3B23E1FCB53D
(1502932504.199532) vcan0 284#A048FA423F449B44
(1502932504.299806) vcan0 284#4FDB042EC57A0810
(1502932504.400076) vcan0 284#20975223629D2B0F
(1502932504.500333) vcan0 284#B56C131CBBA2912F
(1502932504.600595) vcan0 284#00CED719C045444E
(1502932504.700923) vcan0 284#4BCA4338A624A009
(1502932504.801256) vcan0 284#DA9E6661BBAE0D27
(1502932504.901470) vcan0 284#FBBD9314371C4701
(1502932505.001661) vcan0 284#1C32626BCC2C6E36
(1502932505.101853) vcan0 284#8A64864DE76A566F
(1502932505.202045) vcan0 284#50511F1AA9A5AB0A
(1502932505.302237) vcan0 284#46D21D584FA4661F
(1502932505.402431) vcan0 284#84AAE92F0AC2AB34
(1502932505.502626) vcan0 284#7C65AB608CF7A923
(1502932505.602924) vcan0 284#9265790C4031E703
(1502932505.703179) vcan0 284#6DF45F6132AE734F
(1502932505.803459) vcan0 284#7F758248BDCF640F
(1502932505.903732) vcan0 284#F8287C5FA00CD56B
(1502932506.003991) vcan0 284#1F6D901EAD958F7B
(1502932506.104231) vcan0 284#5BAF661B1F3B6838
(1502932506.204479) vcan0 284#6DDBD349A679AA53
(1502932506.304752) vcan0 284#C65F0842477A3A2B
(1502932506.405030) vcan0 284#6228B87AC11D9C56
(1502932506.505311) vcan0 284#7F96812C7E5A1A66
(1502932506.605582) vcan0 284#8D4A0A0D09FB077A
(1502932506.705853) vcan0 284#65C57055DD9B2927
(1502932506.806127) vcan0 284#B2A0B304AB978E2D
(1502932506.906395) vcan0 284#2D409046364B9D34
(1502932507.006657) vcan0 284#B5593A62A9A53B27
(1502932507.106910) vcan0 284#C342475848BFB36E
(1502932507.207180) vcan0 284#E9D6222B3037A739
(1502932507.307449) vcan0 284#7A6D273E694CA573
(1502932507.407724) vcan0 284#ED060C497296A31D
(1502932507.507987) vcan0 284#09597A5F0D749C67
(1502932507.608253) vcan0 284#1F2C33196408E17A
(1502932507.708520) vcan0 284#2CAF04208D070763
(1502932507.808787) vcan0 284#0A828B4EF20E0D62
(1502932507.909066) vcan0 284#D481410E6CAA4349
(1502932508.009337) vcan0 284#B32CA9385318C33A
(1502932508.109606) vcan0 284#EA045E2F4077B345
(1502932508.209881) vcan0 284#5C13CB344FCACE04
(1502932508.310134) vcan0 284#1E13DD6C0EB47E39
(1502932508.410401) vcan0 284#FA615D324B536D33
(1502932514.804810) vcan0 284#950B174581DCF228
(1502932514.815241) vcan0 284#260F877179A86B1B
(1502932514.825548) vcan0 284#C59C7B25686EB67B
(1502932514.835912) vcan0 284#B17A836919B95F23
(1502932514.846258) vcan0 284#7E7D3B261F38E57E
(1502932514.856492) vcan0 284#E2CD517DD2866917
(1502932514.866679) vcan0 284#A830200C65CB2953
(1502932514.877026) vcan0 284#AD971912625D650D
(1502932514.888183) vcan0 284#5B03D2120052C02B
(1502932514.898457) vcan0 284#16D03204DDAC720C
(1502932514.908864) vcan0 284#8A0B2C16F74B7308
(1502932514.919251) vcan0 284#15BFFF3649B5D33D
(1502932514.929500) vcan0 284#0130810BF0587336
(1502932514.939896) vcan0 284#CF3D325F43F3193C
(1502932514.950286) vcan0 284#C7858B64B9D35A06
(1502932514.960531) vcan0 284#1CECEB1F5C91A229
(1502932514.970824) vcan0 284#3AB04D2F43FB7211
(1502932514.981176) vcan0 284#D5390E45FF4CC954
(1502932514.991518) vcan0 284#AB69290D87B4912E
(1502932515.001962) vcan0 284#1806297829E76433
(1502932515.012343) vcan0 284#A6EC762DFBD37A75
(1502932515.022634) vcan0 284#FB6DCE4A4E1D9739
(1502932515.032985) vcan0 284#609FA448A805E85C
(1502932515.043346) vcan0 284#B07AFC46BBA2765B
(1502932515.053666) vcan0 284#A857A808C64A2F4B
(1502932515.064010) vcan0 284#984FE9673263D41E
(1502932515.074373) vcan0 284#BD96A253AE0EE91E
(1502932515.084650) vcan0 284#7B18A85CBEC6235F
(1502932515.095016) vcan0 284#9E675C554A56DA3B
(1502932515.105403) vcan0 284#01BA3D1B66EDE739
(1502932515.115687) vcan0 284#032A35421EA6293B
(1502932515.125996) vcan0 284#C27E8A633EDA8271
(1502932515.136336) vcan0 284#61A19C4C98B89828
(1502932515.146690) vcan0 284#3D274C460C0BC659
(1502932515.157317) vcan0 284#1F6D2A57562D753E
(1502932515.167697) vcan0 284#35F22A0DC559A104
(1502932515.178002) vcan0 284#5101F0333160F957
(1502932515.188368) vcan0 284#1377383EB1A0947C
(1502932515.198730) vcan0 284#D965E134C4F13405
(1502932515.208942) vcan0 284#6C430B5882BD893D
(1502932515.219190) vcan0 284#8A3C64500593F43F
(1502932515.229448) vcan0 284#B4205E5C48D30624
(1502932515.239642) vcan0 284#B3A1DD5E30390639
(1502932515.249886) vcan0 284#069A2A0351093A34
(1502932515.260144) vcan0 284#7A8FE0740854681E
(1502932515.270333) vcan0 284#B7F6216E7EB91537
