(1502935106.611606) vcan0 284#8DCCF7188540FD30
(1502935106.621955) vcan0 284#54FDCB6F53F52C68
(1502935106.632361) vcan0 284#40307B3579A38D4B
(1502935106.642667) vcan0 284#06B02A5DD764DD45
(1502935106.652991) vcan0 284#3D90C07E9C3A7A30
(1502935106.663270) vcan0 284#32189A1013C6F01A
(1502935106.673575) vcan0 284#5FB27304A691E06A
(1502935106.683929) vcan0 284#C387372309450A31
(1502935106.694142) vcan0 284#E405B7598C6D0555
(1502935106.704339) vcan0 284#6099AF33A090CA60
(1502935106.714531) vcan0 284#B8E9041F9851856D
(1502935106.724646) vcan0 284#B8D7D07C22D51D18
(1502935106.734826) vcan0 284#FC4274028C1A316F
(1502935106.745026) vcan0 284#23C40015585A5A1B
(1502935106.755153) vcan0 284#EC74F33610BB1B1E
(1502935106.765379) vcan0 284#C3F736377A41EB4F
(1502935106.775574) vcan0 284#96FB184F17F50227
(1502935106.785701) vcan0 284#CD361838D62B9404
(1502935106.795877) vcan0 284#91989072D4E64215
(1502935106.806075) vcan0 284#AE90714ACE285171
(1502935106.816241) vcan0 284#7021BD45E0A80B5B
(1502935106.826432) vcan0 284#E2EE410CCFD3304A
(1502935106.836619) vcan0 284#863AEC45A576792F
(1502935106.846740) vcan0 284#D8183B7B6A40A31F
(1502935106.856851) vcan0 284#31E47E0438B2EA2E
(1502935106.867039) vcan0 284#0AD16D00E9CD8323
(1502935106.877216) vcan0 284#D003701CC2A83E7D
(1502935106.887408) vcan0 284#0BA3A13BCD46E41E
(1502935106.897612) vcan0 284#4EC36F6C2E67A250
(1502935106.907732) vcan0 284#25A13E3A3B386323
(1502935106.917908) vcan0 284#3F22BE6EE8987571
(1502935106.928112) vcan0 284#B5794E73D51DD73D
(1502935106.938234) vcan0 284#FF8D781882B0662B
(1502935106.948416) vcan0 284#AB496B429026090B
(1502935106.958615) vcan0 284#5697A94059DADC0C
(1502935106.968786) vcan0 284#5F4F5A7CC6B86606
(1502935106.978991) vcan0 284#3983E867413E9C08
(1502935106.989180) vcan0 284#958C9750BFBDD42D
(1502935106.999298) vcan0 284#E6B415386DA5D24B
(1502935107.009480) vcan0 284#2AFE774D1799943C
(1502935107.019657) vcan0 284#A657BD7A34CFE54D
(1502935107.029771) vcan0 284#01671860765B2D17
(1502935107.039959) vcan0 284#F777244B0C0ABA1B
(1502935107.050141) vcan0 284#43A21136453B9437
(1502935107.060258) vcan0 284#3B715C6C68435070
(1502935107.070428) vcan0 284#8073F75A7A931A5B
(1502935107.080626) vcan0 284#50DCC56135ED454E
(1502935107.090754) vcan0 284#4FB1F118506A3E7A
(1502935107.100935) vcan0 284#B89DAC79FAFA5C5B
(1502935107.111133) vcan0 284#E09047050E35563A
(1502935107.121295) vcan0 284#54D539683FE0A101
(1502935107.131509) vcan0 284#D5EDBC408D582250
(1502935107.141710) vcan0 284#801E3E0A6A7A5411
(1502935107.151831) vcan0 284#4D16F77D66D35342
(1502935107.162031) vcan0 284#D81F275D77146F4B
(1502935107.172233) vcan0 284#7E6CE87E7E77E457
(1502935107.182349) vcan0 284#ABE354197FD3005F
(1502935107.192551) vcan0 284#F4D2116FA25B7964
(1502935107.202741) vcan0 284#8BDDBA7A38752325
(1502935107.212870) vcan0 284#E8960D1CC64E1767
(1502935107.223066) vcan0 284#A0B87315680A0577
(1502935107.233281) vcan0 284#40E23142F1943977
(1502935107.243406) vcan0 284#9EF74A458F93235B
(1502935107.253594) vcan0 284#41FF77715695F73E
(1502935107.263779) vcan0 284#8A8E80362190BF76
(1502935107.273959) vcan0 284#64CA4D79DE63BA1E
(1502935107.284143) vcan0 284#6170617839B80A3A
(1502935107.294349) vcan0 284#6BBCDC6EE18E9F02
(1502935107.304466) vcan0 284#A4325F4BB8D2D36C
(1502935107.314638) vcan0 284#4862F3447C528628
(1502935107.324827) vcan0 284#2FE74238C6CEDB43
(1502935107.334946) vcan0 284#FAC96A00DBCA9751
(1502935107.345126) vcan0 284#45A2DC22EE9C7C6F
(1502935107.355329) vcan0 284#7D261136D07F971D
(1502935107.365503) vcan0 284#2612A01465BD1E52
(1502935107.375836) vcan0 284#97CEAE04C7CA132A
(1502935107.386202) vcan0 284#CEC72349D7B0E046
(1502935107.396386) vcan0 284#B85F4D216CBF6E0E
(1502935107.406718) vcan0 284#67440422F95EC512
(1502935107.417127) vcan0 284#C254664DF1D28458
(1502935107.427377) vcan0 284#1AEF8409261FB446
(1502935107.437732) vcan0 284#CF363F777B5FE601
(1502935107.448121) vcan0 284#60D7BE003AF31B66
(1502935107.458370) vcan0 284#5DEE8504040A1E4C
(1502935107.468705) vcan0 284#F3C5EF52A5507949
(1502935107.479146) vcan0 284#805CA47422AD320B
(1502935107.489385) vcan0 284#6B1F550D7A260F75
(1502935107.499734) vcan0 284#FD77CA5CB0C13130
(1502935107.510146) vcan0 284#68C38B647B9EDB12
(1502935107.520436) vcan0 284#8041C94D8FD52B79
(1502935107.530748) vcan0 284#E05BFA6417107852
(1502935107.541056) vcan0 284#56A03F23AE231E2E
(1502935107.551237) vcan0 284#EFC058190E008D44
(1502935107.561534) vcan0 284#1AE38C3C56055D3B
(1502935107.571842) vcan0 284#075F5257DC37F309
(1502935107.582038) vcan0 284#47D8E113214ED760
(1502935107.592411) vcan0 284#0357A750160F210B
(1502935107.602915) vcan0 284#9DADBD62632E6651
(1502935107.613274) vcan0 284#50023D71FA9B4367
(1502935107.623589) vcan0 284#6738841D43C82C44
