(1502935091.317607) vcan0 284#892B19278BAF8910
(1502935091.327795) vcan0 284#A29F8968B3B9F968
(1502935091.338226) vcan0 284#39B01500B036F34D
(1502935091.348510) vcan0 284#39417307B753A44D
(1502935091.358688) vcan0 284#6345846ECA52F156
(1502935091.368873) vcan0 284#54F22435F3F2925C
(1502935091.379005) vcan0 284#237AFE638A3F680E
(1502935091.389142) vcan0 284#3154F82B653B9420
(1502935091.399324) vcan0 284#AD28EC3128B4DA35
(1502935091.409493) vcan0 284#680CD94A28282000
(1502935091.419627) vcan0 284#F3932E1DBA1C0149
(1502935091.429811) vcan0 284#EF1F1237CA2F1935
(1502935091.439930) vcan0 284#8733FF59FF0D4749
(1502935091.450060) vcan0 284#1BDC083241324807
(1502935091.460243) vcan0 284#C685FF745EA88134
(1502935091.470434) vcan0 284#6A074D5B50B1181C
(1502935091.480585) vcan0 284#EA570B450CA7D643
(1502935091.490777) vcan0 284#036B120523082145
(1502935091.500902) vcan0 284#BCDDC9113CAC850C
(1502935091.511062) vcan0 284#DA5BC5121F234E00
(1502935091.521250) vcan0 284#06FF76632E4EEA47
(1502935091.531372) vcan0 284#1316E15C2A797547
(1502935091.541499) vcan0 284#B88D5256446AD908
(1502935091.551680) vcan0 284#8FB4096865B63E08
(1502935091.561804) vcan0 284#6D1EB43EF8C0E232
(1502935091.571968) vcan0 284#8EDE5E0860B2E25B
(1502935091.582196) vcan0 284#B2DDE37B7DFE703F
(1502935091.592344) vcan0 284#2BE2FB103911E355
(1502935091.602501) vcan0 284#7D0CB80846BE0443
(1502935091.612721) vcan0 284#7A432B5D4392B77D
(1502935091.622891) vcan0 284#A4668677E44A7838
(1502935091.633047) vcan0 284#9343D0198EBE913C
(1502935091.643243) vcan0 284#F1F14E7C96AEE21E
(1502935091.653408) vcan0 284#B1C6B201ADCF180E
(1502935091.663600) vcan0 284#D25A682B8C227814
(1502935091.673984) vcan0 284#CDF2660ED959DF0E
(1502935091.684196) vcan0 284#BA70625CE008486B
(1502935091.694429) vcan0 284#03D3545673FEB432
(1502935091.704741) vcan0 284#2473217492875E3E
(1502935091.715067) vcan0 284#D8B4F33A9191D532
(1502935091.725303) vcan0 284#8A48417166935243
(1502935091.735606) vcan0 284#F243B80E3C26256D
(1502935091.745947) vcan0 284#E491C3021D26B41F
(1502935091.756253) vcan0 284#75370843619E7B0B
(1502935091.766588) vcan0 284#63E4B862F07A3320
(1502935091.776906) vcan0 284#A4303309074B3F5A
(1502935091.787156) vcan0 284#D4C5AB5838740323
(1502935091.797462) vcan0 284#9609D116C5B7FA54
(1502935091.807780) vcan0 284#CE22E64147D08318
(1502935091.818060) vcan0 284#73871363A17D4E6D
(1502935091.828372) vcan0 284#D3F2FB2C407A7A71
(1502935091.838666) vcan0 284#7AD72D7C8E635E09
(1502935091.848903) vcan0 284#2083C25C7DAA8252
(1502935091.859197) vcan0 284#0162133C44F6E350
(1502935091.869556) vcan0 284#0F32E110D9160777
(1502935091.879801) vcan0 284#D687B9039A7A2202
(1502935091.890093) vcan0 284#40AA593AC8CB7112
(1502935091.900386) vcan0 284#D6A0476F243C1D3D
(1502935091.910625) vcan0 284#E5F125324CD84F32
(1502935091.921019) vcan0 284#85DA984848D6DE14
(1502935091.931376) vcan0 284#3C538352290BCC51
(1502935091.941619) vcan0 284#4F211E6F10192F2B
(1502935091.951929) vcan0 284#617FCF74E52AEF05
(1502935091.962234) vcan0 284#D6D0290030A2B536
(1502935091.972533) vcan0 284#2DFB721E49583D63
(1502935091.982936) vcan0 284#D11F042400EE6E4B
(1502935091.993232) vcan0 284#89D2B7544BF73120
(1502935092.003462) vcan0 284#8E51CD54A9557A31
(1502935092.013779) vcan0 284#C8A1B4728FB3E010
(1502935092.024085) vcan0 284#ED4B5E02D7D39503
(1502935092.034321) vcan0 284#69CAE707C3D31706
(1502935092.044613) vcan0 284#714EB805A9744142
(1502935092.054929) vcan0 284#8B9F891848EFFF74
(1502935092.065173) vcan0 284#CDB05E7F7091AF4A
(1502935092.075505) vcan0 284#94C74F27528BF747
(1502935092.085859) vcan0 284#B8678E5FD01AD379
(1502935092.096096) vcan0 284#7B96C3190889AC4E
(1502935092.106389) vcan0 284#E0330225DD15930E
(1502935092.116684) vcan0 284#EDB39B54B6042C25
(1502935092.126915) vcan0 284#0DB848451AAF0E73
(1502935092.137214) vcan0 284#FF5C6908DED74C69
(1502935092.147520) vcan0 284#1B9D7D3E882F215D
(1502935092.157796) vcan0 284#29CF7E09A9EE4A13
(1502935092.168096) vcan0 284#31859B0EF170337C
(1502935092.178407) vcan0 284#39A22B241FD1F910
(1502935092.188652) vcan0 284#C844C97FA26C132C
(1502935092.198941) vcan0 284#E2A411173A938105
(1502935092.209252) vcan0 284#4BE1546E6E449B2F
(1502935092.219557) vcan0 284#8282817A1892B36D
(1502935092.229862) vcan0 284#DED54A7A164AD121
(1502935092.240178) vcan0 284#6A1DAB35973DD959
(1502935092.250418) vcan0 284#E664A41BE5B36E4F
(1502935092.260710) vcan0 284#9FC68528C698A640
(1502935092.271006) vcan0 284#C2C9015E8C7A217D
(1502935092.281288) vcan0 284#7D9DD265CF814A23
(1502935092.291621) vcan0 284#A72930707CFA3B6E
(1502935092.301922) vcan0 284#AD59970CC2C6AD2E
(1502935092.312254) vcan0 284#052A5D4BD6281616
(1502935092.322707) vcan0 284#6BB5F84136AFF859
(1502935092.333151) vcan0 284#C7994912A4572466
