(1502934417.821650) vcan0 284#13F82840C056832D
(1502934417.831989) vcan0 284#FB4EB42886F3F37B
(1502934417.842208) vcan0 284#20C54052ED91BA15
(1502934417.855401) vcan0 284#E1C9F10696E57638
(1502934417.865686) vcan0 284#5AEDA42FEF2A4C40
(1502934417.875932) vcan0 284#C812BE508959CA19
(1502934417.886165) vcan0 284#CAFC365BF43DB340
(1502934417.896398) vcan0 284#DB8C50132E36275D
(1502934417.906551) vcan0 284#51F94F12A5833F14
(1502934417.916656) vcan0 284#02E3B8653CA25D6F
(1502934417.926882) vcan0 284#B7A97F1652FCFE55
(1502934417.937096) vcan0 284#8B01014C9C11AA70
(1502934417.947251) vcan0 284#FD37821027356E52
(1502934417.957464) vcan0 284#75C7040DE5D14E36
(1502934417.967636) vcan0 284#7B24E4006A096267
(1502934417.977783) vcan0 284#58C8B1348F1C0D41
(1502934417.988019) vcan0 284#2B60E5145317665D
(1502934417.998194) vcan0 284#1510013D4B252667
(1502934418.008303) vcan0 284#40A92073F6D9F243
(1502934418.018518) vcan0 284#E10A9D1F9B96C522
(1502934418.028674) vcan0 284#E5043F04AA1D5B70
(1502934418.038780) vcan0 284#24F08F3CAF01765F
(1502934418.049001) vcan0 284#9E5B0E31FF7CE04F
(1502934418.059212) vcan0 284#DD379D3CEF545E43
(1502934418.069331) vcan0 284#A4002064DF1A5622
(1502934418.080230) vcan0 284#2CF7BB325CAA9F7A
(1502934418.090420) vcan0 284#31175578B7F8BC7E
(1502934418.100546) vcan0 284#F8BB496B2F4FD708
(1502934418.110745) vcan0 284#DF2D2B516D834E78
(1502934418.120882) vcan0 284#1421263F5A520F52
(1502934418.130982) vcan0 284#D88CB05F6CE9D773
(1502934418.141208) vcan0 284#E96E1C1303ED9574
(1502934418.151407) vcan0 284#C0003E51FE7E1D50
(1502934418.161521) vcan0 284#4E12BC5B00AA5E44
(1502934418.173148) vcan0 284#F5581014301D597B
(1502934418.183429) vcan0 284#9B402467DA5D4F18
(1502934418.193622) vcan0 284#DA3AB46BBF30B423
(1502934418.203895) vcan0 284#8A5FC5777896C21C
(1502934418.214115) vcan0 284#BEAD947367976234
(1502934418.224306) vcan0 284#67EB206063AEB457
(1502934418.234566) vcan0 284#47B2B85693E2DC12
(1502934418.244848) vcan0 284#BF58545278C90D4F
(1502934418.255067) vcan0 284#4BDB9911B7149E3D
(1502934418.265337) vcan0 284#A718E5572A09C562
(1502934418.275633) vcan0 284#2498EC35BC390B17
(1502934418.285898) vcan0 284#845BD434FC249D15
(1502934418.296182) vcan0 284#2823E30A6ECAF047
(1502934418.306458) vcan0 284#FF11330AE823215C
(1502934418.316661) vcan0 284#6C490E184E24EF65
(1502934418.326932) vcan0 284#E9CD7F2061A21E2C
(1502934418.337214) vcan0 284#7E414861840EA407
(1502934418.347451) vcan0 284#3C006E44587CFC4C
(1502934418.357695) vcan0 284#443F582BC65F333C
(1502934418.367952) vcan0 284#D012BF6902EDEC1E
(1502934418.378168) vcan0 284#2DF7957037FEDF49
(1502934418.388476) vcan0 284#659BA17674A94E47
(1502934418.398745) vcan0 284#CBE0BC5C24F4F548
(1502934418.408972) vcan0 284#ED725C1616BC566E
(1502934418.419247) vcan0 284#DB089406948B416E
(1502934418.429520) vcan0 284#40C51B5100A1803C
(1502934418.439732) vcan0 284#50C54C05C420F005
(1502934418.450055) vcan0 284#FCC51D5279E82F10
(1502934418.460341) vcan0 284#32EBE04DFCD7505C
(1502934418.470572) vcan0 284#610C516C9F34EF65
(1502934418.480887) vcan0 284#4AFC3F424ADAD00C
(1502934418.491145) vcan0 284#00D70D12C83D8823
(1502934418.501363) vcan0 284#CFE874143CD77B56
(1502934418.511634) vcan0 284#20BA84701328CD3F
(1502934418.521925) vcan0 284#0237AF12F0CC435A
(1502934418.532159) vcan0 284#1515BA5E302E4503
(1502934418.542436) vcan0 284#27CB23247BB05B55
(1502934418.552727) vcan0 284#A4D7934AF2ABE000
(1502934418.562971) vcan0 284#9FA4511E914AF060
(1502934418.573238) vcan0 284#0868376F7BADE524
(1502934418.583494) vcan0 284#26D6314F482D5340
(1502934418.593747) vcan0 284#7B4E6661769B7E54
(1502934418.604018) vcan0 284#0D4E434677148433
(1502934418.614225) vcan0 284#EF83AE643F392414
(1502934418.624403) vcan0 284#73ECD40F5190FF50
(1502934418.634600) vcan0 284#DE6D137ABDE81452
(1502934418.644720) vcan0 284#9B6AD05DDF44210C
(1502934418.666068) vcan0 284#85269D756A534572
(1502934418.676377) vcan0 284#1B1C9D62A5E02166
(1502934418.686572) vcan0 284#7D7B12321E534C75
(1502934418.696782) vcan0 284#95AD65409390CC10
(1502934418.706902) vcan0 284#4E819178BD788964
(1502934418.719333) vcan0 284#0E412866F2582543
(1502934418.729622) vcan0 284#AF246A65ADE57904
(1502934418.739749) vcan0 284#84A31524B88CA154
(1502934418.749943) vcan0 284#28935F29AA794773
(1502934418.760162) vcan0 284#00BAF414A3E1C50A
(1502934418.770296) vcan0 284#2015C6470D08385B
(1502934418.780471) vcan0 284#1BF6493E1099742C
(1502934418.790678) vcan0 284#4D415C6F8EE21E4E
(1502934418.800920) vcan0 284#6129747D2BAF6F69
(1502934418.811439) vcan0 284#4CCB3320FC93445B
(1502934418.821624) vcan0 284#0AF49075D1F1D015
(1502934418.831741) vcan0 284#67E7894D26102E58
(1502934418.841911) vcan0 284#77D2F27BE4629C7F
(1502934418.852121) vcan0 284#44637A4D0C80583C
