(1502935089.056774) vcan0 284#529CBF5FE2D24078
(1502935089.067072) vcan0 284#B482965BE1ABC238
(1502935089.077312) vcan0 284#14573E5C81AEF617
(1502935089.087526) vcan0 284#FF57CD59C4E8383B
(1502935089.097772) vcan0 284#68F5195EC9ED716A
(1502935089.107980) vcan0 284#6FD99C047AB34709
(1502935089.118122) vcan0 284#A852DC5626D5EB4A
(1502935089.128318) vcan0 284#75A2832DCF99DC51
(1502935089.138638) vcan0 284#438D0D26829FD43B
(1502935089.148880) vcan0 284#CFE08D13592E3D12
(1502935089.159157) vcan0 284#72874A77AF365240
(1502935089.169372) vcan0 284#99960F2EE640D15A
(1502935089.179498) vcan0 284#6E728476ED9EF51E
(1502935089.189746) vcan0 284#6608DF2EE15CFD71
(1502935089.199957) vcan0 284#3ACB5E43EA631C51
(1502935089.210080) vcan0 284#2DD9C0068C671E23
(1502935089.220312) vcan0 284#CD365D49E15B5762
(1502935089.230524) vcan0 284#6D13E15BE18D9B25
(1502935089.240639) vcan0 284#620A4E7A6C6BAE35
(1502935089.250885) vcan0 284#A676D460CAFF6758
(1502935089.261111) vcan0 284#3559202015507165
(1502935089.271227) vcan0 284#44B3AF61DDABFC76
(1502935089.281467) vcan0 284#3B255D30B955330F
(1502935089.291680) vcan0 284#AC45D9487EB26A56
(1502935089.301848) vcan0 284#3CF5074B7C26675C
(1502935089.312104) vcan0 284#D8E0A768AE7C5242
(1502935089.322322) vcan0 284#2B5DB91C7177B716
(1502935089.332443) vcan0 284#94BD231D9ACF3D13
(1502935089.342688) vcan0 284#5E16AD35FAC5024C
(1502935089.352947) vcan0 284#7B2C3B0598E10B79
(1502935089.363138) vcan0 284#E5291F1DA805FC0B
(1502935089.373379) vcan0 284#24492A1CB2607C66
(1502935089.383603) vcan0 284#8A61536E925C0B78
(1502935089.393733) vcan0 284#93EE170CEC6BA168
(1502935089.403963) vcan0 284#FEC7B92D3965EC6C
(1502935089.414196) vcan0 284#B76B09413421DA4D
(1502935089.424323) vcan0 284#4EB55D52FB1EB922
(1502935089.434555) vcan0 284#11CDD64489DABA02
(1502935089.444775) vcan0 284#B574EC31BE12B00D
(1502935089.454955) vcan0 284#088D2559F169F47C
(1502935089.465203) vcan0 284#3A39176AE06DCD41
(1502935089.475427) vcan0 284#9FE6463F6596D006
(1502935089.485548) vcan0 284#51E5845833A46A5C
(1502935089.495760) vcan0 284#FF650E1AAFFB310E
(1502935089.505958) vcan0 284#2D6A6D287A92491F
(1502935089.516092) vcan0 284#48DD3D0712948C45
(1502935089.526317) vcan0 284#2398452B6C266823
(1502935089.536490) vcan0 284#C4F4082CADF99819
(1502935089.546603) vcan0 284#FE82731B58E32038
(1502935089.556832) vcan0 284#99653A02FD4A2D49
(1502935089.567028) vcan0 284#91480D2550D14343
(1502935089.577154) vcan0 284#316C0717E0FD6A77
(1502935089.587380) vcan0 284#4CF0FC654239DE5B
(1502935089.597580) vcan0 284#69D8257A0165E917
(1502935089.607693) vcan0 284#004C8E6971654B53
(1502935089.617906) vcan0 284#F2CEDD143A85A553
(1502935089.628106) vcan0 284#51D3181591B52454
(1502935089.638221) vcan0 284#A01B765AA2B89D6D
(1502935089.648385) vcan0 284#C4598F309F818474
(1502935089.658596) vcan0 284#52B4CF7BF1C3FC58
(1502935089.668715) vcan0 284#1A14CE139A910D03
(1502935089.678937) vcan0 284#0458891E3DAC133F
(1502935089.689141) vcan0 284#06B87526C84C924A
(1502935089.699304) vcan0 284#EAA5AC58053BE941
(1502935089.709536) vcan0 284#2030B302830BE75A
(1502935089.719729) vcan0 284#0286160BB278C027
(1502935089.729845) vcan0 284#D4DC2A1E33F21D22
(1502935089.740057) vcan0 284#92762B1F20CD2704
(1502935089.750263) vcan0 284#752BFC7DFB4E5119
(1502935089.760511) vcan0 284#2132111C76778A67
(1502935089.770768) vcan0 284#6DB49C6C1301EF30
(1502935089.781214) vcan0 284#B0FC2F3BBE87B501
(1502935089.791492) vcan0 284#A4B613055018A615
(1502935089.801749) vcan0 284#6140536F6810A335
(1502935089.812194) vcan0 284#F0992A0AB3F4226B
(1502935089.822474) vcan0 284#59D49F0E0AAEF81D
(1502935089.832719) vcan0 284#4D86306E5D2C292D
(1502935089.843097) vcan0 284#475A0C5D533EA614
(1502935089.853361) vcan0 284#2679BB773100B935
(1502935089.863645) vcan0 284#58798F5646A96E7A
(1502935089.874308) vcan0 284#B40BA0105AFFA561
(1502935089.884595) vcan0 284#F8212F2288E8CA2E
(1502935089.894855) vcan0 284#8DF1C3038A985A41
(1502935089.905167) vcan0 284#A8B5F232031DC001
(1502935089.915452) vcan0 284#86E7AB5AC9E7034F
(1502935089.925720) vcan0 284#79944A69F39B4847
(1502935089.936021) vcan0 284#DCE8F27F29917A24
(1502935089.946295) vcan0 284#B123FE48809F0605
(1502935089.956590) vcan0 284#7AA9203A12645138
(1502935089.967119) vcan0 284#E8AFA93A6A434B44
(1502935089.977444) vcan0 284#C558742342844949
(1502935089.987764) vcan0 284#74F1436212DFA411
(1502935089.998173) vcan0 284#9FB07276BB4B503F
(1502935090.008447) vcan0 284#661D4B26C5292E6E
(1502935090.018675) vcan0 284#EC4B0975BE96DA7C
(1502935090.029007) vcan0 284#0CD39C68A057A905
(1502935090.039276) vcan0 284#1996805E04F5CB0A
(1502935090.049831) vcan0 284#29407434A6874462
(1502935090.060178) vcan0 284#8F8D264CD1F56667
(1502935090.070438) vcan0 284#A9A404641575D226
