(1502932525.879205) vcan0 284#E0A4F3656D50352A
(1502932525.889460) vcan0 284#968C015518E2460B
(1502932525.899957) vcan0 284#3092AC6B6B42CD1D
(1502932525.910307) vcan0 284#39165A3EB78F6511
(1502932525.920513) vcan0 284#743D7B1F4074EB5A
(1502932525.930906) vcan0 284#C0B5083DC4975F0F
(1502932525.941120) vcan0 284#CBC88C420C492D30
(1502932525.953030) vcan0 284#1DBA30127A38460F
(1502932525.963224) vcan0 284#EBEB155FC979E818
(1502932525.973393) vcan0 284#183E692D0F189817
(1502932525.983609) vcan0 284#AF61675DB7E29768
(1502932525.993801) vcan0 284#DF7EC902FB7E133D
(1502932526.003922) vcan0 284#25E4B941AB92AF22
(1502932526.014162) vcan0 284#58327F14768B024F
(1502932526.024371) vcan0 284#7BAA9C39448B3F1E
(1502932526.034493) vcan0 284#959D43535B4F901F
(1502932526.044728) vcan0 284#B1DB74482B2A4528
(1502932526.054939) vcan0 284#7431D72AE26D2134
(1502932526.065060) vcan0 284#966C1246AD473169
(1502932526.075264) vcan0 284#99FD86450AAA8D65
(1502932526.085454) vcan0 284#EEBB1C4459B38F02
(1502932526.095572) vcan0 284#CE41ED74B984A906
(1502932526.105817) vcan0 284#65FCBC32EBFB1D07
(1502932526.116032) vcan0 284#34BDEF1551E8D211
(1502932526.126210) vcan0 284#B57506204CFB5843
(1502932526.136473) vcan0 284#60006B2964D76D7D
(1502932526.146687) vcan0 284#03DEF02B3F7F342C
(1502932526.156881) vcan0 284#6056813A28C2AA6D
(1502932526.167149) vcan0 284#EA11E44EB888004F
(1502932526.177367) vcan0 284#9F4DAD3C65BC8008
(1502932526.187487) vcan0 284#FC13406D34EBF00F
(1502932526.197736) vcan0 284#C10B1128AEEFB435
(1502932526.207955) vcan0 284#5F153638353DE852
(1502932526.218141) vcan0 284#905DD669F581487E
(1502932526.228413) vcan0 284#E284193C295B5D2F
(1502932526.238636) vcan0 284#FF2BD663D0403600
(1502932526.248757) vcan0 284#830EED31CD6DC358
(1502932526.259006) vcan0 284#8AC5DF06E80AAA64
(1502932526.269228) vcan0 284#B869E15FBE82CF1C
(1502932526.279351) vcan0 284#39F37C766DDFE77F
(1502932526.289602) vcan0 284#0A7E28609AF3E71F
(1502932526.299819) vcan0 284#D2B6557D0D5C190C
(1502932526.309940) vcan0 284#D9721C4C320DD737
(1502932526.320187) vcan0 284#361EC479C484001B
(1502932526.330399) vcan0 284#EA95D706D56B7136
(1502932526.340522) vcan0 284#29418123E6A91774
(1502932526.350770) vcan0 284#09576246EA4C924B
(1502932526.360974) vcan0 284#9499CC29686C987E
(1502932526.371096) vcan0 284#1F8A7A1E24F7A213
(1502932526.381348) vcan0 284#5DEEE07C020F945A
(1502932526.391563) vcan0 284#4E5200435C1AB760
(1502932526.401689) vcan0 284#D24FCA5AD160ED74
(1502932526.411942) vcan0 284#29887A395C15AA61
(1502932526.422150) vcan0 284#B96B9759E1F15B19
(1502932526.432274) vcan0 284#1A98797EF35E1450
(1502932526.442522) vcan0 284#4FD143192416A25E
(1502932526.452747) vcan0 284#8D52FC6F21889916
(1502932526.462947) vcan0 284#3272BB6A66C5183C
(1502932526.473192) vcan0 284#5395704E68907F64
(1502932526.483422) vcan0 284#2A4A19573D2B4855
(1502932526.493545) vcan0 284#3DFCF01A548B9A7A
(1502932526.503765) vcan0 284#23D55F4946535361
(1502932526.513983) vcan0 284#3ED82C46B86E2C73
(1502932526.524184) vcan0 284#AEBFEB5F5E62A764
(1502932526.534441) vcan0 284#DC65CF060BAECC5C
(1502932526.544659) vcan0 284#60713B3F2AB8CF49
(1502932526.554829) vcan0 284#67C8833D32C1051A
(1502932526.565077) vcan0 284#FB18BD3E9050FE76
(1502932526.575301) vcan0 284#8FD6AF7BB5845418
(1502932526.585480) vcan0 284#71425A10A96E297A
(1502932526.595738) vcan0 284#A8E36868C0139E29
(1502932526.605943) vcan0 284#CE84CB5835366558
(1502932526.616089) vcan0 284#E19B374000F78643
(1502932526.626351) vcan0 284#9BFB7D143431A80E
(1502932526.636801) vcan0 284#68870628C645976B
(1502932526.647040) vcan0 284#715CF063A583F742
(1502932526.657332) vcan0 284#1AD131669531502D
(1502932526.667752) vcan0 284#EBD64A2458A95E2C
(1502932526.678018) vcan0 284#4DA07C2099963604
(1502932526.688277) vcan0 284#B60B061129064C27
(1502932526.698706) vcan0 284#A4440361167D4150
(1502932526.708943) vcan0 284#54BE1B710B0D871E
(1502932526.719203) vcan0 284#493E476A4FD7D82F
(1502932526.729552) vcan0 284#9B5D8515D814F765
(1502932526.739828) vcan0 284#045C2D480CA0DF25
(1502932526.750087) vcan0 284#81832060AC3F9630
(1502932526.760366) vcan0 284#CDB37D4F4F08EC38
(1502932526.770614) vcan0 284#E175FB08AE4FB50F
(1502932526.780902) vcan0 284#4FFF727C7D71791D
(1502932526.791264) vcan0 284#E3805D1EB7867924
(1502932526.801472) vcan0 284#43B7100954DD4D02
(1502932526.811759) vcan0 284#5C0A71675D88426F
(1502932526.822060) vcan0 284#E90E9E2F47E1BB0B
(1502932526.832256) vcan0 284#B531A11B36AF1A50
(1502932526.842543) vcan0 284#E077F20F6C3DA72C
(1502932526.852982) vcan0 284#60B5667784BCF570
(1502932526.863270) vcan0 284#82BAE87CB4738268
(1502932526.873538) vcan0 284#8FC97C0FCBF82F67
(1502932526.883944) vcan0 284#034B5B182A270225
(1502932526.894265) vcan0 284#A30D274D08A78860
