(1502932481.338837) vcan0 284#6883E23C08E01D54
(1502932481.439117) vcan0 284#4CDE1C1EBC85AF63
(1502932481.539381) vcan0 284#2743336109936715
(1502932481.639642) vcan0 284#942D4114AA1BCA53
(1502932481.739906) vcan0 284#FE5838752D72A250
(1502932481.840173) vcan0 284#B793C0535E7DAC7C
(1502932481.940448) vcan0 284#C74CD24F53724B25
(1502932482.040715) vcan0 284#F38D383CB624B82B
(1502932482.140991) vcan0 284#5CF49F6010702870
(1502932482.241256) vcan0 284#12BB22511476EF47
(1502932482.341523) vcan0 284#56909404302B3306
(1502932482.441796) vcan0 284#ADE23F63811E3910
(1502932482.542064) vcan0 284#B0A4F71625719E63
(1502932482.642328) vcan0 284#F117AD4F5D51C92F
(1502932482.742587) vcan0 284#688EF31245CFFE21
(1502932482.842899) vcan0 284#E41F0542D011D64F
(1502932482.943172) vcan0 284#4DAF1C7631FE2160
(1502932483.043437) vcan0 284#8D97853374F24F57
(1502932483.143710) vcan0 284#3A91897521C5C647
(1502932483.243981) vcan0 284#1E0E1A2B38EAC16A
(1502932483.344245) vcan0 284#4F376918D5A1DA7E
(1502932483.444515) vcan0 284#96676E6716843B68
(1502932483.544781) vcan0 284#2914262489F5A623
(1502932483.645065) vcan0 284#CDA8F3138508C604
(1502932483.745330) vcan0 284#9965CF13DF631665
(1502932483.845595) vcan0 284#9A7EB54CEFF56318
(1502932483.945860) vcan0 284#0F8F496B4761F52F
(1502932484.046129) vcan0 284#71149D28C0334102
(1502932484.146395) vcan0 284#6DD29313622C4A78
(1502932484.246670) vcan0 284#1D850A32D5608726
(1502932484.346942) vcan0 284#A7FB481A01A50F74
(1502932484.447216) vcan0 284#A5725D76F4AA6510
(1502932484.547482) vcan0 284#32A33154320AE329
(1502932484.647755) vcan0 284#689DB5676C34BB49
(1502932484.748031) vcan0 284#54CFA97186ABCF12
(1502932484.848304) vcan0 284#A41E7D34A306130A
(1502932484.948579) vcan0 284#5B4DAA113A86EB1B
(1502932485.048859) vcan0 284#B98A4E728461D035
(1502932485.149131) vcan0 284#C37B923F86334206
(1502932485.249411) vcan0 284#0A6A963A5CE16153
(1502932485.349690) vcan0 284#6697586BA4E84B07
(1502932485.449971) vcan0 284#4CD7C56B7526A256
(1502932485.550241) vcan0 284#EB494137BDEB6214
(1502932485.650505) vcan0 284#355AE358581CD54A
(1502932485.750767) vcan0 284#1F18AD0C52DFED0A
(1502932485.851031) vcan0 284#2D7D5C71C613F626
(1502932485.951298) vcan0 284#5484FD7ED3EFB967
(1502932486.051557) vcan0 284#BABE5B3786272F53
(1502932486.151830) vcan0 284#05FA9C11225C111F
(1502932486.252101) vcan0 284#F35BEA1C59C94603
(1502932486.352378) vcan0 284#A807E131977A6751
(1502932486.452649) vcan0 284#FCCF590D03558B43
(1502932486.553007) vcan0 284#D200536DB65AA87F
(1502932486.653279) vcan0 284#88B65B79957CE52C
(1502932486.753566) vcan0 284#3C8EEA059220F233
(1502932486.853824) vcan0 284#F25D4700A2254371
(1502932486.954089) vcan0 284#36093E3B3E350D6C
(1502932487.054332) vcan0 284#184CE54721537F72
(1502932487.154600) vcan0 284#FB2070004DA6C820
(1502932487.254871) vcan0 284#7A6F543D1A391D0D
(1502932487.355144) vcan0 284#A085B62BA7ECB02E
(1502932487.455426) vcan0 284#E04C1334F409B42A
(1502932487.555689) vcan0 284#7ADC6A169A0B6F6B
(1502932487.655950) vcan0 284#7A31E37D80D60728
(1502932487.756220) vcan0 284#BC67800A6D8DCD1A
(1502932487.856502) vcan0 284#D99F4E2B646F613C
(1502932487.956790) vcan0 284#0508356CD66FA838
(1502932488.057062) vcan0 284#67C4EC7FD7088859
(1502932488.157332) vcan0 284#8CCA5038EF7A4879
(1502932488.257613) vcan0 284#6C856D06C8583B3E
(1502932488.357894) vcan0 284#819B3A2D5EE3B406
(1502932488.458179) vcan0 284#6B7E7E2FB7A47868
(1502932488.558458) vcan0 284#9C18C27283CA6377
(1502932488.658732) vcan0 284#D9F7F75A97393273
(1502932488.759003) vcan0 284#D0702C1853674C18
(1502932488.859284) vcan0 284#B1724F0070F6E243
(1502932488.959561) vcan0 284#FA53FD4691BF6234
(1502932489.059827) vcan0 284#6400976E7530685D
(1502932489.160093) vcan0 284#2BCBD11FDF317A6C
(1502932489.260364) vcan0 284#F5067005E732522A
(1502932489.360642) vcan0 284#4CBF4707CEA6BE30
(1502932489.460923) vcan0 284#4BA2B36651C77C73
(1502932489.561204) vcan0 284#A4166769B366A066
(1502932489.661484) vcan0 284#28D0044D30E1B721
(1502932489.761765) vcan0 284#A2E1E85F95557253
(1502932489.862052) vcan0 284#F939F35F247D230D
(1502932489.962328) vcan0 284#F338275A64B8710F
(1502932490.062610) vcan0 284#DB219C759051E94C
(1502932490.162950) vcan0 284#E782D506B4199450
(1502932490.263230) vcan0 284#278B1B40B7F3011F
(1502932490.363527) vcan0 284#0781E068D9FD6A40
(1502932490.463821) vcan0 284#28EAE46202D5DD2F
(1502932490.564089) vcan0 284#6ABDCD748CEA7B51
(1502932490.664370) vcan0 284#7705460D96889F14
(1502932490.764664) vcan0 284#6B1CF63D6C0CB612
(1502932490.864943) vcan0 284#7DBBF13EB8DB3D45
(1502932490.965217) vcan0 284#3AB37443C95DA525
(1502932491.065494) vcan0 284#09A3BA38DFC9DB2C
(1502932491.165777) vcan0 284#7CC4450C3273BF05
(1502932491.266060) vcan0 284#0FAB934E1EA62E6C
