(1502935093.413215) vcan0 284#544432355A3E7904
(1502935093.423402) vcan0 284#7690D8288A821D1D
(1502935093.433696) vcan0 284#AAECC5260DE1CF73
(1502935093.443933) vcan0 284#5F37BD1DDF41E647
(1502935093.454133) vcan0 284#F25F8F31BDB0791D
(1502935093.464356) vcan0 284#C4ACCA0615DDD25D
(1502935093.474477) vcan0 284#B6486E03D27FE34E
(1502935093.484661) vcan0 284#1104D240CD4E3F59
(1502935093.494873) vcan0 284#66C8017A29C5FD0E
(1502935093.504980) vcan0 284#BCA64A522C83A265
(1502935093.515162) vcan0 284#3BBAD45C195B1A6C
(1502935093.525336) vcan0 284#EB828F1FCF04926C
(1502935093.535453) vcan0 284#1FC7A4779A12301D
(1502935093.545634) vcan0 284#F2E8FF03B1938C1B
(1502935093.555835) vcan0 284#7A25E54E2FE3D875
(1502935093.565955) vcan0 284#18616545CE691704
(1502935093.576138) vcan0 284#8921527A8FF13D6E
(1502935093.586325) vcan0 284#58EC3421340E1821
(1502935093.596447) vcan0 284#9CD20D62B823F23E
(1502935093.606626) vcan0 284#1350FE688F329D13
(1502935093.616831) vcan0 284#75D46B5CD7FCC86F
(1502935093.627001) vcan0 284#A40F70712C1DDA5F
(1502935093.637202) vcan0 284#AA7CAC3EB5134232
(1502935093.647411) vcan0 284#F96B19391045AE38
(1502935093.657539) vcan0 284#DED83F41B612640B
(1502935093.667723) vcan0 284#3CC8501E1993141E
(1502935093.677923) vcan0 284#CF6D7E77274BE03D
(1502935093.688108) vcan0 284#E997A60AEE34236F
(1502935093.698305) vcan0 284#C15D105BDB80A60E
(1502935093.708509) vcan0 284#9FC8AF0A3B83F529
(1502935093.718634) vcan0 284#0A647F04B7291550
(1502935093.728826) vcan0 284#09ED0C2E9485D17E
(1502935093.739036) vcan0 284#461B533E62D9414F
(1502935093.749160) vcan0 284#C893E91FE3ED6020
(1502935093.759405) vcan0 284#1AFD330EDBE3E708
(1502935093.769609) vcan0 284#7220FE338FD19F6A
(1502935093.779760) vcan0 284#B3E0B07816306E25
(1502935093.789965) vcan0 284#BBEE794A5D5D5D37
(1502935093.800173) vcan0 284#CB43B057B55A9303
(1502935093.810295) vcan0 284#6DA20B70A91CF018
(1502935093.820481) vcan0 284#6B6DF70EA96A5C0E
(1502935093.830684) vcan0 284#C2AF04373ADB7506
(1502935093.840813) vcan0 284#D0B53C4CAB47AB41
(1502935093.850999) vcan0 284#2810997592134D27
(1502935093.861200) vcan0 284#87C85150C7D84800
(1502935093.871370) vcan0 284#CD964251912CD154
(1502935093.881565) vcan0 284#7E025E50D7834F7F
(1502935093.891767) vcan0 284#25B2A253C51DB10E
(1502935093.901894) vcan0 284#395D914EED458C73
(1502935093.912077) vcan0 284#A80B122F535AC55C
(1502935093.922324) vcan0 284#C929747C1A2C1063
(1502935093.932567) vcan0 284#E22B65477C0A2575
(1502935093.942797) vcan0 284#305C7E089E1ADF11
(1502935093.953080) vcan0 284#D967822CFB9F2E60
(1502935093.963392) vcan0 284#53757215460A8E1C
(1502935093.973624) vcan0 284#A4BC1E79BEE26924
(1502935093.983899) vcan0 284#EF74EA2A666C2330
(1502935093.994203) vcan0 284#F8BDDF2ABF2A2777
(1502935094.004445) vcan0 284#12B4CE7120CE7820
(1502935094.014713) vcan0 284#513E741E997C2042
(1502935094.024974) vcan0 284#E7A6C1201FD5B66F
(1502935094.035204) vcan0 284#2AA9F11665A91F71
(1502935094.045479) vcan0 284#F658066F505B946A
(1502935094.055759) vcan0 284#2AC7D07F2FB6973D
(1502935094.066002) vcan0 284#3DA1205ED2D2E22E
(1502935094.076277) vcan0 284#82105D1A06CB945A
(1502935094.086539) vcan0 284#ECFEF211643CC261
(1502935094.096772) vcan0 284#82D5B94F1C5B711A
(1502935094.107042) vcan0 284#0257A1735B3D3C7C
(1502935094.117316) vcan0 284#17FB9F7A55CC1309
(1502935094.127572) vcan0 284#A147CA18BBB7BE73
(1502935094.137851) vcan0 284#13AF7D2D90BCB443
(1502935094.148123) vcan0 284#2224E2230B6D5D58
(1502935094.158410) vcan0 284#50E7DB3A34D8B015
(1502935094.168710) vcan0 284#2B3BD678A1255059
(1502935094.178986) vcan0 284#CD54D15712E29719
(1502935094.189254) vcan0 284#C0FA0649F7FDC26E
(1502935094.199533) vcan0 284#788BB70AB6530D38
(1502935094.209815) vcan0 284#47595759A252880A
(1502935094.220045) vcan0 284#E509A57585FA7737
(1502935094.230365) vcan0 284#75256B39671A0210
(1502935094.240679) vcan0 284#8BC50C1261245E4B
(1502935094.250925) vcan0 284#CC56C4710E9BC661
(1502935094.261203) vcan0 284#7E7FCF65CEAD6565
(1502935094.271519) vcan0 284#69D8025E957A6F60
(1502935094.281769) vcan0 284#247A796E0B20CD76
(1502935094.292016) vcan0 284#51322E543729F71B
(1502935094.302328) vcan0 284#9BDC813A73561078
(1502935094.312592) vcan0 284#43965474EBC35D75
(1502935094.322970) vcan0 284#A72EC10D6ED12A6D
(1502935094.333244) vcan0 284#8DE9AD4E74839265
(1502935094.343482) vcan0 284#81B3C2064DE4B417
(1502935094.353760) vcan0 284#6B815554F93E7A11
(1502935094.364039) vcan0 284#0438C24FB3DAAC2D
(1502935094.374309) vcan0 284#9B91021CE9416745
(1502935094.384642) vcan0 284#38D5246510B76D55
(1502935094.394956) vcan0 284#515C6955C39A3177
(1502935094.405201) vcan0 284#72DBCB201DB32D47
(1502935094.415462) vcan0 284#D135F858F05A9B06
(1502935094.425762) vcan0 284#EB60932C3B0EFB36
