(1502935100.869810) vcan0 284#729A7876FF65853B
(1502935100.880154) vcan0 284#4662DF14E93E1E67
(1502935100.890498) vcan0 284#0A9A7A7F8B98D601
(1502935100.900709) vcan0 284#4CC9897BCA6B2E64
(1502935100.910917) vcan0 284#4287302D9BABA329
(1502935100.921044) vcan0 284#D6A48F659BB67A7A
(1502935100.931268) vcan0 284#21EA864E1CDE9125
(1502935100.941571) vcan0 284#39583769349E401F
(1502935100.951803) vcan0 284#1CF5BF665234C305
(1502935100.962016) vcan0 284#769EA5428C88BA4C
(1502935100.972234) vcan0 284#E97A181B2EB90F34
(1502935100.982487) vcan0 284#A95F045C017C5841
(1502935100.992722) vcan0 284#1CAEDB439E3A3813
(1502935101.002969) vcan0 284#D2E7D75561AC9521
(1502935101.013171) vcan0 284#807E660A3F4C482B
(1502935101.023349) vcan0 284#23F8147BF318DF00
(1502935101.033540) vcan0 284#3EB2CD666A5AF40F
(1502935101.043660) vcan0 284#DC57FD67494C4866
(1502935101.053835) vcan0 284#F5F2CA1128218763
(1502935101.064048) vcan0 284#13B8764A377AFB3E
(1502935101.074174) vcan0 284#C3CC2A0DE95C0630
(1502935101.084360) vcan0 284#D3307639E4B6B15B
(1502935101.094561) vcan0 284#053B98550C89AD22
(1502935101.104689) vcan0 284#1955F27A2230583C
(1502935101.114871) vcan0 284#5EBD70288FF3973D
(1502935101.125071) vcan0 284#AEB8120947388943
(1502935101.135254) vcan0 284#BDACA77157181765
(1502935101.145458) vcan0 284#48B4E104D95A8335
(1502935101.155663) vcan0 284#F5524F781A9CB95A
(1502935101.165784) vcan0 284#3B07195775D1B502
(1502935101.175967) vcan0 284#59E801065EFF2D52
(1502935101.186172) vcan0 284#68EA9403989ACF6C
(1502935101.196283) vcan0 284#C85922624542926B
(1502935101.206453) vcan0 284#E1E61753BD4CED73
(1502935101.216648) vcan0 284#6D63194FF49E8E1D
(1502935101.226819) vcan0 284#F5C6E8323130445C
(1502935101.237027) vcan0 284#DDFB944DC8F75E6C
(1502935101.247232) vcan0 284#15E7F537E2362D23
(1502935101.257354) vcan0 284#D4800C0F2E3CE832
(1502935101.267548) vcan0 284#0467855F323E7D37
(1502935101.277752) vcan0 284#BD2F8070B21F9868
(1502935101.287916) vcan0 284#7976067B7BDC2762
(1502935101.298109) vcan0 284#0938AF4DC12AE87F
(1502935101.308309) vcan0 284#5437AB17FE8AFE45
(1502935101.318433) vcan0 284#DBC6A15A8F3EC46E
(1502935101.328626) vcan0 284#745CB44835AFA360
(1502935101.338833) vcan0 284#EE3DF240DC46494C
(1502935101.348956) vcan0 284#CD49734DB6971423
(1502935101.359137) vcan0 284#2189DB37AE308B20
(1502935101.369336) vcan0 284#74E401178FECF406
(1502935101.379464) vcan0 284#A2CF193E69ABEA49
(1502935101.389672) vcan0 284#C01C39637FCBAE0B
(1502935101.399865) vcan0 284#31A34936D5032F1B
(1502935101.409985) vcan0 284#6102DC2E05245645
(1502935101.420157) vcan0 284#0440174E6669610E
(1502935101.430358) vcan0 284#3762D37CC16F973E
(1502935101.440537) vcan0 284#1889F976B0D8D977
(1502935101.450737) vcan0 284#3C4CBF2022C1A844
(1502935101.460937) vcan0 284#7103C27791836A38
(1502935101.471059) vcan0 284#204CA70A4CCA6352
(1502935101.481246) vcan0 284#20C22E2794A85B53
(1502935101.491449) vcan0 284#817907330E002168
(1502935101.501596) vcan0 284#71EFA41F4EC37A00
(1502935101.511784) vcan0 284#C597350B92788057
(1502935101.521987) vcan0 284#FCF30521397C3722
(1502935101.532156) vcan0 284#2165755E9EC31F5F
(1502935101.542372) vcan0 284#A227226CE181AE41
(1502935101.552574) vcan0 284#1D8FCE6AD3CA6B22
(1502935101.562699) vcan0 284#B785DD5C7F91AA19
(1502935101.572951) vcan0 284#D8EEC167BBC5F42A
(1502935101.583151) vcan0 284#E5FA0B280F519564
(1502935101.593275) vcan0 284#7C358C69FD83051F
(1502935101.603439) vcan0 284#BF296F5CB9814B0A
(1502935101.613749) vcan0 284#1F45AE63302D3154
(1502935101.624036) vcan0 284#4A05B6424091556E
(1502935101.634301) vcan0 284#7CF794266AC7E469
(1502935101.644567) vcan0 284#D439B141FE709C59
(1502935101.654836) vcan0 284#79C7055245295661
(1502935101.665068) vcan0 284#4C34175A3E5F3B5D
(1502935101.675395) vcan0 284#D8A1D63849281D7B
(1502935101.685650) vcan0 284#77DB727FF9064C17
(1502935101.695884) vcan0 284#E7EB3C5A1903956B
(1502935101.706152) vcan0 284#DB88FA58057B0B45
(1502935101.716433) vcan0 284#ECCD000E920ED835
(1502935101.726682) vcan0 284#840CB65EC4BCC275
(1502935101.737002) vcan0 284#4DD4CC606907C206
(1502935101.747323) vcan0 284#D30D585AC909594A
(1502935101.757571) vcan0 284#668BC7259237C736
(1502935101.767882) vcan0 284#828BA45486D07509
(1502935101.778168) vcan0 284#C264F80ACC905A17
(1502935101.788432) vcan0 284#C661CB773E5C8D31
(1502935101.798705) vcan0 284#37583F019A9B7C39
(1502935101.808903) vcan0 284#3CCD290BB01F4553
(1502935101.819104) vcan0 284#E0C4D21A89014165
(1502935101.829302) vcan0 284#EE7E8030B866A953
(1502935101.839471) vcan0 284#D2295E60655AF32F
(1502935101.849605) vcan0 284#B16DF56AB9159B3A
(1502935101.859707) vcan0 284#7E5D881B8CF6EF43
(1502935101.869965) vcan0 284#BE90A67F6A2B8929
(1502935101.880230) vcan0 284#1E05C879429D5C5E
