(1502931898.866379) vcan0 284#B0416E6662795972
(1502931898.876693) vcan0 284#FBC2AC55AD2AE254
(1502931898.886884) vcan0 284#B774AD65B40F9729
(1502931898.897153) vcan0 284#8E4C5917A8A75A27
(1502931898.907405) vcan0 284#17AEAF58DCECC130
(1502931898.917561) vcan0 284#33E61129B0E51E78
(1502931898.927965) vcan0 284#8FBEB139C4B0926A
(1502931898.938199) vcan0 284#2B7B66099D115938
(1502931898.948360) vcan0 284#F29B2675D636847D
(1502931898.958642) vcan0 284#CC3E2F4CDEBF8865
(1502931898.968848) vcan0 284#34D7FE1ECC3C6131
(1502931898.978961) vcan0 284#1D09904C3791E618
(1502931898.989275) vcan0 284#0053166AB262137B
(1502931898.999493) vcan0 284#62D0532916936C1C
(1502931899.009611) vcan0 284#B5C8424F4AB19072
(1502931899.019968) vcan0 284#DF970239650AB135
(1502931899.030159) vcan0 284#AC2AEA64DB5AAF0E
(1502931899.040352) vcan0 284#1335930A639F974A
(1502931899.050738) vcan0 284#8F6A4638A181EC21
(1502931899.060935) vcan0 284#0B47F271A618F610
(1502931899.071044) vcan0 284#7E6EAE523F2D041B
(1502931899.081385) vcan0 284#56FE14090D2D600C
(1502931899.091596) vcan0 284#03DE960581797B12
(1502931899.101710) vcan0 284#AA3EB944F579BD7A
(1502931899.112027) vcan0 284#58B0FF0F777DE810
(1502931899.122255) vcan0 284#D33946608C87FE2E
(1502931899.132367) vcan0 284#43BA4942F042D62C
(1502931899.142607) vcan0 284#C318E547430D602C
(1502931899.152876) vcan0 284#A3A5E92726E93871
(1502931899.162995) vcan0 284#59A0CC48586E2C77
(1502931899.173329) vcan0 284#709AC9633938CF01
(1502931899.183514) vcan0 284#BE78DD2C1CC5B348
(1502931899.193679) vcan0 284#14937E10D1AD7037
(1502931899.204038) vcan0 284#80644B13A3FDC448
(1502931899.214258) vcan0 284#722F5D598BAB3D05
(1502931899.224417) vcan0 284#4916BB59F09D0B2C
(1502931899.238126) vcan0 284#CAD841209F14D062
(1502931899.248400) vcan0 284#FECA6B38CDB6D825
(1502931899.258616) vcan0 284#208E4B75A809257D
(1502931899.268875) vcan0 284#C2309620783E4B05
(1502931899.279142) vcan0 284#1F870D0E956ADC00
(1502931899.289357) vcan0 284#04C6493463415750
(1502931899.299646) vcan0 284#86ADB22DC8DE2E7C
(1502931899.309931) vcan0 284#A64EB77C29539C55
(1502931899.320163) vcan0 284#EEC7676D00EF8345
(1502931899.330419) vcan0 284#81C1C84C5E623151
(1502931899.340688) vcan0 284#392753473F3AA679
(1502931899.350942) vcan0 284#7A27E5194DBAD157
(1502931899.361211) vcan0 284#10E81631FA8B302D
(1502931899.371483) vcan0 284#F0B796208317740A
(1502931899.381705) vcan0 284#86376E3239CE517A
(1502931899.391964) vcan0 284#73B57F365010B052
(1502931899.402259) vcan0 284#D8E2215D7180EB6E
(1502931899.412494) vcan0 284#1EC78878F8706D52
(1502931899.422760) vcan0 284#1A8A106CE0F71E19
(1502931899.432968) vcan0 284#71AFB85739111E7A
(1502931899.443175) vcan0 284#7662FB197575020C
(1502931899.453396) vcan0 284#9C52754AFC0FAE47
(1502931899.463520) vcan0 284#3D54310843A12C47
(1502931899.473689) vcan0 284#25634A1D2B1C9975
(1502931899.483876) vcan0 284#4390B00CA624136A
(1502931899.494062) vcan0 284#897ECA467CB70354
(1502931899.504259) vcan0 284#E65EB96304A6AF60
(1502931899.514450) vcan0 284#C971D52BF646D014
(1502931899.524566) vcan0 284#FE31E00DB9296C4C
(1502931899.534735) vcan0 284#795E441F84694E40
(1502931899.544933) vcan0 284#F2F7BD46ED13C455
(1502931899.555085) vcan0 284#D579FE12CADADF23
(1502931899.565266) vcan0 284#5E94AF44F340870B
(1502931899.575458) vcan0 284#C24B4D76781EC030
(1502931899.585573) vcan0 284#D338A62433FB054E
(1502931899.595774) vcan0 284#B22FDE2A499BA13E
(1502931899.605978) vcan0 284#A970085A4E825375
(1502931899.616097) vcan0 284#45AB4F06E6C43962
(1502931899.626267) vcan0 284#9123803C6A0E9A23
(1502931899.636463) vcan0 284#12E1D257D4B33049
(1502931899.646637) vcan0 284#1133AD0D9B5F9D1E
(1502931899.656823) vcan0 284#506B341DF7916671
(1502931899.667020) vcan0 284#9F054D7F19DD0949
(1502931899.677136) vcan0 284#EDD836069E372D0D
(1502931899.687306) vcan0 284#D206761567377B25
(1502931899.697532) vcan0 284#22A17B4DC4FE335C
(1502931899.707656) vcan0 284#544B3F7BF71A7A60
(1502931899.717824) vcan0 284#8ED91300B2DFEE3F
(1502931899.728018) vcan0 284#EA5B016C51256176
(1502931899.738133) vcan0 284#2BFEAE70BE94A710
(1502931899.748309) vcan0 284#84206744DD2D8D1B
(1502931899.758507) vcan0 284#0730494F2D916F1E
(1502931899.768641) vcan0 284#2BB0E0104DDB9855
(1502931899.778820) vcan0 284#1456A900BDD3604D
(1502931899.789014) vcan0 284#B7E9327926377C58
(1502931899.799192) vcan0 284#91879116C81CE006
(1502931899.809388) vcan0 284#C1961977E2F2C533
(1502931899.819586) vcan0 284#BFAE4678619C6676
(1502931899.829704) vcan0 284#FBCFCF7CAD877D7E
(1502931899.839870) vcan0 284#FFD39303CED64512
(1502931899.850211) vcan0 284#14BFF82321750F51
(1502931899.860412) vcan0 284#92D5796E680A381F
(1502931899.870598) vcan0 284#1990893121AF8D6E
(1502931899.880975) vcan0 284#1AEA265F03EC8A1D
(1502931899.891262) vcan0 284#72D4EE6445E8D54F
(1502931899.901481) vcan0 284#C180322EF6F45529
(1502931899.911655) vcan0 284#2216636BC9B07B7D
(1502931899.921788) vcan0 284#2486C5474EC6437C
(1502931899.931971) vcan0 284#168C145338DC6E48
(1502931899.942151) vcan0 284#0B9AA449CD75474C
(1502931899.952302) vcan0 284#5E13EB209C213660
(1502931899.962492) vcan0 284#969227531FAA0418
(1502931899.972686) vcan0 284#7E14FC1355416E4B
(1502931899.982806) vcan0 284#80466B0E7AE4CB10
(1502931899.992977) vcan0 284#02C9EB497F1AFF11
(1502931900.003201) vcan0 284#48BB11231688E46D
(1502931900.013324) vcan0 284#A18F0E63DA908B11
(1502931900.023482) vcan0 284#7E921C0DBA1F9814
(1502931900.033665) vcan0 284#FB3F1900997C436C
(1502931900.043833) vcan0 284#BD0B23326D140865
(1502931900.054021) vcan0 284#DE64193C7F8C5560
(1502931900.064194) vcan0 284#64095E0E017B7C27
(1502931900.074306) vcan0 284#483DD15D888F2356
(1502931900.084475) vcan0 284#4F41C0235EC9E530
(1502931900.094663) vcan0 284#C06B921E5ADB646D
(1502931900.104848) vcan0 284#2B3F2D7D1E7F7D3F
(1502931900.115024) vcan0 284#F6FC9A4DC1D15450
(1502931900.125231) vcan0 284#3D29825775119761
(1502931900.135416) vcan0 284#1713C31BBE6FED65
(1502931900.145630) vcan0 284#EFF5627219DCAE65
(1502931900.155895) vcan0 284#3D8AEC7737B17415
(1502931900.166158) vcan0 284#30649353DE19FB5A
(1502931900.176375) vcan0 284#11420027AEF6AF60
(1502931900.186632) vcan0 284#9839936F0D821927
(1502931900.196847) vcan0 284#4773F34C5645B621
(1502931900.207119) vcan0 284#7A96210C26D80C09
(1502931900.217402) vcan0 284#D5D10B02DE9F7F1A
(1502931900.227675) vcan0 284#275389301D0FDD5F
(1502931900.237898) vcan0 284#662FA37076944954
(1502931900.248194) vcan0 284#7BD8C210269B350F
(1502931900.258475) vcan0 284#D06FAE41A617F00D
(1502931900.268677) vcan0 284#441AB34EC66C490F
(1502931900.278934) vcan0 284#68E9445E82433526
(1502931900.289195) vcan0 284#3B7EE0707FFC077A
(1502931900.299479) vcan0 284#40B3220C2A744363
(1502931900.309750) vcan0 284#98D8B65F7D3D0F04
(1502931900.320014) vcan0 284#6125B878C83C4A33
(1502931900.330239) vcan0 284#5C570A5F7367B81F
(1502931900.340471) vcan0 284#7733FA13F4909D4E
(1502931900.350652) vcan0 284#80E9D146BEA6ED60
(1502931900.360847) vcan0 284#4AD65370FA7FF352
(1502931900.371043) vcan0 284#E47EFA691FA85F72
(1502931900.381168) vcan0 284#D91F736D0BD2831A
(1502931900.391333) vcan0 284#3CB73C523F4F165E
(1502931900.401521) vcan0 284#8166CD6EB78FFF62
(1502931900.411647) vcan0 284#66EA4B6D51D67B30
(1502931900.421830) vcan0 284#5EA7EF70AA04FF3B
(1502931900.432023) vcan0 284#1843C53FC690344F
(1502931900.442189) vcan0 284#2C48346253C1A530
(1502931900.452382) vcan0 284#458D3C496CFB566E
(1502931900.462579) vcan0 284#7E35E913DD65F328
(1502931900.472697) vcan0 284#EA386672DF5AA10C
(1502931900.482924) vcan0 284#A6A23D5C46907051
(1502931900.493125) vcan0 284#52C2592C1DD63770
(1502931900.503322) vcan0 284#3A210E20D2AB2B73
(1502931900.513512) vcan0 284#DB7C255185F76110
(1502931900.523711) vcan0 284#CD2B1F46C0FB1F3B
(1502931900.533833) vcan0 284#A49FC102A64B9233
(1502931900.543997) vcan0 284#CBCDA355E156FE54
(1502931900.554205) vcan0 284#E59AA8114D347144
(1502931900.564397) vcan0 284#98E6FD374B85F47E
(1502931900.574563) vcan0 284#9E0AED74F68DED28
(1502931900.584751) vcan0 284#F689F33AB64DB234
(1502931900.594866) vcan0 284#BC1E227822D2271D
(1502931900.605062) vcan0 284#0A0F586501AC5E41
(1502931900.615254) vcan0 284#8FCD7E0B88444179
(1502931900.625372) vcan0 284#DF11526A7906E57D
(1502931900.635560) vcan0 284#679FE20585B48F46
(1502931900.645740) vcan0 284#BF96554FBA613C32
(1502931900.655917) vcan0 284#A28AC736F9B7636F
(1502931900.669699) vcan0 284#8C0D68257D07ED07
(1502931900.679906) vcan0 284#7EAFC57F5939876B
(1502931900.690028) vcan0 284#3D030D43234F8702
(1502931900.700309) vcan0 284#FF84191F09D1B018
(1502931900.710554) vcan0 284#04A68557E51FC230
(1502931900.720673) vcan0 284#5605225D9C8C830F
(1502931900.730957) vcan0 284#30A5B62FF40F0F52
(1502931900.741163) vcan0 284#931A7138262FAA6A
(1502931900.751339) vcan0 284#AB5DC1064F399330
(1502931900.761640) vcan0 284#4901D207B56C196C
(1502931900.771865) vcan0 284#51E5F171D8CE5013
(1502931900.781989) vcan0 284#3DB15A6530F7435C
(1502931900.792242) vcan0 284#51D53511A4503D6B
(1502931900.802452) vcan0 284#B5ABD322106C8B60
(1502931900.812577) vcan0 284#5EB2791D57369B59
(1502931900.822928) vcan0 284#0924EF4FEBBFE142
(1502931900.833147) vcan0 284#D43D886188D3B44F
(1502931900.843271) vcan0 284#44F9682E12419524
(1502931900.853517) vcan0 284#AB223C52447E824D
(1502931900.863757) vcan0 284#1B12463DAFC8C129
(1502931900.873877) vcan0 284#299E447E7117681A
(1502931900.884108) vcan0 284#4B5545395943FB2D
(1502931900.894304) vcan0 284#6527776CDE6FB671
(1502931900.904512) vcan0 284#8072A51810853873
(1502931900.914804) vcan0 284#2EA94922C9737720
(1502931900.925026) vcan0 284#C5F1515F7F8E3B14
(1502931900.935152) vcan0 284#A142C83302A3AC44
(1502931900.945473) vcan0 284#AF857F70F217FE44
(1502931900.955691) vcan0 284#A7F3E92F64315313
(1502931900.965816) vcan0 284#0284892505A6634D
(1502931900.976098) vcan0 284#BB67EE6C0BA87875
(1502931900.986315) vcan0 284#F06545108FA5764E
(1502931900.996438) vcan0 284#937B2D45355FAE3E
(1502931901.006850) vcan0 284#A1E60B733E9E6917
(1502931901.017090) vcan0 284#79DD300CBCF85130
(1502931901.027210) vcan0 284#ED662B41A27B750A
(1502931901.037505) vcan0 284#2D10BA4A39BC707A
(1502931901.047783) vcan0 284#FBBE703893373137
(1502931901.058011) vcan0 284#172C276C7B311651
(1502931901.068319) vcan0 284#A3BC692A45D5700E
(1502931901.078746) vcan0 284#44A58D7169AEBB09
(1502931901.089032) vcan0 284#C463AC22E5E75525
(1502931901.099354) vcan0 284#6B51684E73E92B13
(1502931901.109731) vcan0 284#D7FF536A1245527E
(1502931901.120019) vcan0 284#D71A7F26D983DD0F
(1502931901.130337) vcan0 284#18EBB54B92826D13
(1502931901.140746) vcan0 284#E52B56050851FB5B
(1502931901.151022) vcan0 284#2228E46178A7834A
(1502931901.161339) vcan0 284#3DB0A91AC30EF054
(1502931901.171720) vcan0 284#B745ED61B68DDA26
(1502931901.182008) vcan0 284#80074205A4AC1823
(1502931901.192328) vcan0 284#58095031AD17FC4F
(1502931901.202745) vcan0 284#DD68891D54C8C069
(1502931901.213071) vcan0 284#404F2D07F594B009
(1502931901.223373) vcan0 284#CFF9D63AE40B9731
(1502931901.233727) vcan0 284#3A6A2118149F642C
(1502931901.244006) vcan0 284#4DBA523BFFCDCD3A
(1502931901.254303) vcan0 284#F986BA51B80BBB09
(1502931901.264792) vcan0 284#72B7F94DD1860E3C
(1502931901.275112) vcan0 284#CB500D084AD27874
(1502931901.285492) vcan0 284#AA0AEC4BE33BC353
(1502931901.295967) vcan0 284#DC54E6078F364251
(1502931901.306269) vcan0 284#EB8CBE2FFE7CCA69
(1502931901.316711) vcan0 284#08DEC51B293D684A
(1502931901.327063) vcan0 284#C28BBA3EBF23B37D
(1502931901.337270) vcan0 284#DFCA42714293FC43
(1502931901.347743) vcan0 284#63D0CB2038D49222
(1502931901.357978) vcan0 284#EFAAF8134139553E
(1502931901.368093) vcan0 284#8C9C530C30FA251B
(1502931901.378307) vcan0 284#36CE05485B962A47
(1502931901.388519) vcan0 284#1406BD4C70382760
(1502931901.398642) vcan0 284#6F358F7361C00F08
(1502931901.408876) vcan0 284#6F06F51A69BC4945
(1502931901.419070) vcan0 284#19CCCA11E2BDEE68
(1502931901.429190) vcan0 284#3A435801E41CD819
(1502931901.439393) vcan0 284#2C90675DE44D444D
(1502931901.449621) vcan0 284#C7589B6D08E54D65
(1502931901.459808) vcan0 284#7484861EB3E5591D
(1502931901.470017) vcan0 284#0762184F7C624C3A
(1502931901.480222) vcan0 284#DC22C267C9EDD20D
(1502931901.490338) vcan0 284#3B86FF37BBED0459
(1502931901.500543) vcan0 284#0B81CF519E56CB58
(1502931901.510741) vcan0 284#F3C1977BFA2BC865
(1502931901.520894) vcan0 284#DF8F20177F5EEB07
(1502931901.531113) vcan0 284#2A26EE00155E265F
(1502931901.541315) vcan0 284#DBF4154F3E2CAB4D
(1502931901.551489) vcan0 284#86964D3F4A2AA542
(1502931901.561713) vcan0 284#9FECBA55F59C425A
(1502931901.571919) vcan0 284#B3E6EE07B9B88567
(1502931901.582037) vcan0 284#D75A3143ED294709
(1502931901.592285) vcan0 284#9DD55D0103EB9820
(1502931901.602509) vcan0 284#D2778B56652EF96E
(1502931901.612694) vcan0 284#0CD0E60546FC1175
(1502931901.622978) vcan0 284#1814530C1332FF54
(1502931901.633163) vcan0 284#C25E5E2FF4361574
(1502931901.643279) vcan0 284#DC1FD262FDE45D67
(1502931901.653449) vcan0 284#AF241A4DE7A0A134
(1502931901.663660) vcan0 284#9B3B2940A3E6B148
(1502931901.673775) vcan0 284#E1CC691A7BCB4957
(1502931901.683963) vcan0 284#22459D500CF3571B
(1502931901.694169) vcan0 284#90297036FD39B31F
(1502931901.704337) vcan0 284#4A1F036916C0BD75
(1502931901.714541) vcan0 284#48645862EA0BBE3E
(1502931901.724736) vcan0 284#0C5D0050FB4A476A
(1502931901.734856) vcan0 284#A3C44326E3B73113
(1502931901.745055) vcan0 284#E9748E73409AA127
(1502931901.755230) vcan0 284#E7A2CA33BBEC194A
(1502931901.765375) vcan0 284#A5C89A16F372B139
(1502931901.775588) vcan0 284#01E92B3FBDDCED22
(1502931901.785769) vcan0 284#06A5B00EC3478A6E
(1502931901.795886) vcan0 284#B1130317E2C48271
(1502931901.806073) vcan0 284#C02CE85561381D64
(1502931901.816280) vcan0 284#C96524265B681116
(1502931901.826397) vcan0 284#041FCF2CAA328E40
(1502931901.836592) vcan0 284#D6335B6D26646C7D
(1502931901.846773) vcan0 284#B625E65B675DCB23
(1502931901.856941) vcan0 284#249E1F1D0145E944
(1502931901.867139) vcan0 284#7D1D89196C02787F
(1502931901.877311) vcan0 284#EB50A703897A8969
(1502931901.887425) vcan0 284#674DBF698E15EB29
(1502931901.897625) vcan0 284#6D32BB7C50C24D5D
(1502931901.907781) vcan0 284#CEAF8C5154D58530
(1502931901.917961) vcan0 284#0BAF672774782768
(1502931901.928178) vcan0 284#4748376A0C989366
(1502931901.938372) vcan0 284#3155150B4DEDE778
(1502931901.948485) vcan0 284#CFDF1D55E3681822
(1502931901.958668) vcan0 284#2FB26A6A8F0C062B
(1502931901.968865) vcan0 284#44A13506F8178F10
(1502931901.978980) vcan0 284#EB74174148C00433
(1502931901.989176) vcan0 284#A24A1D51C1A8722E
(1502931901.999369) vcan0 284#6E2471305970032D
(1502931902.009533) vcan0 284#28063E5292C2904D
(1502931902.019739) vcan0 284#5AB5EC71A623C76B
(1502931902.029936) vcan0 284#FEC4084D45069475
(1502931902.040058) vcan0 284#2F9E50556612C836
(1502931902.050281) vcan0 284#D31B7F1F9CD00B52
(1502931902.060534) vcan0 284#B6D41514A1CB0B71
(1502931902.070703) vcan0 284#F0A59102C2837D3B
(1502931902.081136) vcan0 284#1544335937EEC86C
(1502931902.091438) vcan0 284#CE1B112247994864
(1502931902.101642) vcan0 284#84DBB0659EFB2E77
(1502931902.111996) vcan0 284#2A026106B38D1B50
(1502931902.122449) vcan0 284#2D0835226EA3960C
(1502931902.132726) vcan0 284#ABA5AA60187D4C63
(1502931902.143167) vcan0 284#B6639B3F4EF0C731
(1502931902.153447) vcan0 284#DA25BF1124880C70
(1502931902.163724) vcan0 284#A760CB5E022CFD63
(1502931902.174065) vcan0 284#B74A9D3D0116B850
(1502931902.184359) vcan0 284#A84FC44FB50FA60A
(1502931902.194564) vcan0 284#461C4C46D8ED1425
(1502931902.204907) vcan0 284#1B226E411938CB65
(1502931902.215205) vcan0 284#74BE2077D2F68355
(1502931902.225467) vcan0 284#BA03D7566564B279
(1502931902.235857) vcan0 284#947A0111D0470A30
(1502931902.246178) vcan0 284#9C527B6662961233
(1502931902.256443) vcan0 284#17E15214212E2C4C
(1502931902.266831) vcan0 284#0092412A41E3B31A
(1502931902.277146) vcan0 284#D4BB471C2E9A764C
(1502931902.287349) vcan0 284#AF864A278061F27C
(1502931902.297708) vcan0 284#4617C32F65EAE566
(1502931902.307999) vcan0 284#CE51BA2E203D8241
(1502931902.318268) vcan0 284#8972F25675B2850D
(1502931902.328664) vcan0 284#23697F2540BD8F14
(1502931902.338992) vcan0 284#76C83D5ECBB84375
(1502931902.349198) vcan0 284#F6CC351FBCE48924
(1502931902.359494) vcan0 284#A3A6581A11EFA360
(1502931902.369832) vcan0 284#D51C550A18657911
(1502931902.380068) vcan0 284#E3E527368F202C61
(1502931902.390449) vcan0 284#7DC92B0B77602947
(1502931902.400774) vcan0 284#5F683611191CA771
(1502931902.410976) vcan0 284#DAF63B7A76498925
(1502931902.421352) vcan0 284#3A4AD33DDA887D24
(1502931902.431661) vcan0 284#B72C3D400F061B5A
(1502931902.441930) vcan0 284#0823F47066B38767
(1502931902.452288) vcan0 284#8F670D574F3AB720
(1502931902.462507) vcan0 284#CB9D6D4E5DB9C705
(1502931902.472628) vcan0 284#6F77396255106025
(1502931902.482892) vcan0 284#D26B4D1392E0B807
(1502931902.493053) vcan0 284#95CDEF3948348B71
(1502931902.503215) vcan0 284#5E99FC7C8B9A2559
(1502931902.513420) vcan0 284#0419151601405517
(1502931902.523622) vcan0 284#9D89C939D9356A20
(1502931902.533742) vcan0 284#19A5CE28806FF16F
(1502931902.543940) vcan0 284#68569601966EFA33
(1502931902.554090) vcan0 284#F8CF1A37C8BECC12
(1502931902.564262) vcan0 284#B08AA125D2C65631
(1502931902.574474) vcan0 284#3E085638EAD47463
(1502931902.584632) vcan0 284#AC4FD455F6349378
(1502931902.594738) vcan0 284#F9DA8F3DB572C846
(1502931902.604942) vcan0 284#5CE81A6088429D14
(1502931902.615136) vcan0 284#04AD7F672886882E
(1502931902.625286) vcan0 284#E5FB641A7324B949
(1502931902.635524) vcan0 284#7D96E853B767B22D
(1502931902.645738) vcan0 284#060572511264D80D
(1502931902.655852) vcan0 284#FF9B3D1F649E6E4E
(1502931902.666104) vcan0 284#9EFEFD6603B55235
(1502931902.676317) vcan0 284#65DEC3653B88C720
(1502931902.686430) vcan0 284#DCEABC557F83920E
(1502931902.696645) vcan0 284#BBF7B81045415357
(1502931902.706834) vcan0 284#15F28C42B3C7D347
(1502931902.717000) vcan0 284#0D00206AC57C2E68
(1502931902.727215) vcan0 284#858E2A794B087622
(1502931902.737369) vcan0 284#B051A34B32DEFE4E
(1502931902.747475) vcan0 284#413D091BA92C3309
(1502931902.757661) vcan0 284#E750C7159E25247B
(1502931902.767845) vcan0 284#326FD01DEBFD467D
(1502931902.777964) vcan0 284#C6ABAC29176B3538
(1502931902.788169) vcan0 284#5E2200474342957D
(1502931902.798324) vcan0 284#CFD2E76564277218
(1502931902.808433) vcan0 284#55A66D0BCE6E2505
(1502931902.818656) vcan0 284#C8C5E066F3A46B72
(1502931902.828838) vcan0 284#D223783A2EA4A44C
(1502931902.838949) vcan0 284#2E2D3313AE0E3510
(1502931902.849304) vcan0 284#AD27375BEA24EC23
(1502931902.859516) vcan0 284#F34F8867C219C41D
(1502931902.869702) vcan0 284#9DECBF6B0050A851
(1502931902.879922) vcan0 284#8896F205237BEA64
(1502931902.890075) vcan0 284#4C581E7438E89551
(1502931902.900185) vcan0 284#5559E9338D95270F
(1502931902.910389) vcan0 284#E114C95A3CAAB049
(1502931902.920584) vcan0 284#2BBB4B0A13849978
(1502931902.930705) vcan0 284#27A8F746F166F833
(1502931902.940907) vcan0 284#2BEFCE3085CAF70D
(1502931902.951056) vcan0 284#34A98D31FAC1B616
(1502931902.961230) vcan0 284#EAF169268A4FFB3C
(1502931902.971480) vcan0 284#C830DC1BB2B74A0D
(1502931902.981644) vcan0 284#7DF4662F9A545456
(1502931902.991756) vcan0 284#E05BEF59AC219A42
(1502931903.001963) vcan0 284#496389668D832635
(1502931903.012113) vcan0 284#964686663CB3114E
(1502931903.022288) vcan0 284#509DEA5233334652
(1502931903.032515) vcan0 284#3D03BA1FD833DD58
(1502931903.042669) vcan0 284#56AE3037895BD813
(1502931903.052775) vcan0 284#101C732AAB071A6B
(1502931903.062989) vcan0 284#16F1FF22F1303C05
(1502931903.073196) vcan0 284#E7B1CA3442AC4B2D
(1502931903.083320) vcan0 284#05B5D57D0E5AC27B
(1502931903.093514) vcan0 284#3313446130A4A42E
(1502931903.103669) vcan0 284#9424BA0968BCD112
(1502931903.113778) vcan0 284#2A665B457E162430
(1502931903.124122) vcan0 284#F20BCD4FF2963761
(1502931903.134331) vcan0 284#30CE6E3D6F00347F
(1502931903.144449) vcan0 284#8DEB8B37112A5E17
(1502931903.154656) vcan0 284#1B22CE41D64E151E
(1502931903.164905) vcan0 284#9EAD844CB1685428
(1502931903.175137) vcan0 284#1202276CEE4A6F1F
(1502931903.185454) vcan0 284#E59B9A7A4F05E10B
(1502931903.195753) vcan0 284#C67E4C783B4ACB31
(1502931903.205931) vcan0 284#D860B91FD69ABF22
(1502931903.216206) vcan0 284#E751E51CEF51B942
(1502931903.226498) vcan0 284#C8CBFB27CE03B051
(1502931903.236679) vcan0 284#31FE0470CD80D125
(1502931903.246997) vcan0 284#DD5D724D64114951
(1502931903.257283) vcan0 284#FD24765471822C57
(1502931903.267543) vcan0 284#CCCD1A64278BD119
(1502931903.277912) vcan0 284#EF985007BED9E733
(1502931903.288202) vcan0 284#1922097B1F67BF44
(1502931903.298384) vcan0 284#2EDA1B33A60D9532
(1502931903.308698) vcan0 284#30911D5C49FCE974
(1502931903.318985) vcan0 284#7C5CAA50CF3EA228
(1502931903.329233) vcan0 284#FB643E1D8F5ED13C
(1502931903.339515) vcan0 284#BD891148E000D917
(1502931903.349810) vcan0 284#DE63B24884085E40
(1502931903.360031) vcan0 284#1B4BA449B7C46B68
(1502931903.370292) vcan0 284#5AA31D63029D8966
(1502931903.380603) vcan0 284#A616252B226F190B
(1502931903.390836) vcan0 284#D1A03938D7142A1B
(1502931903.401105) vcan0 284#EFEFEA30AEFEAB05
(1502931903.411403) vcan0 284#3B26736CEC146105
(1502931903.421667) vcan0 284#1F81D85C08F48D50
(1502931903.431947) vcan0 284#13A0321F0E1A2964
(1502931903.442225) vcan0 284#C6CD75042DC23B1A
(1502931903.452438) vcan0 284#2D81E828F4A79137
(1502931903.462710) vcan0 284#D3CFD04C5E120605
(1502931903.472926) vcan0 284#3EA47B2C502C7B1D
(1502931903.483086) vcan0 284#2D51A82D3909BA49
(1502931903.493292) vcan0 284#DF8A4C5AEADAB975
(1502931903.503466) vcan0 284#190A9361BDEEFE22
(1502931903.513635) vcan0 284#6EE317363455372B
(1502931903.523841) vcan0 284#74B36A0BC9863519
(1502931903.533988) vcan0 284#37F2C0111ACA8F36
(1502931903.544140) vcan0 284#EBF54E240893FA49
(1502931903.554343) vcan0 284#F1DEB951DBE53955
(1502931903.564486) vcan0 284#B691A64F2D052D3E
(1502931903.574653) vcan0 284#C7FA9A5AD5127F2C
(1502931903.584866) vcan0 284#35F9BA0EDB9ACD79
(1502931903.595021) vcan0 284#E32CA810FBC63013
(1502931903.605172) vcan0 284#085D091410AE9039
(1502931903.615395) vcan0 284#F06EC24ADB2CDA60
(1502931903.625587) vcan0 284#6EC0963E2E133E77
(1502931903.635778) vcan0 284#2B59557E9B113F6C
(1502931903.645999) vcan0 284#671CF8400AE4A158
(1502931903.656147) vcan0 284#86ECF86180268B22
(1502931903.666302) vcan0 284#C8D2A07BF4CF1018
(1502931903.676536) vcan0 284#B47BC24D3C860B07
(1502931903.686732) vcan0 284#BD564631EB6D835F
(1502931903.696888) vcan0 284#57509B3DA94C9555
(1502931903.707105) vcan0 284#F3007E29482F550F
(1502931903.717253) vcan0 284#8432CF2AA9922479
(1502931903.727437) vcan0 284#7534824D4B2D6A05
(1502931903.737658) vcan0 284#7EA5A325AA2D3D5C
(1502931903.747805) vcan0 284#26C8377F61D24B36
(1502931903.757959) vcan0 284#A6F46D6F2E254113
(1502931903.768257) vcan0 284#7280DC6F9663303A
(1502931903.778463) vcan0 284#0A521B74E040732E
(1502931903.788623) vcan0 284#C4766E3135AB7072
(1502931903.798839) vcan0 284#7C52B21A2B936672
(1502931903.808997) vcan0 284#408F124B023FAB7C
(1502931903.819140) vcan0 284#ABB9F1140862B346
(1502931903.829513) vcan0 284#F60EBC145F35B462
(1502931903.839724) vcan0 284#44E8BE4DB4650246
(1502931903.849886) vcan0 284#4BA337429B385A0B
(1502931903.860102) vcan0 284#5DB2971B3EA4B56B
(1502931903.870293) vcan0 284#E467AF1AE1E46646
(1502931903.880473) vcan0 284#E836DA64599C3168
(1502931903.890695) vcan0 284#2C12D14B66DC7D0A
(1502931903.900842) vcan0 284#04CA6E4453DA084B
(1502931903.910990) vcan0 284#C8AEC940AABEDC33
(1502931903.921175) vcan0 284#81FF495E3A2FA630
(1502931903.931350) vcan0 284#40220D6E8B516552
(1502931903.941499) vcan0 284#1A70195F04997B1F
(1502931903.951718) vcan0 284#C1FCD54496C2CB79
(1502931903.961853) vcan0 284#2F2CE211018CE80F
(1502931903.972042) vcan0 284#98017776DAE5D326
(1502931903.982265) vcan0 284#09EE9B568F10330B
(1502931903.992413) vcan0 284#391B88094DD65A24
(1502931904.002561) vcan0 284#4376355184BEBF4B
(1502931904.012790) vcan0 284#E90EB52FA028CD6C
(1502931904.023051) vcan0 284#C3627537CD76644A
(1502931904.033233) vcan0 284#810D3433AB994F1C
(1502931904.043421) vcan0 284#26139632AD1F057F
(1502931904.053573) vcan0 284#1176CD262ADD0477
(1502931904.063722) vcan0 284#00FA0D4AD9249767
(1502931904.073926) vcan0 284#D49BE12A82F95728
(1502931904.084077) vcan0 284#13543D1814BEEE18
(1502931904.094228) vcan0 284#0D4BBD7A2EC45677
(1502931904.104436) vcan0 284#18576A38CE47933F
(1502931904.114590) vcan0 284#C486227147834C4A
(1502931904.124759) vcan0 284#CFD37B4F5D889967
(1502931904.134970) vcan0 284#21692071D8C11726
(1502931904.145114) vcan0 284#EC98CC725B84A87A
(1502931904.155260) vcan0 284#2698724A2F0F0244
(1502931904.165486) vcan0 284#DF4268460FA7277A
(1502931904.175733) vcan0 284#CF37CF30A2A5DD7D
(1502931904.185939) vcan0 284#DC1D8C4450450364
(1502931904.196207) vcan0 284#4D3F2D1A02312277
(1502931904.206494) vcan0 284#FD6408635FB5FA40
(1502931904.216700) vcan0 284#2D0E276EFE5E162D
(1502931904.227027) vcan0 284#38DA912801AA0819
(1502931904.237335) vcan0 284#80586E554C2ECF40
(1502931904.247552) vcan0 284#1668F7318DA32B50
(1502931904.257800) vcan0 284#7AF225382EBF616A
(1502931904.268078) vcan0 284#5CEBBE0F3E794829
(1502931904.278336) vcan0 284#7642AE342BBF3A5F
(1502931904.288622) vcan0 284#9B01E21097ABCE25
(1502931904.298913) vcan0 284#04815205879AAE03
(1502931904.309135) vcan0 284#F22F77202A19C54F
(1502931904.319401) vcan0 284#B6A9B047D272DF66
(1502931904.329684) vcan0 284#39C0EC4985E17F78
(1502931904.339890) vcan0 284#7418BD6415DE780E
(1502931904.350151) vcan0 284#D526835CC257EA7E
(1502931904.360443) vcan0 284#170F9B05D38B8B3F
(1502931904.370661) vcan0 284#210DE53F441DC273
(1502931904.380928) vcan0 284#D1EAA16C59E77668
(1502931904.391203) vcan0 284#46C7CA0C51431042
(1502931904.401417) vcan0 284#A51546295C2FC23E
(1502931904.411706) vcan0 284#DEE63B121F086C61
(1502931904.421997) vcan0 284#8AEE23293AD2FA21
(1502931904.432261) vcan0 284#5E81B40A0031D25D
(1502931904.442583) vcan0 284#66913501F982961B
(1502931904.452982) vcan0 284#98DCA0036A128806
(1502931904.463199) vcan0 284#811D451F8A0C1824
(1502931904.473484) vcan0 284#942B4D5637C7F566
(1502931904.483715) vcan0 284#5C7FF70ACDEB3920
(1502931904.493889) vcan0 284#BDA8755FD197B46F
(1502931904.504087) vcan0 284#E2C9B22E92CFF83B
(1502931904.514276) vcan0 284#93EF9E6EF9D84D34
(1502931904.524435) vcan0 284#655B847BB4FC832E
(1502931904.534654) vcan0 284#3EF60F2836462668
(1502931904.544806) vcan0 284#0DE4FA1684BDDA34
(1502931904.554959) vcan0 284#8789362AB3F94040
(1502931904.565167) vcan0 284#E0EC9C736670723C
(1502931904.575356) vcan0 284#D201AD216ADBC01C
(1502931904.585538) vcan0 284#A0426D5E3083612C
(1502931904.595763) vcan0 284#6B0C937A06D4A25F
(1502931904.605908) vcan0 284#2A06F84703E9337E
(1502931904.616055) vcan0 284#70E62A66AB233D67
(1502931904.626246) vcan0 284#8DF54B220412783C
(1502931904.636436) vcan0 284#E2EA324EEA74432D
(1502931904.646594) vcan0 284#D1FDB15C9F93A82D
(1502931904.656818) vcan0 284#BB0CF81CB3C7640B
(1502931904.666965) vcan0 284#3263A1694EFC960B
(1502931904.677152) vcan0 284#ADA0B23F97BE2565
(1502931904.687373) vcan0 284#02F91A3AEB96C267
(1502931904.697524) vcan0 284#CE044C4D0FDD1551
(1502931904.707688) vcan0 284#6F549D1C558E8277
(1502931904.717908) vcan0 284#C2D656114F413A10
(1502931904.728097) vcan0 284#BBFEF43395D80333
(1502931904.738281) vcan0 284#B91CFB2C5C416212
(1502931904.748499) vcan0 284#C55B655F24298E27
(1502931904.758648) vcan0 284#62150572EF615D27
(1502931904.768794) vcan0 284#2712C225D3FB2F58
(1502931904.778991) vcan0 284#9A859A0EB5070E48
(1502931904.789173) vcan0 284#D70DA8147D70CD5C
(1502931904.799340) vcan0 284#9F7C5175A90B5A71
(1502931904.809533) vcan0 284#1C04760A5A894912
(1502931904.819681) vcan0 284#5CD3BE7C4E671774
(1502931904.829864) vcan0 284#A885E01D0974713C
(1502931904.840085) vcan0 284#E6253D59AA7EFB57
(1502931904.850235) vcan0 284#F40A3424B42A8926
(1502931904.860382) vcan0 284#B95B1129635FD140
(1502931904.870599) vcan0 284#09B90B1E7C32683A
(1502931904.880786) vcan0 284#B2A00B51C5B70052
(1502931904.890941) vcan0 284#110B6C6D6CBD067E
(1502931904.901152) vcan0 284#21F96264D666D14C
(1502931904.911298) vcan0 284#90E69425830E6856
(1502931904.921447) vcan0 284#C6C82E74B8F8564B
(1502931904.931644) vcan0 284#560A982E604EC902
(1502931904.941790) vcan0 284#6D0065132E184043
(1502931904.951935) vcan0 284#DDBE965F0C7DB608
(1502931904.962167) vcan0 284#D7239A34FAC20C6A
(1502931904.972317) vcan0 284#6606001B33F75831
(1502931904.982497) vcan0 284#482A245E0E8CE038
(1502931904.992720) vcan0 284#3D6BCA6D2E506137
(1502931905.002900) vcan0 284#B80ADC103176FE11
(1502931905.013043) vcan0 284#E27AEA5D7166ED39
(1502931905.023225) vcan0 284#95D5CF52EC33F67B
(1502931905.033429) vcan0 284#ED9855744776DB23
(1502931905.043592) vcan0 284#B1EBF64DFEA3C161
(1502931905.053800) vcan0 284#B333E221D2E45932
(1502931905.063956) vcan0 284#D50A932E441A7747
(1502931905.074100) vcan0 284#55F3C1089BD3C122
(1502931905.084316) vcan0 284#FC12CE12ACFD5937
(1502931905.094531) vcan0 284#FB218B2569133326
(1502931905.104682) vcan0 284#DA159A7AD9E02105
(1502931905.114892) vcan0 284#7590E92EB139342F
(1502931905.125078) vcan0 284#D3A32E6FDB96E949
(1502931905.135268) vcan0 284#E4308D601BCE524D
(1502931905.145491) vcan0 284#E922CA02219C574E
(1502931905.155638) vcan0 284#4A1EB404A12DA613
(1502931905.165787) vcan0 284#531256602C999E62
(1502931905.175998) vcan0 284#1294934DE8E72533
(1502931905.186224) vcan0 284#18CD945E002DE941
(1502931905.196422) vcan0 284#2F5E0157C9B88B2C
(1502931905.206686) vcan0 284#FED0AA23E391E378
(1502931905.216972) vcan0 284#9B9DE55ED3DB3D52
(1502931905.227249) vcan0 284#27AC5A40F190A767
(1502931905.237638) vcan0 284#6EAFFF7423BF2853
(1502931905.247996) vcan0 284#9D8E011F6AD18A1A
(1502931905.258273) vcan0 284#8CD25B7977A49B19
(1502931905.268657) vcan0 284#43B2AC1F01634528
(1502931905.279010) vcan0 284#28DECF481656DB0E
(1502931905.289264) vcan0 284#DCF92E720C0F5D29
(1502931905.299503) vcan0 284#31242E5CC51CF974
(1502931905.309670) vcan0 284#2EABB4777B42E260
(1502931905.319821) vcan0 284#664A9F0881BD0A58
(1502931905.330016) vcan0 284#A8DB804378DE3256
(1502931905.340205) vcan0 284#69A5300BC0A81522
(1502931905.350363) vcan0 284#780B1C1898033262
(1502931905.360581) vcan0 284#8A61A14E77DCC63B
(1502931905.370729) vcan0 284#7B95155B25FF862D
(1502931905.380934) vcan0 284#4AB8040EA241701B
(1502931905.391142) vcan0 284#16902E15B9670403
(1502931905.401293) vcan0 284#C500996EB31E3034
(1502931905.411445) vcan0 284#23398F1D51D3F467
(1502931905.421661) vcan0 284#2AC3CB4D66EB3B3D
(1502931905.431852) vcan0 284#52363A1052A19B16
(1502931905.442038) vcan0 284#7C41174C2E306902
(1502931905.452257) vcan0 284#5FB0F83FAD654528
(1502931905.462412) vcan0 284#F34C62778D5BAD37
(1502931905.472574) vcan0 284#29A8270959970100
(1502931905.482781) vcan0 284#0E19B80FD183A84C
(1502931905.492990) vcan0 284#D275345677BEE81A
(1502931905.503138) vcan0 284#912CBE6E4A81506E
(1502931905.513344) vcan0 284#0FC21A7D1B8E5F3D
(1502931905.523495) vcan0 284#C15D172A8B573058
(1502931905.533681) vcan0 284#418DE66A0C161C38
(1502931905.543900) vcan0 284#2D99A073571D1500
(1502931905.554055) vcan0 284#C57D203BF3993962
(1502931905.564203) vcan0 284#0B3C4534E8B6AF58
(1502931905.574394) vcan0 284#446D2E4A35FF1002
(1502931905.584592) vcan0 284#4EA2EB1597A3685A
(1502931905.594751) vcan0 284#88A0AC18CAE30262
(1502931905.604965) vcan0 284#C5D3D15CE750A558
(1502931905.615110) vcan0 284#7749480AB9203454
(1502931905.625265) vcan0 284#74AC5210A0F16F13
(1502931905.635469) vcan0 284#12B8355482C50A20
(1502931905.645676) vcan0 284#71751860E42D6A2A
(1502931905.655827) vcan0 284#F983F33A03A2D64E
(1502931905.666048) vcan0 284#2FAFBA1808460E38
(1502931905.676203) vcan0 284#1E30360CF00CD242
(1502931905.686379) vcan0 284#939D3E105FBD1C77
(1502931905.696610) vcan0 284#FC22EE7AC136DF03
(1502931905.706792) vcan0 284#B7DA3177C1A00E36
(1502931905.716953) vcan0 284#B4D01866C216772B
(1502931905.727302) vcan0 284#A957BE0EF83D4730
(1502931905.737512) vcan0 284#F715882DF7F9A924
(1502931905.747680) vcan0 284#8FE1AF0A7FB63446
(1502931905.757880) vcan0 284#C1DDAC0655B58167
(1502931905.768020) vcan0 284#6607DA1E3927F510
(1502931905.778167) vcan0 284#0ED6B53BDAB32C2F
(1502931905.788517) vcan0 284#D9186524208EEB0F
(1502931905.798732) vcan0 284#5C79374F4B8E7D04
(1502931905.808908) vcan0 284#05BC553A55FD2A0A
(1502931905.819121) vcan0 284#4E305453346B1053
(1502931905.829274) vcan0 284#5E4339426C608A5F
(1502931905.839456) vcan0 284#2478E215F1E07752
(1502931905.849677) vcan0 284#CC1DA756219BD010
(1502931905.859835) vcan0 284#B217575683F8D84D
(1502931905.869979) vcan0 284#E23BDF4666E86F3C
(1502931905.880216) vcan0 284#450F50798C939D55
(1502931905.890409) vcan0 284#5F26B76C3C25D826
(1502931905.900568) vcan0 284#838D477AEE076777
(1502931905.910800) vcan0 284#BCDB0C6D456BF400
(1502931905.920943) vcan0 284#43BDE85E22E3E60B
(1502931905.931095) vcan0 284#7E92E91151939E1A
(1502931905.941294) vcan0 284#FD96133B57AB4E36
(1502931905.951456) vcan0 284#72218A2A59104B0A
(1502931905.961613) vcan0 284#A239CC3A77DDDF64
(1502931905.971825) vcan0 284#AF0D7614F069200E
(1502931905.982015) vcan0 284#AB48F0370D51AF56
(1502931905.992197) vcan0 284#5DCAAA6DCFC0D24D
(1502931906.002517) vcan0 284#FE31272929E85144
(1502931906.012802) vcan0 284#F05BA35EB1497E7F
(1502931906.023067) vcan0 284#ACE02A12D3978225
(1502931906.033338) vcan0 284#1732EE3BF1EF7A0B
(1502931906.043606) vcan0 284#5F2B207B7658A528
(1502931906.053810) vcan0 284#2D155332E2B86775
(1502931906.064074) vcan0 284#65600C20E9F05F1F
(1502931906.074335) vcan0 284#27245C76A81DF57E
(1502931906.084608) vcan0 284#0CD4462BA5B64508
(1502931906.094895) vcan0 284#FAB09319096B5A66
(1502931906.105111) vcan0 284#FD61943E6CD21D44
(1502931906.115285) vcan0 284#627BA5709F9B6079
(1502931906.125487) vcan0 284#E3AFFD2811891B05
(1502931906.135673) vcan0 284#900581078EF8ED60
(1502931906.145851) vcan0 284#1EDACA5BEDCF2B75
(1502931906.156075) vcan0 284#5DB9C02E1D0CF204
(1502931906.166226) vcan0 284#16B87D394E15640D
(1502931906.176374) vcan0 284#CE557004C298A84B
(1502931906.186564) vcan0 284#21ADE632E5875E40
(1502931906.196772) vcan0 284#B388235780D8062E
(1502931906.206924) vcan0 284#5CE00369E09D7609
(1502931906.217139) vcan0 284#62916E23C1401009
(1502931906.227284) vcan0 284#CA8ED6288AB5CA19
(1502931906.237466) vcan0 284#695E0508D6621D54
(1502931906.247691) vcan0 284#2F6C1022630F9921
(1502931906.257831) vcan0 284#DFCD773A2CCEA460
(1502931906.267977) vcan0 284#CFE1B66541491D2B
(1502931906.278205) vcan0 284#CC69055AB291B40E
(1502931906.288391) vcan0 284#53D238305C6F8661
(1502931906.298550) vcan0 284#408AA26F71AC030C
(1502931906.308762) vcan0 284#493FB2569E43631E
(1502931906.318914) vcan0 284#8EB8F5105FF72F10
(1502931906.329067) vcan0 284#EC58C72B5C0E6615
(1502931906.339398) vcan0 284#2190D85B0D06AE5E
(1502931906.349576) vcan0 284#4296C455D418FC32
(1502931906.359720) vcan0 284#8DDEB40C9E76C83E
(1502931906.369927) vcan0 284#B4B6723CEF6F2330
(1502931906.380075) vcan0 284#5FB7D8477E454965
(1502931906.390250) vcan0 284#7925EE49C815DE4F
(1502931906.400474) vcan0 284#54A86639A991FE6B
(1502931906.410624) vcan0 284#2C2577713376DE73
(1502931906.420770) vcan0 284#D55FA34CFB062E57
(1502931906.430990) vcan0 284#75BFFB1EA1C9A826
(1502931906.441171) vcan0 284#AE98E265C891344F
(1502931906.451358) vcan0 284#FD382F08EE228555
(1502931906.461584) vcan0 284#393E385B4678E15E
(1502931906.471728) vcan0 284#8C66E873C8F62D6C
(1502931906.481876) vcan0 284#A56F116F78BFAF1F
(1502931906.492090) vcan0 284#24059401C6FFE94A
(1502931906.502239) vcan0 284#85C55D7E669B5857
(1502931906.512417) vcan0 284#9A18E67D12A4120B
(1502931906.522638) vcan0 284#041221164FCF583A
(1502931906.532790) vcan0 284#0214363B63C9F95D
(1502931906.542988) vcan0 284#CD14A21F7B392405
(1502931906.553203) vcan0 284#2CDFD72D22BD0859
(1502931906.563356) vcan0 284#24CB227158044F1F
(1502931906.573505) vcan0 284#5533E74CFA2AC63D
(1502931906.583731) vcan0 284#530B7D76CAF2E26B
(1502931906.593928) vcan0 284#9BF46E6401A45F5C
(1502931906.604096) vcan0 284#9284173B992D9E6C
(1502931906.614305) vcan0 284#F0C6E431CCC24F16
(1502931906.624452) vcan0 284#DFA57F4B7C2DCD25
(1502931906.634623) vcan0 284#94B97D028515913A
(1502931906.644854) vcan0 284#F5EC7C45B8BE1104
(1502931906.655009) vcan0 284#4B157B057AB2DA43
(1502931906.665159) vcan0 284#1F5A6A5BE62D6103
(1502931906.675379) vcan0 284#8D56ED4E236C8B71
(1502931906.685581) vcan0 284#35FDB93D8F6A230A
(1502931906.695764) vcan0 284#8735854F02125C5D
(1502931906.705986) vcan0 284#0AA4470FB3145D7D
(1502931906.716133) vcan0 284#24CF64362F6F6A00
(1502931906.726281) vcan0 284#0B19AC1C7A024C03
(1502931906.736476) vcan0 284#299A303E5E242913
(1502931906.746661) vcan0 284#44F52E6FC48E9F22
(1502931906.756821) vcan0 284#60C8886FD779462A
(1502931906.766996) vcan0 284#5DBC3D0F508F6D21
(1502931906.777140) vcan0 284#A33C96403D62BD5A
(1502931906.787316) vcan0 284#CCBC3A4737F61343
(1502931906.797544) vcan0 284#C2774E15C1A9B70C
(1502931906.807737) vcan0 284#EFB425470D8DC91A
(1502931906.817926) vcan0 284#3C5C92500E0F9022
(1502931906.828200) vcan0 284#F3BA2A1EC9B27F1F
(1502931906.838474) vcan0 284#327B1B1428B8E45B
(1502931906.848722) vcan0 284#581DA329B9B0A063
(1502931906.858999) vcan0 284#2BCA403962C1EA38
(1502931906.869295) vcan0 284#6CC5FD604F99A56F
(1502931906.879512) vcan0 284#9130553977DEA97D
(1502931906.889833) vcan0 284#C99BF172BACA8577
(1502931906.900280) vcan0 284#D502D3100E912062
(1502931906.910546) vcan0 284#7F59251A35CB5B00
(1502931906.920839) vcan0 284#E50A670CDC156329
(1502931906.931132) vcan0 284#855AC9218847FD4C
(1502931906.941394) vcan0 284#1978200452170469
(1502931906.951680) vcan0 284#BF3D1110DBEF6E19
(1502931906.961969) vcan0 284#13C1BB75AEF23657
(1502931906.972227) vcan0 284#E97C38344F1D4E46
(1502931906.982520) vcan0 284#BD01C779DC376352
(1502931906.992786) vcan0 284#18D0CD65EF7CE20D
(1502931907.003094) vcan0 284#05F0472E70ED700F
(1502931907.013365) vcan0 284#A82D837130BA8867
(1502931907.023599) vcan0 284#D3AE5B4814F38052
(1502931907.033790) vcan0 284#7F532E5764DFB001
(1502931907.043989) vcan0 284#8BD12A5049EF1F4A
(1502931907.054108) vcan0 284#1FAA367960D4FD60
(1502931907.064286) vcan0 284#5780402C9E035C13
(1502931907.074480) vcan0 284#969F59613C8BA738
(1502931907.084603) vcan0 284#7A19BF3C1BFA2203
(1502931907.094799) vcan0 284#C4D2A4059491DF40
(1502931907.104999) vcan0 284#6D11276C8310B615
(1502931907.115117) vcan0 284#6F814E5A81D2E261
(1502931907.125314) vcan0 284#3103ED6C58FE860E
(1502931907.135526) vcan0 284#D0EF3028EE04B466
(1502931907.145712) vcan0 284#3536EA60E9BFFE0D
(1502931907.155916) vcan0 284#DD8196743A26320F
(1502931907.166130) vcan0 284#59AD6F1D85AF1966
(1502931907.176270) vcan0 284#6AE0BA762C5CCB65
(1502931907.186456) vcan0 284#99A29A38E933E94D
(1502931907.196813) vcan0 284#913B7C672474C508
(1502931907.206963) vcan0 284#32230918B0E5B260
(1502931907.217144) vcan0 284#8548C36989A34944
(1502931907.227358) vcan0 284#4EE90E741BE81C4B
(1502931907.237488) vcan0 284#C52EF17CC802CE30
(1502931907.247687) vcan0 284#36E23F4E89019602
(1502931907.257888) vcan0 284#5C94AD71A4F3663A
(1502931907.268014) vcan0 284#0C124C18CC15FC4B
(1502931907.278197) vcan0 284#25C6491C3E153905
(1502931907.288411) vcan0 284#2414835AF5B57A44
(1502931907.298597) vcan0 284#2C1AED6B594A6D3B
(1502931907.308806) vcan0 284#DE7579520A9C8360
(1502931907.319026) vcan0 284#93709F4A3823E96F
(1502931907.329158) vcan0 284#8F4B9D46FD505A41
(1502931907.339330) vcan0 284#647FB45529EE377F
(1502931907.349551) vcan0 284#E784430FF5BA303D
(1502931907.359701) vcan0 284#4D62FD0719A84C27
(1502931907.369901) vcan0 284#A5A0E31DD2AAC071
(1502931907.380108) vcan0 284#A34B966BF389F211
(1502931907.390300) vcan0 284#ED92DD3C687A8768
(1502931907.400509) vcan0 284#BC8CC04224751D0B
(1502931907.410728) vcan0 284#F27B1D6B18216E34
(1502931907.420856) vcan0 284#C8688445FE8D6903
(1502931907.431041) vcan0 284#E4366A00ED2ECE61
(1502931907.441223) vcan0 284#3CA3A208094BED5A
(1502931907.451408) vcan0 284#E2E4482669BD8F74
(1502931907.461611) vcan0 284#62955A16C15AC278
(1502931907.471825) vcan0 284#73591355F605FA60
(1502931907.481953) vcan0 284#F97DAB6802A5B01B
(1502931907.492172) vcan0 284#F35654225DFD5F3E
(1502931907.502389) vcan0 284#2B93E81ADADB9731
(1502931907.512564) vcan0 284#53B8907B79F5E522
(1502931907.522763) vcan0 284#F483E458F8587419
(1502931907.532996) vcan0 284#4BA0A61497CF7A44
(1502931907.543178) vcan0 284#ECE2662B39338451
(1502931907.553380) vcan0 284#FF49022DA86F276E
(1502931907.563594) vcan0 284#5DA8A15CF1C51F18
(1502931907.573720) vcan0 284#C090952225112622
(1502931907.583892) vcan0 284#F053891BA5C7FF22
(1502931907.594084) vcan0 284#1240F4032CF72B24
(1502931907.604232) vcan0 284#AE12ED7DF4243D2A
(1502931907.614416) vcan0 284#95B4BB1810A84714
(1502931907.624616) vcan0 284#B57FFF22080ECF6D
(1502931907.634793) vcan0 284#06AE4175AEFDAA0B
(1502931907.645013) vcan0 284#0BB37F09FA049617
(1502931907.655231) vcan0 284#0CFB0A4A36466824
(1502931907.665355) vcan0 284#D4E02D495FB39B45
(1502931907.675547) vcan0 284#AF3B4E47C8641222
(1502931907.685753) vcan0 284#570C105FFBDBF45B
(1502931907.695936) vcan0 284#5F348D6643EF760A
(1502931907.706149) vcan0 284#340F792D5F7E8F13
(1502931907.716366) vcan0 284#EB5E9E7891B71A0A
(1502931907.726552) vcan0 284#5044AF2BACEF331B
(1502931907.736756) vcan0 284#B6C8402C40983847
(1502931907.747003) vcan0 284#51B7333EC8083530
(1502931907.757256) vcan0 284#6D8F646BFFC9203C
(1502931907.767526) vcan0 284#BC2D725A02442004
(1502931907.777814) vcan0 284#0F72685072AD717D
(1502931907.788089) vcan0 284#0B52EF711620AA45
(1502931907.798362) vcan0 284#20AB1C0916056F7B
(1502931907.808662) vcan0 284#1025405D2CA62753
(1502931907.818942) vcan0 284#4C4BD71FE4056E26
(1502931907.829189) vcan0 284#8B59C318FC862567
(1502931907.839486) vcan0 284#AD6A8048E365D377
(1502931907.849763) vcan0 284#F7621A430C9F0D2F
(1502931907.860009) vcan0 284#26554A022B729370
(1502931907.870303) vcan0 284#6B1D9D4212B4E87A
(1502931907.880601) vcan0 284#BC29AE7ABC614C6E
(1502931907.890848) vcan0 284#BEA31C1672F2EE26
(1502931907.901121) vcan0 284#FCF984350F5B5054
(1502931907.911416) vcan0 284#3AFB23576989E920
(1502931907.921673) vcan0 284#0E257110F6289631
(1502931907.931951) vcan0 284#6CCD09251D97D960
(1502931907.942172) vcan0 284#68D6072F771FF916
(1502931907.952388) vcan0 284#33B7832689812438
(1502931907.962614) vcan0 284#8D24681243DCC303
(1502931907.972774) vcan0 284#B5274C0BD96F3F32
(1502931907.982956) vcan0 284#28E2312A41810F24
(1502931907.993157) vcan0 284#D5F66419D54CB272
(1502931908.003356) vcan0 284#24E7E21BCC597F5C
(1502931908.013554) vcan0 284#E1EBBF214A3C2D1E
(1502931908.023769) vcan0 284#F7CB124D4D095D64
(1502931908.033900) vcan0 284#5CF01519B3F5C047
(1502931908.044079) vcan0 284#096BA9521A94322F
(1502931908.054294) vcan0 284#25E8AF6E05652E08
(1502931908.064449) vcan0 284#29EF82035FE3D345
(1502931908.074628) vcan0 284#6FEE17293714F413
(1502931908.084836) vcan0 284#560C6A77DBBB214E
(1502931908.095023) vcan0 284#55ABCD74BEE27126
(1502931908.105237) vcan0 284#52DB1A658862511B
(1502931908.115456) vcan0 284#4764965EDFFF8277
(1502931908.125622) vcan0 284#CC3E151FFD8BE269
(1502931908.135821) vcan0 284#B86FC229F4204749
(1502931908.146028) vcan0 284#3E0DF20D8E662743
(1502931908.156195) vcan0 284#C96DF93B62F4D429
(1502931908.166397) vcan0 284#5AC0A61FAA59B95D
(1502931908.176618) vcan0 284#AC300248528CB96C
(1502931908.186742) vcan0 284#F762164209211861
(1502931908.196934) vcan0 284#05827A3400CEBF14
(1502931908.207143) vcan0 284#23B54A102B6A2A23
(1502931908.217274) vcan0 284#0633EE1C4DA4CD13
(1502931908.227468) vcan0 284#8A4DFE6875210646
(1502931908.237681) vcan0 284#84B8C127E0596860
(1502931908.247853) vcan0 284#50DD2714D9638F1C
(1502931908.258046) vcan0 284#9F3CDA06A2B84279
(1502931908.268255) vcan0 284#62C6E037E6A07065
(1502931908.278383) vcan0 284#81B8C5702E05F656
(1502931908.288569) vcan0 284#E32C534F3928881A
(1502931908.298768) vcan0 284#22263D20213A455D
(1502931908.308910) vcan0 284#C78EAF5DEB93365C
(1502931908.319107) vcan0 284#832E1A07224F567D
(1502931908.329316) vcan0 284#95EDEF39305F1C4F
(1502931908.339449) vcan0 284#74DB0F6A8D50067C
(1502931908.349659) vcan0 284#39803430795D8A1E
(1502931908.359870) vcan0 284#8D1EC6105C357F40
(1502931908.369992) vcan0 284#A4C7B4419351B42D
(1502931908.380165) vcan0 284#A9D94C542F15B32A
(1502931908.390358) vcan0 284#0873BA732E920E7C
(1502931908.400535) vcan0 284#0F6F1B0B5850E207
(1502931908.410725) vcan0 284#07F69D18AEABF511
(1502931908.420923) vcan0 284#FA08250169BC7E50
(1502931908.431039) vcan0 284#954C66777BC1EA71
(1502931908.441195) vcan0 284#97C174277879B946
(1502931908.451389) vcan0 284#B5E9720CB9E7B147
(1502931908.461508) vcan0 284#9AB3FE237C78226A
(1502931908.471672) vcan0 284#A47BE8231DE2182B
(1502931908.481862) vcan0 284#9EC778673A69D85D
(1502931908.491976) vcan0 284#4D41357A12A38851
(1502931908.502164) vcan0 284#C7B9DE5986C1692A
(1502931908.512382) vcan0 284#8C00137054D8A46A
(1502931908.522508) vcan0 284#E3F6E86A30C8C731
(1502931908.532680) vcan0 284#E82959188CD0353F
(1502931908.542935) vcan0 284#5FDD7A5CF09C130C
(1502931908.553121) vcan0 284#BA62443B6F4C9667
(1502931908.563305) vcan0 284#49EDF513C258E253
(1502931908.573515) vcan0 284#1DF88B7943F61A15
(1502931908.583638) vcan0 284#2B156124B244F270
(1502931908.593804) vcan0 284#BFB70507C3D6D54B
(1502931908.604123) vcan0 284#2BBEAB3774A17813
(1502931908.614264) vcan0 284#7CBE8713C571AA5B
(1502931908.624415) vcan0 284#F0199B7D213A7037
(1502931908.634597) vcan0 284#E253C3068FE11365
(1502931908.644776) vcan0 284#5BA348153095F800
(1502931908.655019) vcan0 284#A1849C36225D276F
(1502931908.665314) vcan0 284#B656622B2D85AF26
(1502931908.675609) vcan0 284#7635CC59994D4B16
(1502931908.685855) vcan0 284#5E4D77585E5F2572
(1502931908.696135) vcan0 284#261E8155BD2AF234
(1502931908.706405) vcan0 284#4FFC387EE080C510
(1502931908.716651) vcan0 284#2C77881C98E92E12
(1502931908.726914) vcan0 284#A2D9A7644A6F1416
(1502931908.737172) vcan0 284#DBDF4927CEEE0809
(1502931908.747492) vcan0 284#FCB306079A974F2E
(1502931908.757804) vcan0 284#91C5DE542772B23E
(1502931908.768108) vcan0 284#0E39C8410D846668
(1502931908.778342) vcan0 284#ECE35C1AFF52633F
(1502931908.788620) vcan0 284#2EBED61FCF372021
(1502931908.798911) vcan0 284#8E34772489611F35
(1502931908.809162) vcan0 284#FFCC18222FB9135B
(1502931908.819427) vcan0 284#ABBE4624B5237B4D
(1502931908.829705) vcan0 284#5D3EC30122F4127E
(1502931908.839957) vcan0 284#4F71C663BB8B3A5A
(1502931908.850179) vcan0 284#80533870758F4739
(1502931908.860402) vcan0 284#78B62C0FCF4F716E
(1502931908.870603) vcan0 284#55100D4AA52DB52B
(1502931908.880811) vcan0 284#6739A000F8E9B42E
(1502931908.890933) vcan0 284#EF9CC9414319EA27
(1502931908.901122) vcan0 284#C6D8BD37EB50D048
(1502931908.911342) vcan0 284#DDB03956579E9C0C
(1502931908.921475) vcan0 284#13C38207ECE90118
(1502931908.931674) vcan0 284#64220375FFA6DF21
(1502931908.941893) vcan0 284#EB3C655793E0D914
(1502931908.952058) vcan0 284#CEDEFF427971DC7B
(1502931908.962269) vcan0 284#1C42F949CDAB1865
(1502931908.972477) vcan0 284#A82AF056C800406E
(1502931908.982594) vcan0 284#83CF93320569B358
(1502931908.992766) vcan0 284#EAF4526CD2405A16
(1502931909.002966) vcan0 284#C0F4ED326A488B5C
(1502931909.013107) vcan0 284#47D0A14F39AB1A42
(1502931909.023281) vcan0 284#3A98FC4A9CE0AE19
(1502931909.033480) vcan0 284#DED8CF6DA1D19C4B
(1502931909.043599) vcan0 284#94CA6348CD75992F
(1502931909.053807) vcan0 284#E4EA86735AA32100
(1502931909.064010) vcan0 284#B8C66978C29BC049
(1502931909.074145) vcan0 284#B141BE0CCB89EC7F
