(1502935121.577913) vcan0 284#87833C76F8A63558
(1502935121.588191) vcan0 284#488B733729B5C955
(1502935121.598395) vcan0 284#01F6D73C141B5977
(1502935121.608653) vcan0 284#9B6E9D265D289F46
(1502935121.618898) vcan0 284#DF67AC68DB94B553
(1502935121.629099) vcan0 284#2078EB72DA5B3E21
(1502935121.639515) vcan0 284#75B593190BFA567D
(1502935121.649752) vcan0 284#8DD12C6B4DC35B7F
(1502935121.659936) vcan0 284#A806286AA70ADC08
(1502935121.670147) vcan0 284#F1E93D76105E8974
(1502935121.680359) vcan0 284#FDE6A30B22F1CC77
(1502935121.690486) vcan0 284#1E628F049A76FC30
(1502935121.700728) vcan0 284#3716D06F6F811A6D
(1502935121.710946) vcan0 284#E7B1162D3943E95C
(1502935121.721377) vcan0 284#3AC0B61F04786632
(1502935121.731818) vcan0 284#A2558825C143F315
(1502935121.742072) vcan0 284#FC1E9C0AEAE0FB5C
(1502935121.752260) vcan0 284#EBF8BC6BFD147447
(1502935121.762606) vcan0 284#FEFB545486675A12
(1502935121.772883) vcan0 284#5B3D130EDD63013D
(1502935121.783069) vcan0 284#61FC0F667BB5FE00
(1502935121.793386) vcan0 284#B7BF3F5ED7B1A37F
(1502935121.803600) vcan0 284#86AF557E45916C49
(1502935121.813771) vcan0 284#2475FF7E2EB67D68
(1502935121.824131) vcan0 284#EC9B4852155F3D75
(1502935121.834354) vcan0 284#3F14075DE982EC5D
(1502935121.844473) vcan0 284#37500A6D5D769661
(1502935121.854780) vcan0 284#83F9E80E6E66DA5C
(1502935121.865007) vcan0 284#CCF7B04E6AABFF3B
(1502935121.875179) vcan0 284#A8A9C33906B8676E
(1502935121.885479) vcan0 284#6E23666E4AFF4B5F
(1502935121.895703) vcan0 284#C8FB5A046B420279
(1502935121.905833) vcan0 284#34E0473CB3F41770
(1502935121.916144) vcan0 284#6857764032DC9C10
(1502935121.926367) vcan0 284#395C7202C394894E
(1502935121.936486) vcan0 284#10409E4D9A588268
(1502935121.946827) vcan0 284#3E4A884FC7FFDD2B
(1502935121.957059) vcan0 284#710A2668C5F9DD4D
(1502935121.967182) vcan0 284#0C914A75957F2567
(1502935121.977524) vcan0 284#F3AF5B36F82C9347
(1502935121.987734) vcan0 284#AADE625C32C46213
(1502935121.997863) vcan0 284#E1AF7F25E22E6D49
(1502935122.008216) vcan0 284#8F3AF97464A96834
(1502935122.018423) vcan0 284#509547265C32AA43
(1502935122.028540) vcan0 284#CF546870F83E0B60
(1502935122.038862) vcan0 284#62EA11323D78CE5E
(1502935122.049112) vcan0 284#423E573F2AE66C36
(1502935122.059363) vcan0 284#A8BAD057761E9F7B
(1502935122.069655) vcan0 284#DDDA842611124718
(1502935122.079966) vcan0 284#A9FA3B0C1637F728
(1502935122.090152) vcan0 284#D4A6D066B93ADA59
(1502935122.100473) vcan0 284#B18F791113F15836
(1502935122.110784) vcan0 284#803AB805229A9F79
(1502935122.121019) vcan0 284#D8EA36048DCB027B
(1502935122.131377) vcan0 284#B819C560CB9A923A
(1502935122.141681) vcan0 284#85F8954262F8273D
(1502935122.151902) vcan0 284#FE5EF54D67A81568
(1502935122.162205) vcan0 284#442795068D99EE42
(1502935122.172491) vcan0 284#CB517E1C95BCDC2C
(1502935122.182738) vcan0 284#E9CB98069AA6E60C
(1502935122.193142) vcan0 284#8DFBE70C4CB6AA38
(1502935122.203430) vcan0 284#D81EB56BD0393F4C
(1502935122.213667) vcan0 284#769C176F80D98543
(1502935122.223977) vcan0 284#4658DE4754779C15
(1502935122.234278) vcan0 284#91EBCC5BEF521A54
(1502935122.244456) vcan0 284#6AAE933E66929D42
(1502935122.254754) vcan0 284#A88DF42D1B3E0D50
(1502935122.265043) vcan0 284#7983F67829C8AC33
(1502935122.275302) vcan0 284#3ED8AC49516E2D7D
(1502935122.285645) vcan0 284#B693AF2EF6F1712A
(1502935122.295965) vcan0 284#1C09C0373B8C4571
(1502935122.306157) vcan0 284#58EA99671A68B505
(1502935122.316468) vcan0 284#A2345B599D112F6E
(1502935122.326786) vcan0 284#A801A4486E86D975
(1502935122.336964) vcan0 284#32CE0B1B91CD3C4F
(1502935122.347304) vcan0 284#082DC002BFC9F327
(1502935122.357627) vcan0 284#DD83E707E04B756E
(1502935122.367823) vcan0 284#8F0333745420FF76
(1502935122.378142) vcan0 284#6125FB31D65B113C
(1502935122.388466) vcan0 284#A8979B0CF210C80D
(1502935122.398648) vcan0 284#C5AE2B1012462F4B
(1502935122.408975) vcan0 284#58A365506E3C203E
(1502935122.419334) vcan0 284#2E843C1BD1265C49
(1502935122.429515) vcan0 284#9704CD716C5CE964
(1502935122.439759) vcan0 284#229589464D987C20
(1502935122.450088) vcan0 284#624E5B0F3F9E497E
(1502935122.460379) vcan0 284#8824C211BA38F576
(1502935122.470710) vcan0 284#5906FF032B591D6B
(1502935122.481021) vcan0 284#574A24650108A34C
(1502935122.491230) vcan0 284#99DFF66089183000
(1502935122.501540) vcan0 284#93D5DF1BA10CB763
(1502935122.511849) vcan0 284#49E223287059C723
(1502935122.522096) vcan0 284#82582C52D8E5561C
(1502935122.532416) vcan0 284#C479C61AE37D2704
(1502935122.542728) vcan0 284#AE4168586C116227
(1502935122.552919) vcan0 284#D58EEF1174F09368
(1502935122.563197) vcan0 284#7F5791722E325562
(1502935122.573491) vcan0 284#E22CB426ADDBCD0D
(1502935122.583771) vcan0 284#FF58B12B79318118
(1502935122.594075) vcan0 284#1938B77222EE3A72
