(1502935133.039907) vcan0 284#A8530A5E2D33270B
(1502935133.050243) vcan0 284#1EE5CA0B96936430
(1502935133.060636) vcan0 284#61784C4FD3B48C6C
(1502935133.070901) vcan0 284#5C306A711931C755
(1502935133.081248) vcan0 284#3DB8CC4497D38964
(1502935133.091517) vcan0 284#B1D604780AC3D350
(1502935133.101892) vcan0 284#448C9478E9883A4D
(1502935133.112253) vcan0 284#B90C8F17B791B124
(1502935133.122531) vcan0 284#CC04F02E5EB0C763
(1502935133.132749) vcan0 284#EF1D635BE6B1FF13
(1502935133.142917) vcan0 284#1F5AB02BBDBDF377
(1502935133.153135) vcan0 284#5DC7A61FC15E4D36
(1502935133.163350) vcan0 284#C65ABC385FAA7602
(1502935133.173476) vcan0 284#7DC33C1E668BF425
(1502935133.183712) vcan0 284#59B3CA3A38E7A66F
(1502935133.193939) vcan0 284#5A70B9140207D518
(1502935133.204063) vcan0 284#651ACE7A78558420
(1502935133.214292) vcan0 284#989A3949C6921A4A
(1502935133.224508) vcan0 284#4B0A110DF4CAA33A
(1502935133.234631) vcan0 284#DFC3E11F89C2DD51
(1502935133.244871) vcan0 284#8C9E2D1F919AE617
(1502935133.255092) vcan0 284#9385B122D02AC217
(1502935133.265226) vcan0 284#7A2321654C92403A
(1502935133.275465) vcan0 284#87BC733C46281114
(1502935133.285688) vcan0 284#AB42081E76DAD617
(1502935133.295848) vcan0 284#2CDA1028CA9CB849
(1502935133.306116) vcan0 284#3398CA0F89A1B747
(1502935133.316334) vcan0 284#8BFB0500F9F28648
(1502935133.326529) vcan0 284#E94B2E4A08BF421E
(1502935133.336795) vcan0 284#607E7B6E42FFF804
(1502935133.347028) vcan0 284#40A6E90DBAEE3403
(1502935133.357148) vcan0 284#4406CE1DA6C0B708
(1502935133.367398) vcan0 284#3244B923DDA00767
(1502935133.377614) vcan0 284#6C53D2527D4ECA30
(1502935133.387736) vcan0 284#D16BAB214C17B472
(1502935133.397983) vcan0 284#0611A8025D0AD940
(1502935133.408203) vcan0 284#DDB19A0A99965925
(1502935133.418329) vcan0 284#2D359B5857D5BB6F
(1502935133.428577) vcan0 284#E6289A5FB4F10E15
(1502935133.438804) vcan0 284#9DFDCC03916BA27D
(1502935133.448966) vcan0 284#2ACCE52CC9D7DD2B
(1502935133.459236) vcan0 284#5B085B475D64B03C
(1502935133.469439) vcan0 284#53799573E6036147
(1502935133.479562) vcan0 284#575737053CC5C33D
(1502935133.489767) vcan0 284#EFC2A365B7D5B273
(1502935133.499962) vcan0 284#7EC4BC422F698D73
(1502935133.510088) vcan0 284#71C4E776C3CA8A60
(1502935133.520335) vcan0 284#D529457CA308A11A
(1502935133.530558) vcan0 284#A06B9247427D174F
(1502935133.540685) vcan0 284#20576B4B71D73D69
(1502935133.550935) vcan0 284#8E94CB412768134E
(1502935133.561151) vcan0 284#CFE1162A6B46664C
(1502935133.571280) vcan0 284#C0FE6C73FC16B202
(1502935133.581523) vcan0 284#C21B223CA6270753
(1502935133.591734) vcan0 284#B108C1175F19EF3F
(1502935133.601852) vcan0 284#3793A950DBD4A644
(1502935133.612101) vcan0 284#28F1CC6B929B0418
(1502935133.622312) vcan0 284#393957017B6A625F
(1502935133.632433) vcan0 284#799F655F90908E06
(1502935133.642632) vcan0 284#B72F261D68620945
(1502935133.652880) vcan0 284#4766417A36F4E25F
(1502935133.662994) vcan0 284#97CB9638B82A2971
(1502935133.673223) vcan0 284#F9BE6D406DF5DB34
(1502935133.683434) vcan0 284#5B33CA0B992A0008
(1502935133.693631) vcan0 284#AF72F3037B8A3557
(1502935133.703882) vcan0 284#0A023E713D07BF45
(1502935133.714096) vcan0 284#A2F24825D9E3541B
(1502935133.724290) vcan0 284#A84D251263F1B518
(1502935133.734556) vcan0 284#D6FA061E6A69474E
(1502935133.744761) vcan0 284#0919BD6B8703C835
(1502935133.754937) vcan0 284#C982360E41AC663C
(1502935133.765148) vcan0 284#62D86E7AF173037A
(1502935133.775413) vcan0 284#D3476B549B11C67B
(1502935133.785657) vcan0 284#6DDE65594CE7D033
(1502935133.795937) vcan0 284#2BA25402240E8C76
(1502935133.806241) vcan0 284#B449DA787208967C
(1502935133.816587) vcan0 284#5A026F564C157131
(1502935133.826882) vcan0 284#2A33BF6D53C1DC16
(1502935133.837149) vcan0 284#B90A4D6685668979
(1502935133.847403) vcan0 284#ECEBDC1E687D406A
(1502935133.857706) vcan0 284#01F1BE50F7ED1A10
(1502935133.868223) vcan0 284#A584FF2FA3E30776
(1502935133.878452) vcan0 284#D0D16F2B4DD22442
(1502935133.888704) vcan0 284#06D5BD0EA6CC7649
(1502935133.898913) vcan0 284#B73B6C1010EE7A7A
(1502935133.909031) vcan0 284#2DD03E7F80BEA21E
(1502935133.919276) vcan0 284#519AE13690A8AD79
(1502935133.929471) vcan0 284#7132A61824E24C0B
(1502935133.939602) vcan0 284#2BBA7375DE100C72
(1502935133.949832) vcan0 284#71C91D3F575CC877
(1502935133.960068) vcan0 284#031F98682513F837
(1502935133.970255) vcan0 284#C9645E745D21073F
(1502935133.980517) vcan0 284#71286969F4971D62
(1502935133.990725) vcan0 284#B1E2E3552A33B64F
(1502935134.000903) vcan0 284#79FEA65B9DCEC074
(1502935134.011184) vcan0 284#92B0F6397AEF652C
(1502935134.021411) vcan0 284#94BCDB043735F669
(1502935134.031608) vcan0 284#1ED36D22658E4B30
(1502935134.041861) vcan0 284#84071B2C24A82B31
(1502935134.052088) vcan0 284#0B5BC2793B43873C
