(1502932492.268168) vcan0 284#4B22360A2B052756
(1502932492.368372) vcan0 284#BFC63C78C9DD2749
(1502932492.468565) vcan0 284#E3E0641BF979B13B
(1502932492.568756) vcan0 284#923BCD6EEC831F54
(1502932492.668951) vcan0 284#D8438D680E00137B
(1502932492.769147) vcan0 284#1EF7DE59E8EE2037
(1502932492.869341) vcan0 284#2CA64167E5BF1033
(1502932492.969532) vcan0 284#F0D3A7656FC99360
(1502932493.069798) vcan0 284#A0C169665D71A023
(1502932493.170075) vcan0 284#8D0E824FEA14AC66
(1502932493.270343) vcan0 284#B0916E685F6D040F
(1502932493.370601) vcan0 284#5CF30927BBA53E4C
(1502932493.470846) vcan0 284#394D6737A7CFD227
(1502932493.571092) vcan0 284#EEA3F3121502A80F
(1502932493.671358) vcan0 284#5D69691DAE8C242B
(1502932493.771629) vcan0 284#68BC2E75A88B9F27
(1502932493.871896) vcan0 284#D9914B0127836B6D
(1502932493.972173) vcan0 284#7169C770BC72B01C
(1502932494.072441) vcan0 284#21FD1C2903A5945F
(1502932494.172711) vcan0 284#A8F6CF70F940AA11
(1502932494.272991) vcan0 284#11A5A75AC7EDAE4A
(1502932494.373268) vcan0 284#E12FCB483E4BE941
(1502932494.473551) vcan0 284#ACADBF7DD203732E
(1502932494.573816) vcan0 284#AD147D224C6F2964
(1502932494.674100) vcan0 284#2F7513523A23FF71
(1502932494.774377) vcan0 284#3784D54ADF06823A
(1502932494.874641) vcan0 284#999003019377DF71
(1502932494.974921) vcan0 284#9BACC006D3DD6A38
(1502932495.075192) vcan0 284#3B47B2198950B419
(1502932495.175468) vcan0 284#E8DF124898B01B37
(1502932495.275746) vcan0 284#37DDD844519C413D
(1502932495.376021) vcan0 284#403CBB5E106F2446
(1502932495.476296) vcan0 284#781FAD2AB2A5824F
(1502932495.576570) vcan0 284#CCE1D462991CCA53
(1502932495.676855) vcan0 284#B54A172F75D8A453
(1502932495.777153) vcan0 284#935D7465C7EFBE09
(1502932495.877433) vcan0 284#3CC6531E748D3F2E
(1502932495.977705) vcan0 284#053BA84BE873131C
(1502932496.077973) vcan0 284#4691B25CB24F256E
(1502932496.178250) vcan0 284#35E33C007506C62E
(1502932496.278521) vcan0 284#EC7224606C67124B
(1502932496.378794) vcan0 284#550D486985032861
(1502932496.479057) vcan0 284#FFDEF13CF0B90870
(1502932496.579320) vcan0 284#58E192193A26A456
(1502932496.679595) vcan0 284#790ABD0941C1A561
(1502932496.779862) vcan0 284#D2D6BF0DB1E7954E
(1502932496.880137) vcan0 284#925DE71E13137B6C
(1502932496.980400) vcan0 284#C156BA140A7D9449
(1502932497.080669) vcan0 284#C5B8FD3B8E388F77
(1502932497.180935) vcan0 284#A4995E1D7A03156B
(1502932497.281204) vcan0 284#0311344B37F7D202
(1502932497.381472) vcan0 284#41F3D3743FD78769
(1502932497.481743) vcan0 284#AB841231462E7C40
(1502932497.582010) vcan0 284#274B9B05F215C50D
(1502932497.682274) vcan0 284#F87DA12E5C2ED805
(1502932497.782541) vcan0 284#671C8B3CE4F0C50E
(1502932497.882807) vcan0 284#C895EA50BC29D325
(1502932497.983147) vcan0 284#6AF4ED6FC874DC0D
(1502932498.083409) vcan0 284#ACE3DB15C2D58009
(1502932498.183676) vcan0 284#029B806426EE981F
(1502932498.283966) vcan0 284#0397266BD5714072
(1502932498.384265) vcan0 284#D7D52E6E95F40D0A
(1502932498.484537) vcan0 284#E884BB5E982CE902
(1502932498.584784) vcan0 284#A071A253AD3DB91A
(1502932498.685034) vcan0 284#2665787A440B0171
(1502932498.785278) vcan0 284#2741CE052976AC45
(1502932498.885526) vcan0 284#7B02D4736934A27A
(1502932498.985791) vcan0 284#684D342F2687E624
(1502932499.086057) vcan0 284#AF621E3B9098CF34
(1502932499.186326) vcan0 284#189DAB32A8E0BF69
(1502932499.286585) vcan0 284#ECC6A73A80B9366F
(1502932499.386859) vcan0 284#8CD18578B55C920B
(1502932499.487127) vcan0 284#3CE30915F6C57368
(1502932499.587354) vcan0 284#7DD16E19E9C6E52A
(1502932499.687592) vcan0 284#B99BF4717F6CEF7D
(1502932499.787858) vcan0 284#0FB57E4ABC321B5D
(1502932499.888130) vcan0 284#54DE2F70E68AAD38
(1502932499.988396) vcan0 284#522729673C63EB4E
(1502932500.088672) vcan0 284#7EB7963BF298CB3A
(1502932500.188969) vcan0 284#E9A0A469A51C0F36
(1502932500.289259) vcan0 284#36A4CC2B11E2726F
(1502932500.389558) vcan0 284#CE92BB7BB1A6A01F
(1502932500.489827) vcan0 284#7A16156A37E0EF2A
(1502932500.590103) vcan0 284#D72D874429793325
(1502932500.690375) vcan0 284#C778BF5FF0CA3277
(1502932500.790653) vcan0 284#D159F30EB33F671A
(1502932500.890940) vcan0 284#708469665E2B7907
(1502932500.991225) vcan0 284#689CF925AC67737B
(1502932501.091508) vcan0 284#54F1EC6FE56D683F
(1502932501.191787) vcan0 284#952E59260D8DE161
(1502932501.292069) vcan0 284#65DA573DA4E3D770
(1502932501.392353) vcan0 284#CABFFC3EB9B8872D
(1502932501.492636) vcan0 284#8A6E85291CE72526
(1502932501.592995) vcan0 284#F61B737C09261C65
(1502932501.693280) vcan0 284#0E80F160DFBC1766
(1502932501.793578) vcan0 284#AE422B1B4424BE0C
(1502932501.893857) vcan0 284#F09E8A557CD5E616
(1502932501.994145) vcan0 284#F5CA5E2C6AB59F3F
(1502932502.094438) vcan0 284#B3B5D641CCF8E570
(1502932502.194730) vcan0 284#942ED3647A2E9621
