(1502934679.838654) vcan0 284#EE2CF733F2B3EF5A
(1502934679.849104) vcan0 284#126A75686DFE2535
(1502934679.859420) vcan0 284#CABCAB6454348823
(1502934679.869664) vcan0 284#10BB22610FB8202E
(1502934679.879889) vcan0 284#55473F625C0AB304
(1502934679.890152) vcan0 284#D5506966F10A3E37
(1502934679.900360) vcan0 284#C865E5629393FA3E
(1502934679.910579) vcan0 284#F4222357E97CAB29
(1502934679.920746) vcan0 284#DB4CE658C0DAA572
(1502934679.930890) vcan0 284#15955A4DDCE7F360
(1502934679.941093) vcan0 284#28F9AC16E6C7E744
(1502934679.951267) vcan0 284#77CFC4028F9F1568
(1502934679.961408) vcan0 284#7D6B2746DE1E5D48
(1502934679.971605) vcan0 284#10D8286681419D45
(1502934679.981724) vcan0 284#0BFE7C277C265C2F
(1502934679.991841) vcan0 284#16BD8C73FA2A745B
(1502934680.002041) vcan0 284#6EDA4B0A2827025C
(1502934680.012159) vcan0 284#67299A103997F76E
(1502934680.022270) vcan0 284#7C5B8A7F78E4BC71
(1502934680.032465) vcan0 284#484F181DD1A2C961
(1502934680.042584) vcan0 284#D4EE6F761EA08103
(1502934680.052745) vcan0 284#C3AD07199C545559
(1502934680.062966) vcan0 284#B1337C42B7D02A70
(1502934680.073155) vcan0 284#85D100038C80621B
(1502934680.083293) vcan0 284#78ABD0629A665B50
(1502934680.093506) vcan0 284#6868567CA0A47D79
(1502934680.103627) vcan0 284#812E4315DF371B7F
(1502934680.113738) vcan0 284#2F449361FE996A5B
(1502934680.123927) vcan0 284#BD5678473F1CBC47
(1502934680.134049) vcan0 284#7FDB0721C854F56E
(1502934680.144166) vcan0 284#BB42187795989414
(1502934680.154360) vcan0 284#C27F694A2A1D6401
(1502934680.164486) vcan0 284#BDBF96702AA9035B
(1502934680.174654) vcan0 284#63B45B70391B2170
(1502934680.184856) vcan0 284#A28DC04CAB03740D
(1502934680.194969) vcan0 284#0BBEEA51767C3043
(1502934680.205086) vcan0 284#C9A3F510CE6BF26A
(1502934680.215275) vcan0 284#13D1851C7AD77153
(1502934680.225392) vcan0 284#853C1D5B98A2861F
(1502934680.235508) vcan0 284#0658D46EFDE7ED3D
(1502934680.245698) vcan0 284#3309E26F6EC02A6B
(1502934680.255860) vcan0 284#9E8C6B37B4372505
(1502934680.265999) vcan0 284#4DF8456ACDD0FE18
(1502934680.276202) vcan0 284#B2D18F600A4FBE31
(1502934680.286336) vcan0 284#0DEDBA6031AD9701
(1502934680.296468) vcan0 284#D3A3B320C82FD357
(1502934680.306667) vcan0 284#C7452C1695231D6B
(1502934680.316790) vcan0 284#F24C37598405C306
(1502934680.326909) vcan0 284#BFCC204655019349
(1502934680.337104) vcan0 284#BE20E476615AE112
(1502934680.347220) vcan0 284#01050757C9DECE48
(1502934680.357379) vcan0 284#D8D61156CAA8FC67
(1502934680.367593) vcan0 284#974AC133EBA79772
(1502934680.377763) vcan0 284#45806E3B1C87DE0E
(1502934680.387908) vcan0 284#834A1E124BD8422A
(1502934680.398116) vcan0 284#1A6FCC4CB6530002
(1502934680.408235) vcan0 284#BA986D15B8FB3704
(1502934680.418359) vcan0 284#6A8B25070791B37F
(1502934680.428557) vcan0 284#85CC361D1C5DB567
(1502934680.438678) vcan0 284#12E0713192B9F17D
(1502934680.448813) vcan0 284#4E0A4D69E5832552
(1502934680.462381) vcan0 284#5BE9C4551550797F
(1502934680.472569) vcan0 284#7AA7423D4D36FC2E
(1502934680.485459) vcan0 284#99553C063A746303
(1502934680.495656) vcan0 284#A3378F785776207D
(1502934680.505774) vcan0 284#9BCE4416A43C964F
(1502934680.516007) vcan0 284#2055EF4573A5566C
(1502934680.526226) vcan0 284#6EE59237B79FB079
(1502934680.536354) vcan0 284#5E4DEE5EB3650173
(1502934680.546584) vcan0 284#D4268F08E2970C71
(1502934680.556785) vcan0 284#FF3D441DEE955B55
(1502934680.566961) vcan0 284#98EB0C73B9D6B132
(1502934680.577256) vcan0 284#A69193590377327A
(1502934680.587587) vcan0 284#C06765322B5ECA76
(1502934680.597878) vcan0 284#1FD4E761D247D763
(1502934680.608252) vcan0 284#BE17BC746DDE344B
(1502934680.618704) vcan0 284#B7CBFC351901814A
(1502934680.628989) vcan0 284#822EAE4A32733F73
(1502934680.639308) vcan0 284#66377D791C84EA50
(1502934680.649785) vcan0 284#6CE7A276096F0C72
(1502934680.660075) vcan0 284#73FA0A4E07B6E70C
(1502934680.670453) vcan0 284#ADABA241944FFA13
(1502934680.680873) vcan0 284#7B5B3E791C913579
(1502934680.691107) vcan0 284#4BEFAA0DD9A82C58
(1502934680.701460) vcan0 284#CFF6366C1F163A16
(1502934680.711866) vcan0 284#BB403949CE347B09
(1502934680.722066) vcan0 284#0DAC956B542C463C
(1502934680.732416) vcan0 284#870B2D3CB33D2945
(1502934680.742974) vcan0 284#57A378364873926E
(1502934680.753285) vcan0 284#DF9BF33B76776018
(1502934680.763583) vcan0 284#1ABB69529DB3AF30
(1502934680.773859) vcan0 284#E4559563D2866608
(1502934680.784139) vcan0 284#B6B4307B6684432E
(1502934680.794408) vcan0 284#04FAA57B1CECAD74
(1502934680.804736) vcan0 284#82082E7F70E14872
(1502934680.815021) vcan0 284#265BBA66F602394D
(1502934680.825353) vcan0 284#7797307FD3065D28
(1502934680.835956) vcan0 284#8A523361F2F26E78
(1502934680.846498) vcan0 284#EF979221D541DE6E
(1502934680.856992) vcan0 284#CC9B9B50BF8EC90D
