(1502932533.507841) vcan0 284#6A5A742C64491712
(1502932533.518171) vcan0 284#A6E19126911AC861
(1502932533.528550) vcan0 284#4820DA53322ADC37
(1502932533.538973) vcan0 284#C92AEE709D112A78
(1502932533.549427) vcan0 284#852CAD6D2C604D41
(1502932533.559741) vcan0 284#D40E1F5CD1B2CF5F
(1502932533.570050) vcan0 284#1E7EF84D30FCBA68
(1502932533.580334) vcan0 284#D698F41BDF877261
(1502932533.590482) vcan0 284#051C8B6B3AC9480A
(1502932533.600747) vcan0 284#A89C777560D83566
(1502932533.610920) vcan0 284#E47BE60F5DEC4D48
(1502932533.621026) vcan0 284#04523170DE1F344C
(1502932533.631222) vcan0 284#60C69F267C1A260C
(1502932533.641351) vcan0 284#59824307BC421F48
(1502932533.651453) vcan0 284#FB0B74494BB2284A
(1502932533.661643) vcan0 284#96D8E61F6566E875
(1502932533.671772) vcan0 284#AFFB3F5C3CBA7846
(1502932533.681947) vcan0 284#F680B057F81B1A30
(1502932533.692170) vcan0 284#6EE4547EC0AB9E48
(1502932533.702354) vcan0 284#952D4428F310026C
(1502932533.712502) vcan0 284#EC0BEC096A3C6304
(1502932533.722705) vcan0 284#C5C3D14B0A8AE457
(1502932533.732940) vcan0 284#9A381E6D9B5CC667
(1502932533.743055) vcan0 284#E91157399F54A958
(1502932533.753239) vcan0 284#D5250F7291AECE2E
(1502932533.763437) vcan0 284#FF2CDF3EB9A1F501
(1502932533.773543) vcan0 284#EE9A1C77037F102F
(1502932533.783737) vcan0 284#98C1294E4E61BC1D
(1502932533.793952) vcan0 284#8099363BF1436D55
(1502932533.804106) vcan0 284#0BA4DB657BA5AA04
(1502932533.814312) vcan0 284#3CF6951FA17CC205
(1502932533.824457) vcan0 284#E00B937AEBF1D57B
(1502932533.834557) vcan0 284#DE363B4CD78C4352
(1502932533.844756) vcan0 284#E30DF02B4C1B904A
(1502932533.854894) vcan0 284#9738E21A793B3454
(1502932533.864987) vcan0 284#402C92368344CE24
(1502932533.875199) vcan0 284#E377975805F06302
(1502932533.885386) vcan0 284#8ECEB27C7DB0B545
(1502932533.895500) vcan0 284#A04C2A6A77E00936
(1502932533.905704) vcan0 284#1C055F1E7572395C
(1502932533.915896) vcan0 284#098FD8641B323E5D
(1502932533.926009) vcan0 284#2F142F5EF729F55B
(1502932533.936205) vcan0 284#1FB14E0CC7D5582C
(1502932533.946341) vcan0 284#468BB1799F4A8547
(1502932533.956442) vcan0 284#B819C601512F8D5F
(1502932533.966641) vcan0 284#1AF02F4CF40F5C21
(1502932533.976836) vcan0 284#F2AB4F65FAFBC246
(1502932533.987003) vcan0 284#DF01321DD0E28A31
(1502932533.997206) vcan0 284#D1880619C30F2249
(1502932534.007389) vcan0 284#1DFE1A7C68C1E833
(1502932534.017501) vcan0 284#3C4B561D5D2AAD32
(1502932534.027700) vcan0 284#EC05B7581FC3ED75
(1502932534.037836) vcan0 284#621A11357AD46955
(1502932534.047934) vcan0 284#9C73A33B02673B1F
(1502932534.058127) vcan0 284#F1B4730BB878025A
(1502932534.068258) vcan0 284#77D9747BFA434C70
(1502932534.078401) vcan0 284#D3AA4037A6EDA359
(1502932534.088604) vcan0 284#F26D414CF25B8F43
(1502932534.098799) vcan0 284#6DC3FC0538F9F245
(1502932534.108970) vcan0 284#91A6140B25DDC207
(1502932534.119183) vcan0 284#89288025AB964457
(1502932534.129319) vcan0 284#19ED1E297BD4CF0A
(1502932534.139416) vcan0 284#A692071EF9EE5046
(1502932534.149615) vcan0 284#4CB75A3C771B0E37
(1502932534.160376) vcan0 284#BCFE720F69B57538
(1502932534.170488) vcan0 284#E0DCF66AF849C92C
(1502932534.181353) vcan0 284#C6DF226BCCE2AD43
(1502932534.191507) vcan0 284#170DB72228FA3320
(1502932534.201652) vcan0 284#46B71719B3805A5E
(1502932534.211858) vcan0 284#2A616F3F376C8B24
(1502932534.221984) vcan0 284#6BF95C38A13AE43A
(1502932534.232078) vcan0 284#32B0D7143EA49D6F
(1502932534.242270) vcan0 284#48288814241E1961
(1502932534.252399) vcan0 284#31002D33B5EB841A
(1502932534.262491) vcan0 284#5C170C27C2A6413E
(1502932534.272686) vcan0 284#DBC84722E53F8C4C
(1502932534.282920) vcan0 284#6E3D8615F4B5664B
(1502932534.293078) vcan0 284#60145C5714D08D33
(1502932534.303323) vcan0 284#EDA4B711ACCBB613
(1502932534.313589) vcan0 284#8BEB9B6AA9A32A21
(1502932534.323759) vcan0 284#15812C4C6BC89255
(1502932534.334038) vcan0 284#A1EDF34DDB604F37
(1502932534.344318) vcan0 284#37AB4019B8FAAA70
(1502932534.354488) vcan0 284#035B83577D625832
(1502932534.364776) vcan0 284#6B7B054F2DBCF216
(1502932534.375061) vcan0 284#B5CEE356D6746207
(1502932534.385309) vcan0 284#CFF6D651E77EBB6B
(1502932534.395637) vcan0 284#15190077171F5F66
(1502932534.405909) vcan0 284#0B9DD44C46192D2A
(1502932534.416128) vcan0 284#CC0AE40067B4E073
(1502932534.426411) vcan0 284#08C06E68A7D32B23
(1502932534.436671) vcan0 284#4CF46C4076FDF47D
(1502932534.446859) vcan0 284#9C89926EAC08C917
(1502932534.457151) vcan0 284#8ACD8231892E4A00
(1502932534.467428) vcan0 284#59D47F2B16B91E1C
(1502932534.477589) vcan0 284#33D274216E55AC77
(1502932534.487869) vcan0 284#8181B171D4BF686F
(1502932534.498130) vcan0 284#4AB6FB2EB92CF20A
(1502932534.508344) vcan0 284#8DBA13604D117F06
(1502932534.518667) vcan0 284#368F4A3DF835192F
