(1502935112.530197) vcan0 284#7AE3A43984DF785B
(1502935112.540401) vcan0 284#399B1D347978E472
(1502935112.550631) vcan0 284#A3263A1873AC5F7B
(1502935112.560858) vcan0 284#BEABB31C9F88FE42
(1502935112.571058) vcan0 284#D885871F7729C91A
(1502935112.581289) vcan0 284#ED55D20D7835AF04
(1502935112.591450) vcan0 284#E198F53515F53D6C
(1502935112.601619) vcan0 284#C6E7EA5DD449090D
(1502935112.611851) vcan0 284#F162BC74EFC5D816
(1502935112.622022) vcan0 284#33201B7955108A4A
(1502935112.632141) vcan0 284#5A85675DC10D617D
(1502935112.642371) vcan0 284#E3DD092F2C23F86F
(1502935112.652579) vcan0 284#CB7A772335E76845
(1502935112.662698) vcan0 284#9CBE9D04AAF42B48
(1502935112.672970) vcan0 284#BE24252D48972268
(1502935112.683144) vcan0 284#430CBB5D3808CA66
(1502935112.693260) vcan0 284#CC769B437DA7D811
(1502935112.703464) vcan0 284#B280AE59709DD55B
(1502935112.713658) vcan0 284#F053380D702C6276
(1502935112.723768) vcan0 284#0F26D41EC8D9BF2C
(1502935112.733970) vcan0 284#E7552B11FC7BA62C
(1502935112.744149) vcan0 284#410F6F31C8EE2047
(1502935112.754311) vcan0 284#1171E41807F7590F
(1502935112.764536) vcan0 284#9C382A5403D4A00D
(1502935112.774728) vcan0 284#F6BC3226CF58454D
(1502935112.784892) vcan0 284#58E42A5850429A03
(1502935112.795113) vcan0 284#9066A64A3BC23407
(1502935112.805345) vcan0 284#7C6592735CE11D6E
(1502935112.815494) vcan0 284#70A99D4C19243078
(1502935112.825716) vcan0 284#06D649362ECEC279
(1502935112.835877) vcan0 284#61BB526049E20414
(1502935112.845984) vcan0 284#67D68C602E32EE23
(1502935112.860396) vcan0 284#C689DD2519573B3A
(1502935112.870530) vcan0 284#9ECFC37FB6DD1533
(1502935112.880707) vcan0 284#89839D30ADF5971E
(1502935112.890916) vcan0 284#7FB7D55F70D9C841
(1502935112.901089) vcan0 284#AA713E4BC0C64411
(1502935112.911279) vcan0 284#39C8E908BBE22264
(1502935112.921494) vcan0 284#C7BD9E20D500145D
(1502935112.931620) vcan0 284#BEB6C371BD7AD146
(1502935112.952066) vcan0 284#A559592A179BEE49
(1502935112.962238) vcan0 284#0DBD6B4A35C0FF74
(1502935112.972431) vcan0 284#525D23518922FE3D
(1502935112.982643) vcan0 284#91A11D63C306C11D
(1502935112.992870) vcan0 284#A2462E3697776719
(1502935113.003034) vcan0 284#F1D4831704028116
(1502935113.013247) vcan0 284#E1596C2D58AB1078
(1502935113.023388) vcan0 284#32346F3AA7E34953
(1502935113.033561) vcan0 284#71024C32D003333A
(1502935113.043768) vcan0 284#5EC15F06FA85E962
(1502935113.053945) vcan0 284#7DF9CA58DD783566
(1502935113.064160) vcan0 284#6B5FB224276B0924
(1502935113.074353) vcan0 284#9D3F7A77A4279C2D
(1502935113.084477) vcan0 284#E34D2C0864FD1818
(1502935113.094722) vcan0 284#7928B00AA104F079
(1502935113.104928) vcan0 284#2178EA5E1E820935
(1502935113.115093) vcan0 284#B89FDE432E355629
(1502935113.125368) vcan0 284#5442092A0BFD0115
(1502935113.135588) vcan0 284#B7575467E5E3260D
(1502935113.145718) vcan0 284#CE03C3325A9E821D
(1502935113.155968) vcan0 284#7D5B8E26BFD8464A
(1502935113.166203) vcan0 284#5EA003345EB5FA53
(1502935113.176326) vcan0 284#1884574290D4726E
(1502935113.186555) vcan0 284#059944278986A374
(1502935113.196766) vcan0 284#60D8A528635AA42D
(1502935113.206949) vcan0 284#840C8D57DDD17001
(1502935113.217214) vcan0 284#40D3D913EF6B3F7C
(1502935113.227590) vcan0 284#053D7A25DD12540B
(1502935113.237878) vcan0 284#9393DB29E88AA62D
(1502935113.248176) vcan0 284#41106D230CBC8B34
(1502935113.258477) vcan0 284#898F962762885702
(1502935113.268754) vcan0 284#2B3E9569422F756B
(1502935113.279050) vcan0 284#90BDAD2B7F809E13
(1502935113.289403) vcan0 284#4D2C770048150213
(1502935113.299714) vcan0 284#6464C5201B303A33
(1502935113.310018) vcan0 284#A2B38430E1BF5347
(1502935113.320324) vcan0 284#DA08817D00548864
(1502935113.330507) vcan0 284#3F754E1BF28CD83F
(1502935113.340711) vcan0 284#9028FB52450E9342
(1502935113.350926) vcan0 284#7C137C34F000A17B
(1502935113.361092) vcan0 284#A86837700020090C
(1502935113.371329) vcan0 284#CDD2117DE93B1104
(1502935113.381528) vcan0 284#EF8B4808D20F8C22
(1502935113.391652) vcan0 284#C64E650F821F2432
(1502935113.401897) vcan0 284#BA9A3250085FD232
(1502935113.412117) vcan0 284#8EDBAF66442AC977
(1502935113.422281) vcan0 284#6AE72935B9194550
(1502935113.432522) vcan0 284#86593E63FBA4D760
(1502935113.442740) vcan0 284#389AE363D385B563
(1502935113.452874) vcan0 284#43BAD9739DFEA804
(1502935113.463067) vcan0 284#EEB5EF16E56D5E24
(1502935113.473289) vcan0 284#7EBEFC4BC8BE7014
(1502935113.483432) vcan0 284#E5C1E608BE334B67
(1502935113.493632) vcan0 284#BB4B495475EAE15B
(1502935113.503844) vcan0 284#0342DE29375FC508
(1502935113.513967) vcan0 284#65EB8257ABAA151A
(1502935113.524171) vcan0 284#377FCE1432BE9454
(1502935113.534377) vcan0 284#94E6261E260B171D
(1502935113.544669) vcan0 284#05CE20775B358C2D
(1502935113.554905) vcan0 284#A82A3B4FBF685347
