(1502935098.932525) vcan0 284#01EA5A2E9C665808
(1502935098.942745) vcan0 284#1867C85884206D6F
(1502935098.952930) vcan0 284#65E09766C720046D
(1502935098.963163) vcan0 284#312FB949AD1D8724
(1502935098.973390) vcan0 284#E3B9566F96577E0C
(1502935098.983633) vcan0 284#8CD70502A275E46B
(1502935098.993951) vcan0 284#1D8BCE651B0BAA51
(1502935099.004237) vcan0 284#DF2389072037776B
(1502935099.014496) vcan0 284#3ABFDC1D643DAD1D
(1502935099.024800) vcan0 284#FD56CB650C96C462
(1502935099.035119) vcan0 284#5B0EB0481E0D3D7F
(1502935099.045303) vcan0 284#BB6AD9249F1B6670
(1502935099.055618) vcan0 284#3CCA06161D05AB13
(1502935099.065908) vcan0 284#CF8AD866A0EAA010
(1502935099.076137) vcan0 284#36553972006FDF07
(1502935099.086452) vcan0 284#6CDDE01B383F9420
(1502935099.096759) vcan0 284#9CD537108444A974
(1502935099.106951) vcan0 284#BC5F011001B6CF76
(1502935099.117292) vcan0 284#4B65AD61ED8EBA59
(1502935099.127728) vcan0 284#AED3561B2F1F0451
(1502935099.137980) vcan0 284#84E638663AAB5C1D
(1502935099.148292) vcan0 284#D194E83CA171074C
(1502935099.158613) vcan0 284#56B6066FB1B87144
(1502935099.168849) vcan0 284#C2A87E379075E30C
(1502935099.179255) vcan0 284#15F61E62BFFF491D
(1502935099.189561) vcan0 284#9C0BA86F7004CF2A
(1502935099.199740) vcan0 284#DD0C871C57768114
(1502935099.210064) vcan0 284#1020351B1AD78D32
(1502935099.220352) vcan0 284#747B2C28DFAA0D02
(1502935099.230597) vcan0 284#BAC12E43ABD0651A
(1502935099.240929) vcan0 284#DF19ED09269F0F5F
(1502935099.251282) vcan0 284#E30FFA3A7CEF241A
(1502935099.261468) vcan0 284#AAE3B8539F6FFB4A
(1502935099.271773) vcan0 284#7DA5F410F6486635
(1502935099.282084) vcan0 284#8DFEB5242C794B2C
(1502935099.292231) vcan0 284#25686A0611E5EE0A
(1502935099.302658) vcan0 284#6624A849F6FC5243
(1502935099.312946) vcan0 284#B256F656BCDAAE38
(1502935099.323143) vcan0 284#A7B5C40774FF740E
(1502935099.333532) vcan0 284#4C509245BDABE369
(1502935099.343787) vcan0 284#34FFBE2BE95B3A35
(1502935099.353917) vcan0 284#2DB0B214110C4648
(1502935099.364303) vcan0 284#40D2BB493DD0E72F
(1502935099.374530) vcan0 284#2BE3D37AB54DE871
(1502935099.384646) vcan0 284#1D7BF531E5A4023E
(1502935099.395029) vcan0 284#601E4E0CFC94E23B
(1502935099.405275) vcan0 284#0B44121D432E4847
(1502935099.415441) vcan0 284#78840756B627CB70
(1502935099.425643) vcan0 284#E29D4312F629FC66
(1502935099.435867) vcan0 284#AC7031266F9CF936
(1502935099.445983) vcan0 284#22A34713D1D89B2C
(1502935099.456377) vcan0 284#8081E84188C7EF5C
(1502935099.466601) vcan0 284#C7D5EE6F33D8DE18
(1502935099.476770) vcan0 284#45A29E156F8BB377
(1502935099.487162) vcan0 284#A7D7532791F2305B
(1502935099.497382) vcan0 284#2C379761DBD61253
(1502935099.507504) vcan0 284#7A4E6B1059E74976
(1502935099.517702) vcan0 284#EDE2581BBB20275A
(1502935099.527891) vcan0 284#97B7312618C62C16
(1502935099.538009) vcan0 284#706E0F4CB4322758
(1502935099.548394) vcan0 284#FE6A2F54D08C5D58
(1502935099.558631) vcan0 284#B0C7091409AF4171
(1502935099.568751) vcan0 284#13BBA51F294C116A
(1502935099.579141) vcan0 284#BFD60C62F558E931
(1502935099.589467) vcan0 284#1F760D516B473E08
(1502935099.599585) vcan0 284#65F5E26841195564
(1502935099.609978) vcan0 284#3C20DA34E576CB2A
(1502935099.620201) vcan0 284#C9E0444104F6C824
(1502935099.630389) vcan0 284#184FAA430E83E356
(1502935099.640834) vcan0 284#73817C1CC026FE6A
(1502935099.651061) vcan0 284#A07514329FB8137E
(1502935099.661180) vcan0 284#9BFD103E1AC47F42
(1502935099.671367) vcan0 284#F89F5D7488E06959
(1502935099.681576) vcan0 284#D5E4A61C8F578F1A
(1502935099.691690) vcan0 284#A1A6966F4553B668
(1502935099.702080) vcan0 284#438AB6729F11C643
(1502935099.712317) vcan0 284#15E01341F451C006
(1502935099.722488) vcan0 284#A8C00735289BB960
(1502935099.732958) vcan0 284#1D9ED17068971417
(1502935099.743195) vcan0 284#1EF4A2123C14DF41
(1502935099.753316) vcan0 284#D3DE521F83E9857B
(1502935099.763595) vcan0 284#7D2D342610FF2C54
(1502935099.773832) vcan0 284#68605126460E7967
(1502935099.783948) vcan0 284#14F5F57881AFFB69
(1502935099.794343) vcan0 284#55915C3E87767215
(1502935099.804582) vcan0 284#41D6F954F5067170
(1502935099.814703) vcan0 284#262F8613DCD30A13
(1502935099.825042) vcan0 284#0FCBF0321ECFE307
(1502935099.835292) vcan0 284#65B4746CE5AF974F
(1502935099.845415) vcan0 284#AE267322065B0B5C
(1502935099.855812) vcan0 284#2A034E38F1B02915
(1502935099.866038) vcan0 284#A56CD11F40E36179
(1502935099.876195) vcan0 284#E502EA1B4D2DD954
(1502935099.886559) vcan0 284#687E1B5A02A1BB0C
(1502935099.896784) vcan0 284#B5C4ED6B8672BE6C
(1502935099.906905) vcan0 284#3EB59A4E89A3400B
(1502935099.917235) vcan0 284#095C4468BBE2CE74
(1502935099.927467) vcan0 284#99A26D5F72BC950E
(1502935099.937588) vcan0 284#02F1475CAD976358
(1502935099.947786) vcan0 284#F36B91785782A41A
