(1502934683.863856) vcan0 284#032EDF278328E732
(1502934683.874057) vcan0 284#5A5FBB0B39846B2A
(1502934683.884255) vcan0 284#FA938A0A663E3D04
(1502934683.894435) vcan0 284#C8A0F576E527910A
(1502934683.904627) vcan0 284#34C4011FD40DB47C
(1502934683.914813) vcan0 284#3E774F721936B514
(1502934683.924927) vcan0 284#C0BA8377489EA558
(1502934683.935100) vcan0 284#ABC74728D7AE331E
(1502934683.945309) vcan0 284#EA0FE51CB746790C
(1502934683.955424) vcan0 284#BF665007942B7316
(1502934683.965601) vcan0 284#57F4CE69D952690F
(1502934683.975795) vcan0 284#D803E13700FA2D3C
(1502934683.985908) vcan0 284#97EBD826B967683C
(1502934683.997793) vcan0 284#055B2C7C8A782231
(1502934684.008123) vcan0 284#50FF220BDD09B45C
(1502934684.018236) vcan0 284#2E87F13B542D0233
(1502934684.028405) vcan0 284#60329B0F89E6AC47
(1502934684.038597) vcan0 284#8DB16D5D5BC6251A
(1502934684.048709) vcan0 284#EF24EA4B55526354
(1502934684.058886) vcan0 284#40EEB62423E9EB6A
(1502934684.069068) vcan0 284#2A6017517E650617
(1502934684.079248) vcan0 284#3D1FA17FEA1A9B48
(1502934684.089423) vcan0 284#C603AC6FE8E6E827
(1502934684.099605) vcan0 284#C2C9CE66B013910C
(1502934684.109764) vcan0 284#9F2D623481301F6E
(1502934684.119944) vcan0 284#443F0423F621311E
(1502934684.130133) vcan0 284#5B83887D1C43E55A
(1502934684.140242) vcan0 284#F61B5F5AF26E6124
(1502934684.150444) vcan0 284#D5AA4D17FB768B56
(1502934684.160774) vcan0 284#7CE7835526AA7022
(1502934684.170891) vcan0 284#D8803F33AB6E7511
(1502934684.181084) vcan0 284#7AD7725538B3DA42
(1502934684.191280) vcan0 284#345522590789E032
(1502934684.201440) vcan0 284#9379005D237A0C25
(1502934684.211617) vcan0 284#5CDB4307D367B701
(1502934684.221808) vcan0 284#4663F80F863B5B58
(1502934684.231921) vcan0 284#51CDBD188382990F
(1502934684.242116) vcan0 284#7156F62017D16908
(1502934684.252437) vcan0 284#6B6982373320C507
(1502934684.262559) vcan0 284#C7E4FA140A97E46B
(1502934684.275493) vcan0 284#B450E4750C24FF37
(1502934684.285813) vcan0 284#00B9150A0FD46C73
(1502934684.295959) vcan0 284#2867E412F6D47464
(1502934684.306142) vcan0 284#0143CE17FE11322A
(1502934684.316312) vcan0 284#F14B003B7E2A526D
(1502934684.326419) vcan0 284#24BCA24CC9CC3F6E
(1502934684.336633) vcan0 284#2999C77E9E931522
(1502934684.346929) vcan0 284#02801A315DEEE957
(1502934684.357035) vcan0 284#A51CF65495F91A0E
(1502934684.367221) vcan0 284#8068F67C01F8395C
(1502934684.377410) vcan0 284#6961D20FC6CBEE0C
(1502934684.387524) vcan0 284#88339534BA2E9028
(1502934684.397743) vcan0 284#4A4E881CF9898B55
(1502934684.407929) vcan0 284#D2FFF930B5B70A54
(1502934684.418039) vcan0 284#2CAA505D99E4F445
(1502934684.428247) vcan0 284#C04EEF3FE0FA3453
(1502934684.438395) vcan0 284#A508F47DC007054A
(1502934684.448494) vcan0 284#F0CEA146CE6FD810
(1502934684.458705) vcan0 284#B7DC792EF111705E
(1502934684.468894) vcan0 284#CC810A3BA8287A69
(1502934684.479076) vcan0 284#6F3CC24BF03DAD07
(1502934684.489291) vcan0 284#72F5B95798D5894A
(1502934684.499463) vcan0 284#8ED1C2297475D408
(1502934684.509659) vcan0 284#F5C3732233EEB87E
(1502934684.519952) vcan0 284#096FEF16752C6A1F
(1502934684.530224) vcan0 284#34E6F25A72D0C126
(1502934684.540382) vcan0 284#3CF8582CBC19880F
(1502934684.552044) vcan0 284#2DFF514F8646E148
(1502934684.562512) vcan0 284#B5A31365FFFE4B00
(1502934684.572735) vcan0 284#3BFEEB1CE14D6442
(1502934684.583021) vcan0 284#98E34046FB4CDB5C
(1502934684.593307) vcan0 284#C24899153EEC3444
(1502934684.603536) vcan0 284#BC54E026B2173B5C
(1502934684.613803) vcan0 284#0C5C0D5573315A55
(1502934684.624086) vcan0 284#A329AB3AD8DD1710
(1502934684.634274) vcan0 284#1B5AD43E13666D06
(1502934684.644506) vcan0 284#C81BC5178D4F8E16
(1502934684.654769) vcan0 284#AB3BF75056ED8741
(1502934684.664958) vcan0 284#01C5621FA1FF6A73
(1502934684.675366) vcan0 284#89DB40400B345236
(1502934684.685654) vcan0 284#162CD512BDC1331B
(1502934684.695878) vcan0 284#7D04145D52242E3F
(1502934684.706099) vcan0 284#7ADBBB2AAA03662C
(1502934684.716335) vcan0 284#D86A0F082F7FCF0F
(1502934684.726516) vcan0 284#A902B22C1469FB24
(1502934684.736746) vcan0 284#11CD335242E6F272
(1502934684.747001) vcan0 284#0FB6D601D315CD67
(1502934684.757188) vcan0 284#80D22737CB0AB728
(1502934684.767416) vcan0 284#852D08448C2E350C
(1502934684.777672) vcan0 284#3E3C117E2857B37E
(1502934684.787877) vcan0 284#640C4D1C5A96E53C
(1502934684.798194) vcan0 284#3BBD20052C281234
(1502934684.808455) vcan0 284#E7E57353E7F81756
(1502934684.818674) vcan0 284#82159A75E9AAD672
(1502934684.828912) vcan0 284#88F882490BF1DA35
(1502934684.839152) vcan0 284#F4DE28299E24585C
(1502934684.849336) vcan0 284#C8B20E5171E33C06
(1502934684.859555) vcan0 284#F148861B428ECA7B
(1502934684.869877) vcan0 284#1CE7A232C9B39523
(1502934684.880408) vcan0 284#720D9A0BC5E9545F
