(1502935116.317243) vcan0 284#41FFA477634C9804
(1502935116.327503) vcan0 284#EAA8E73FD6B29E6A
(1502935116.337698) vcan0 284#4A73AB6FF58A1E41
(1502935116.347922) vcan0 284#5323DF30CDD89B39
(1502935116.358161) vcan0 284#22BB080F67D9CA50
(1502935116.368349) vcan0 284#E2AFA90C26E77A3D
(1502935116.378590) vcan0 284#C9035B2FE465772B
(1502935116.388789) vcan0 284#D527DD3CA4F97A7D
(1502935116.398895) vcan0 284#F941A15A8B299723
(1502935116.409091) vcan0 284#322F66588A688834
(1502935116.419267) vcan0 284#AA56342D43A10909
(1502935116.429424) vcan0 284#2F12B470E74B1278
(1502935116.439662) vcan0 284#5DD69F15EBAA7A67
(1502935116.449848) vcan0 284#AEF8C4346187383A
(1502935116.459965) vcan0 284#41D51B2F78EA5035
(1502935116.470426) vcan0 284#FFA93A1782D4C026
(1502935116.480626) vcan0 284#DB36E939E9522257
(1502935116.490741) vcan0 284#59875F1125AA9429
(1502935116.501142) vcan0 284#DEDD4018ACAA3E42
(1502935116.511355) vcan0 284#F282306300994927
(1502935116.521529) vcan0 284#13840913D432DA6F
(1502935116.531742) vcan0 284#2680C464DC876442
(1502935116.541927) vcan0 284#B998511BFCA7A121
(1502935116.552038) vcan0 284#8081DF3FB2DAF275
(1502935116.562296) vcan0 284#87D13845B3B04518
(1502935116.572504) vcan0 284#3C437B2A31286D72
(1502935116.582669) vcan0 284#F6514F216B552F1B
(1502935116.592949) vcan0 284#19747F6A5328EF36
(1502935116.603099) vcan0 284#5700AA02C76C441F
(1502935116.613218) vcan0 284#B4AF277198D5C531
(1502935116.623403) vcan0 284#40579554B3596208
(1502935116.633544) vcan0 284#1BAA86581B8E7E0E
(1502935116.643692) vcan0 284#9DAC845F7431E669
(1502935116.653881) vcan0 284#413813387B8AC577
(1502935116.664032) vcan0 284#20DC242C33BB431B
(1502935116.674136) vcan0 284#7C230F1F33602E3F
(1502935116.684327) vcan0 284#08EE1D0BA2A3D303
(1502935116.694470) vcan0 284#0FE89201C1866F26
(1502935116.704579) vcan0 284#9E4B75258F697241
(1502935116.714986) vcan0 284#7361621C261DAE6A
(1502935116.725323) vcan0 284#421AB859AFA4DD46
(1502935116.735438) vcan0 284#57451B5D386C077B
(1502935116.745635) vcan0 284#1AFA0C6270B99A47
(1502935116.755782) vcan0 284#8B94F63171FAB664
(1502935116.765938) vcan0 284#3826DF6640441E23
(1502935116.776444) vcan0 284#0AD07C16787D743B
(1502935116.786716) vcan0 284#F39D802B257A036F
(1502935116.796940) vcan0 284#930BF349904A050B
(1502935116.807240) vcan0 284#99ABE958D4430602
(1502935116.817544) vcan0 284#0CD5CA02B9870E05
(1502935116.827811) vcan0 284#08FF491D88F8D921
(1502935116.838109) vcan0 284#ECE73C4410ED6728
(1502935116.848414) vcan0 284#2A9CAD25FBCFCF45
(1502935116.858641) vcan0 284#D173D74EC9E7224B
(1502935116.868905) vcan0 284#8A39420744D5396B
(1502935116.879119) vcan0 284#EF04D135CD53FA60
(1502935116.889287) vcan0 284#F3791732464AEC12
(1502935116.899496) vcan0 284#05C0015C0D742414
(1502935116.909642) vcan0 284#B703875A9154F80D
(1502935116.919776) vcan0 284#7F6EDB78EF296641
(1502935116.929984) vcan0 284#D1981631893E580F
(1502935116.940154) vcan0 284#67A7DA7CC436975C
(1502935116.952973) vcan0 284#AEB85B7EFAB2CD46
(1502935116.963202) vcan0 284#55819C6747644557
(1502935116.973337) vcan0 284#CFF6D3486156676A
(1502935116.983543) vcan0 284#00EC535CD7F51D66
(1502935116.993776) vcan0 284#E94E410CECD39020
(1502935117.003904) vcan0 284#E7E2850E13EBEE31
(1502935117.014116) vcan0 284#E7A36066B8565D5D
(1502935117.024325) vcan0 284#DCD2117D71DDA26D
(1502935117.034458) vcan0 284#FC2B9748CBD7E232
(1502935117.044656) vcan0 284#3E319D4EEFA5AE7A
(1502935117.054875) vcan0 284#1222CF4544F19E2A
(1502935117.065007) vcan0 284#FC19D30EC9255620
(1502935117.075223) vcan0 284#D54597387B88AE07
(1502935117.085445) vcan0 284#B84FBC61A6DEAD69
(1502935117.095577) vcan0 284#04C706171FF7965E
(1502935117.105789) vcan0 284#6A154546B27F6215
(1502935117.116011) vcan0 284#19AA6425BF96E12D
(1502935117.126199) vcan0 284#F9E3A76CE8A0386E
(1502935117.136406) vcan0 284#20ED4818F9CFFB48
(1502935117.146619) vcan0 284#BF965654093C8A24
(1502935117.156744) vcan0 284#E5A38C69A679DC62
(1502935117.166966) vcan0 284#1D277956CC47ED4F
(1502935117.177183) vcan0 284#5ED03940F9F98A53
(1502935117.187363) vcan0 284#3E25903D5AFCD008
(1502935117.197596) vcan0 284#C5D16D067C562D0C
(1502935117.207814) vcan0 284#49A27F03D7F33C4C
(1502935117.217958) vcan0 284#C047CC3646BC5212
(1502935117.228179) vcan0 284#A019936C958D636F
(1502935117.238402) vcan0 284#C144011A58694F4E
(1502935117.248565) vcan0 284#3B6C1159C60B0831
(1502935117.258792) vcan0 284#7760E62CA681561F
(1502935117.269016) vcan0 284#788B6A46900A4B52
(1502935117.279193) vcan0 284#6518384D726F1233
(1502935117.289425) vcan0 284#79AB834086058165
(1502935117.299654) vcan0 284#6B3F0E7C3842DA14
(1502935117.309781) vcan0 284#8F410B0A51E39A65
(1502935117.319985) vcan0 284#DFBBB677AC688460
(1502935117.330184) vcan0 284#1D2B88353D8CF037
