(1502932426.693286) vcan0 284#8F89027297D8224C
(1502932426.793496) vcan0 284#55431F4685EA2F40
(1502932426.893687) vcan0 284#5214A4284A04A948
(1502932426.993880) vcan0 284#A4F61863ADFFE222
(1502932427.094081) vcan0 284#E1295206FC0B902B
(1502932427.194293) vcan0 284#08208118C4B58419
(1502932427.294516) vcan0 284#A4782E06D18BE050
(1502932427.394778) vcan0 284#BAB01A00C296352E
(1502932427.495028) vcan0 284#98BF2F0C1F7C9B7B
(1502932427.595278) vcan0 284#93FC44177059E351
(1502932427.695521) vcan0 284#CC086112C701B425
(1502932427.795779) vcan0 284#18A6016166EBF40B
(1502932427.896035) vcan0 284#DFBBF2768ED17374
(1502932427.996292) vcan0 284#71AE577DEDA9477C
(1502932428.096550) vcan0 284#94EBBB57DFDC6B25
(1502932428.196813) vcan0 284#DC58776F2375BE49
(1502932428.297073) vcan0 284#76B58E71329C9635
(1502932428.397337) vcan0 284#A85FEE09C8C9321A
(1502932428.497601) vcan0 284#7CA03F7E4D56076D
(1502932428.597867) vcan0 284#75C9153D5DCA9104
(1502932428.698115) vcan0 284#496297187DE99655
(1502932428.798367) vcan0 284#2180161EEDDAC51E
(1502932428.898623) vcan0 284#4E757726DB30311E
(1502932428.998876) vcan0 284#B071FB4CE634A732
(1502932429.099132) vcan0 284#FAACCC19436E4064
(1502932429.199390) vcan0 284#568E8A04C7B52D2C
(1502932429.299649) vcan0 284#0B70F4096E348C65
(1502932429.399910) vcan0 284#2DA12238EA2BE700
(1502932429.500176) vcan0 284#FC05005A9E4F7A35
(1502932429.600443) vcan0 284#D7D52E7D90F1BB31
(1502932429.700715) vcan0 284#7D2CE65AB32EA66C
(1502932429.800975) vcan0 284#B3667A7BF3E1744C
(1502932429.901239) vcan0 284#E5CA3C225CC66805
(1502932430.001504) vcan0 284#BBABA766616B7C20
(1502932430.101769) vcan0 284#A91C70723075BD23
(1502932430.202033) vcan0 284#BE350E25F27E070B
(1502932430.302283) vcan0 284#AD5E5479DFB52443
(1502932430.402542) vcan0 284#E059CD29FBD3CB1F
(1502932430.502786) vcan0 284#BAE6556190CBC876
(1502932430.603108) vcan0 284#E1087352B593227B
(1502932430.703368) vcan0 284#D339095B3797FD56
(1502932430.803635) vcan0 284#7C495027DEA9FD64
(1502932430.903887) vcan0 284#A5CB893CA9EA725F
(1502932431.004138) vcan0 284#C8D5E465A1D18916
(1502932431.104390) vcan0 284#473AED149FAB1363
(1502932431.204621) vcan0 284#31C34548C566D36F
(1502932431.304853) vcan0 284#53DAB94FE529C043
(1502932431.405109) vcan0 284#B848483C38A5F671
(1502932431.505363) vcan0 284#41F0284974F4EF22
(1502932431.605633) vcan0 284#9A107312EA0C993B
(1502932431.705883) vcan0 284#A469AD4658468137
(1502932431.806131) vcan0 284#DC8BA04652C80140
(1502932431.906391) vcan0 284#38FCA57ABCE56D70
(1502932432.006647) vcan0 284#4D9CCD5FF2E2FB5B
(1502932432.106919) vcan0 284#4CB136672FA54032
(1502932432.207182) vcan0 284#A7761E5720EB3F42
(1502932432.307448) vcan0 284#663C3E0923C06E7E
(1502932432.407707) vcan0 284#FE943D270C08C845
(1502932432.507965) vcan0 284#CCAAE15DC76A220D
(1502932432.608233) vcan0 284#ADD9515C14E5CE72
(1502932432.708480) vcan0 284#66163670DF9C9724
(1502932432.808743) vcan0 284#D94BA262B9F0EF3F
(1502932432.909000) vcan0 284#C4C657689194EA1E
(1502932433.009269) vcan0 284#F295E63105B78031
(1502932433.109535) vcan0 284#0589DA418CA65944
(1502932433.209798) vcan0 284#EFC3196DAAF28708
(1502932433.310052) vcan0 284#E4ECDA7BCB4FBA33
(1502932433.410288) vcan0 284#FCBA89481CE98076
(1502932433.510537) vcan0 284#8835282449575728
(1502932433.610805) vcan0 284#0FCC7C52D4E65E0B
(1502932433.711058) vcan0 284#78FC975AB6429B29
(1502932433.811315) vcan0 284#F4D19E4DDF38D663
(1502932433.911575) vcan0 284#DA020A28F366DC74
(1502932434.011841) vcan0 284#EB409E29A6ADEB05
(1502932434.112101) vcan0 284#BAD1FE01981AF005
(1502932434.212358) vcan0 284#BA92BA7820E83472
(1502932434.312626) vcan0 284#77B7872A93DE5C5B
(1502932434.412961) vcan0 284#DAD824323B7EDF12
(1502932434.513243) vcan0 284#2573477ACC6E0B64
(1502932434.613521) vcan0 284#403560442AFC213C
(1502932434.713791) vcan0 284#581565282FF97931
(1502932434.814049) vcan0 284#D4EEA9443C024024
(1502932434.914317) vcan0 284#FB483465D0A9330D
(1502932435.014570) vcan0 284#59EBC01A837E5C09
(1502932435.114836) vcan0 284#1A018B3568B73D6D
(1502932435.215105) vcan0 284#5765BB1492FD2210
(1502932435.315379) vcan0 284#1EFAD8164C375A62
(1502932435.415642) vcan0 284#7136F973F8FCE23E
(1502932435.515905) vcan0 284#3F9E36575C77971D
(1502932435.616167) vcan0 284#9FAACE44F96F3559
(1502932435.716436) vcan0 284#F5918723593D893D
(1502932435.816711) vcan0 284#19586A4B6C490F4E
(1502932435.916968) vcan0 284#ED1BE618F3308F7D
(1502932436.017238) vcan0 284#A8C7EE60128F2D13
(1502932436.117502) vcan0 284#BF9F9A61E8FC4E25
(1502932436.217774) vcan0 284#3C8B4F4F17B5FF09
(1502932436.318041) vcan0 284#18F6C856117AF913
(1502932436.418308) vcan0 284#54B73F2E133FFD3B
(1502932436.518567) vcan0 284#E1232D21ADA20049
(1502932436.618797) vcan0 284#96BD5945FB24B856
