(1502934410.101132) vcan0 284#D06C230335C96259
(1502934410.119038) vcan0 284#3968A27A7C31247F
(1502934410.129372) vcan0 284#C319F11C44EC0246
(1502934410.139647) vcan0 284#EB4C9108E196B91D
(1502934410.149868) vcan0 284#F067030EDE7FE044
(1502934410.160253) vcan0 284#C97BBF1B62165D4A
(1502934410.170548) vcan0 284#734479547CEA6053
(1502934410.180868) vcan0 284#B3B10C183FFE9D7C
(1502934410.191192) vcan0 284#60D5042111EED357
(1502934410.201467) vcan0 284#C349432BB143EB6D
(1502934410.211627) vcan0 284#3A6DA71997162372
(1502934410.221943) vcan0 284#B056EC55E78F1C2E
(1502934410.232163) vcan0 284#43D2C57ECC0CEC2D
(1502934410.242358) vcan0 284#5B57695FA200075B
(1502934410.252548) vcan0 284#F5FB8356E3890810
(1502934410.262723) vcan0 284#0065F47AC568A759
(1502934410.272941) vcan0 284#18536B6939CD9675
(1502934410.283120) vcan0 284#429ACB58DC6C5C06
(1502934410.293288) vcan0 284#7DB9993B2DE75C61
(1502934410.303458) vcan0 284#BD0316246D219D49
(1502934410.313635) vcan0 284#0B673D26867FD53F
(1502934410.323745) vcan0 284#D037FA137EABB67A
(1502934410.333917) vcan0 284#026A361383E9062C
(1502934410.344127) vcan0 284#BDA95477633F3B34
(1502934410.354256) vcan0 284#94D7DA0380F39722
(1502934410.364371) vcan0 284#14832622CE44821D
(1502934410.374529) vcan0 284#170ABB14C4D91278
(1502934410.384637) vcan0 284#B6D49E4B5BDC8013
(1502934410.394823) vcan0 284#90E6FE25112C082B
(1502934410.405007) vcan0 284#FDDC876E86E2827C
(1502934410.415121) vcan0 284#F4B5103BFD417C69
(1502934410.425272) vcan0 284#4B4B2A560C097C24
(1502934410.435485) vcan0 284#360F135F8DE5F52E
(1502934410.445669) vcan0 284#E875D82AB4C8AC1A
(1502934410.455822) vcan0 284#BACC5210A679EE4E
(1502934410.465997) vcan0 284#21EA4964C5339036
(1502934410.476106) vcan0 284#2CF9C30EF1214478
(1502934410.486227) vcan0 284#43DF46312F63FA21
(1502934410.496419) vcan0 284#740B4B2401899B28
(1502934410.506540) vcan0 284#92A2355608E32528
(1502934410.516660) vcan0 284#817C334BA6255C78
(1502934410.526843) vcan0 284#D727A8459986EE5F
(1502934410.536961) vcan0 284#6AFF6E708DFC4611
(1502934410.547138) vcan0 284#F4626F73FBE56D16
(1502934410.557322) vcan0 284#9E284F3CF13FF761
(1502934410.567435) vcan0 284#81C8F01292DE5F77
(1502934410.577567) vcan0 284#EE81734BCC131B69
(1502934410.587737) vcan0 284#9EE7DB1B2491862A
(1502934410.597880) vcan0 284#5AF91018875DB446
(1502934410.608016) vcan0 284#D859334514C66328
(1502934410.618197) vcan0 284#2DD7A215FA437D29
(1502934410.628375) vcan0 284#DAF9F35E59D06624
(1502934410.638527) vcan0 284#EB65C1211DD93A10
(1502934410.648732) vcan0 284#8833614660710C46
(1502934410.658870) vcan0 284#1E62D6381AD6961C
(1502934410.669011) vcan0 284#6854326EA0DE0904
(1502934410.679196) vcan0 284#C0FBF2143F7CDA33
(1502934410.689368) vcan0 284#3965F8632BFB6105
(1502934410.699510) vcan0 284#CC7821452DC86757
(1502934410.709694) vcan0 284#26E1CF1B6AA17001
(1502934410.719806) vcan0 284#1E085F39A7A9C02E
(1502934410.729988) vcan0 284#FC7FD0780C8AD204
(1502934410.740177) vcan0 284#73BDDB179B67AC14
(1502934410.750369) vcan0 284#301B592FCDB6EC2F
(1502934410.760516) vcan0 284#22C5605B09758C74
(1502934410.770700) vcan0 284#E27C50584F9C0371
(1502934410.780813) vcan0 284#03B9091EBC764437
(1502934410.790977) vcan0 284#A86C6A15EE1ECB3F
(1502934410.801165) vcan0 284#D94F7F4731A0CB5B
(1502934410.811285) vcan0 284#4E90D705F8B15500
(1502934410.821409) vcan0 284#4B766278B7E40974
(1502934410.831594) vcan0 284#98905F040C72550D
(1502934410.841788) vcan0 284#F660E427D1F55768
(1502934410.851946) vcan0 284#376DB712C3D9056D
(1502934410.862128) vcan0 284#FEBDBF3F5D4E872E
(1502934410.872241) vcan0 284#2D7B766E1CC61E79
(1502934410.882366) vcan0 284#04F8475D2AFB4667
(1502934410.892544) vcan0 284#2850F17D77B52375
(1502934410.902661) vcan0 284#C562F37B586B4A2D
(1502934410.912786) vcan0 284#456C1025E7275457
(1502934410.922966) vcan0 284#61E0D62127E9607D
(1502934410.933224) vcan0 284#36C457486499E03F
(1502934410.943476) vcan0 284#E35FA534DE30C25D
(1502934410.953721) vcan0 284#53B8AB7FBCAF247C
(1502934410.963977) vcan0 284#0FD18D39A1488305
(1502934410.974157) vcan0 284#B4617A7C5B47F031
(1502934410.984380) vcan0 284#582D8D794CF2D900
(1502934410.994650) vcan0 284#67B9453F4F8E7121
(1502934411.004856) vcan0 284#1DE831699E26FD51
(1502934411.015079) vcan0 284#1268770E1BA6F128
(1502934411.025390) vcan0 284#FB7484003FE3ED7C
(1502934411.035642) vcan0 284#376C1022FF6CCC5D
(1502934411.045950) vcan0 284#69DE34645FBC0120
(1502934411.056222) vcan0 284#7622F0522E412860
(1502934411.066412) vcan0 284#B8274C4DBB8E0078
(1502934411.076677) vcan0 284#15697C371908236F
(1502934411.086970) vcan0 284#E27761754B2DD47F
(1502934411.097284) vcan0 284#7EA1032FC5D7062A
(1502934411.107606) vcan0 284#2A5E965DD159AF2E
(1502934411.117872) vcan0 284#82872B26392F2417
