(1502932394.100551) vcan0 284#45D1C070C5149934
(1502932394.201012) vcan0 284#57F983766936AC0D
(1502932394.301488) vcan0 284#D0E5FD431DCB1759
(1502932394.402586) vcan0 284#0B76E67A52EE0C73
(1502932394.503069) vcan0 284#A5CC8E45DF9EA519
(1502932394.603378) vcan0 284#3EE1C158E401B33A
(1502932394.703687) vcan0 284#6407387B0F3B5868
(1502932394.804011) vcan0 284#7A498A4352BCFE48
(1502932394.904288) vcan0 284#5853A80B4C80187C
(1502932395.004542) vcan0 284#144A9C2A3E3B3275
(1502932395.104780) vcan0 284#7990C7232FADEC6E
(1502932395.205033) vcan0 284#E0152C71C6BC592D
(1502932395.305309) vcan0 284#7167895FFA9F8405
(1502932395.405596) vcan0 284#8E4E677BFE46110F
(1502932395.505868) vcan0 284#1B1A955F7E599740
(1502932395.606127) vcan0 284#7CFBD72E60EB5550
(1502932395.706393) vcan0 284#436E3075D3F45B25
(1502932395.806665) vcan0 284#C921025E13542E39
(1502932395.906924) vcan0 284#F0BF737ED497E858
(1502932396.007205) vcan0 284#66423B2C968C0244
(1502932396.107479) vcan0 284#B3368E72A423FD04
(1502932396.207745) vcan0 284#7A8EB57E173EC66D
(1502932396.308010) vcan0 284#B35E556DF5D73F42
(1502932396.408283) vcan0 284#6AFAC4360CB2FD78
(1502932396.508544) vcan0 284#4158583E7E446161
(1502932396.608817) vcan0 284#4AED2F6EBAE81F62
(1502932396.709090) vcan0 284#ADF14D502A035C5F
(1502932396.809367) vcan0 284#81A5790F1E59D72F
(1502932396.909645) vcan0 284#24A3E0640FF4E00A
(1502932397.009903) vcan0 284#1CA0E83E3FBD7544
(1502932397.110180) vcan0 284#8D4D784B989BC06D
(1502932397.210460) vcan0 284#9FA8CB14D0BBA840
(1502932397.310734) vcan0 284#6B901C1368CACD72
(1502932397.410991) vcan0 284#E40FD7795C509011
(1502932397.511271) vcan0 284#3C62B64B4A521226
(1502932397.611553) vcan0 284#F2DC9255F098443E
(1502932397.711832) vcan0 284#EE750F2B6C6B4854
(1502932397.812118) vcan0 284#07D70A2CA2D46418
(1502932397.912401) vcan0 284#6143881671D1CF62
(1502932398.012681) vcan0 284#AE866211A29BE054
(1502932398.113038) vcan0 284#EF153144F873927F
(1502932398.213322) vcan0 284#5D8400379C077F14
(1502932398.313612) vcan0 284#2277EE5EDE297A46
(1502932398.413894) vcan0 284#BB605644471ACF43
(1502932398.514186) vcan0 284#ED1D5B51D7003F03
(1502932398.614468) vcan0 284#86D744087B6BD31C
(1502932398.714745) vcan0 284#709CFF702680101D
(1502932398.815020) vcan0 284#4B277C5DDB2C1C04
(1502932398.915285) vcan0 284#8E4ADE0F2F375357
(1502932399.015552) vcan0 284#377DAC15CBAC945B
(1502932399.115826) vcan0 284#7989657D295A3F6B
(1502932399.216106) vcan0 284#BB45D91968FF7428
(1502932399.316399) vcan0 284#96C5873FC21CE445
(1502932399.416687) vcan0 284#0AD4D940F7081056
(1502932399.516964) vcan0 284#34EEB328B85A3C52
(1502932399.617239) vcan0 284#9AA4F02A2304E56C
(1502932399.717540) vcan0 284#B0CECE51F728F161
(1502932399.817824) vcan0 284#C00B6401D245BD30
(1502932399.918106) vcan0 284#D5526B287B6CBA45
(1502932400.018393) vcan0 284#19608C74C270C679
(1502932400.118678) vcan0 284#526DF948A037D17C
(1502932400.218960) vcan0 284#3DDC9916C209F939
(1502932400.319246) vcan0 284#C6B7E11989031674
(1502932400.419539) vcan0 284#9E36153E5402C029
(1502932400.519821) vcan0 284#B83A694BD5B3C153
(1502932400.620111) vcan0 284#1FAF540532C4CE48
(1502932400.720395) vcan0 284#FF0D013FDAF42D1F
(1502932400.820675) vcan0 284#9AC3437195D3887E
(1502932400.920949) vcan0 284#9D111265A4971D32
(1502932401.021205) vcan0 284#8CDC9854D1FFC50D
(1502932401.121457) vcan0 284#5CF259042681897F
(1502932401.221715) vcan0 284#F403AB7A0CC12856
(1502932401.321999) vcan0 284#1DAA7A61B40F0F7C
(1502932401.422287) vcan0 284#DE06E606F2FCE509
(1502932401.522572) vcan0 284#2F7CC941F866727B
(1502932401.622950) vcan0 284#B56DAC0382E9C20A
(1502932401.723235) vcan0 284#989E4378F249461A
(1502932401.823522) vcan0 284#44F3BB445E562512
(1502932401.923798) vcan0 284#7B4D5C0EE229D102
(1502932402.024090) vcan0 284#B258E53B3488C559
(1502932402.124357) vcan0 284#B8DD9256D2073A41
(1502932402.224640) vcan0 284#664C9422B7EB9315
(1502932402.324936) vcan0 284#ACFC67600010D813
(1502932402.425220) vcan0 284#4CBF1C14490E7A45
(1502932402.525503) vcan0 284#A4A7F545D89BB568
(1502932402.625791) vcan0 284#1A0E4053009A4F4A
(1502932402.726073) vcan0 284#FF1C3F680F12EB4D
(1502932402.826353) vcan0 284#0C5B78201CC7B949
(1502932402.926635) vcan0 284#C321FA49EA615E27
(1502932403.026917) vcan0 284#0FC49F53F39DC30B
(1502932403.127231) vcan0 284#E2C8D022C4314C57
(1502932403.227565) vcan0 284#758786167A67141B
(1502932403.327899) vcan0 284#B67B9271B97A425B
(1502932403.428174) vcan0 284#D8BD392D32C9EE7F
(1502932403.528464) vcan0 284#9CA4135E8B161F69
(1502932403.628743) vcan0 284#6651B4595482A634
(1502932403.729026) vcan0 284#5D1E592ACC9D487C
(1502932403.829303) vcan0 284#0B6E3A4A091BC10A
(1502932403.929585) vcan0 284#CCAD2010572D575E
(1502932404.029863) vcan0 284#53293B5070551656
