(1502932360.309608) vcan0 284#C7EB031B4BAA1B15
(1502932360.409821) vcan0 284#22522350D84B6E20
(1502932360.509988) vcan0 284#BE6FC579D4309C10
(1502932360.610168) vcan0 284#22F150095B97FA6F
(1502932360.710353) vcan0 284#8CEB487814D86D67
(1502932360.810527) vcan0 284#3F08AE5E5FB0795D
(1502932360.910708) vcan0 284#2DA1FB0A4FEAD30C
(1502932361.010894) vcan0 284#508A8B576FEA2E29
(1502932361.111133) vcan0 284#2A936F386D8FDA26
(1502932361.211389) vcan0 284#FA782426ED7CB54E
(1502932361.311649) vcan0 284#24BB150276328772
(1502932361.411847) vcan0 284#3CDB770702C7E723
(1502932361.512017) vcan0 284#801450753EDE5C2D
(1502932361.612197) vcan0 284#D4B10E4A19D3DF5B
(1502932361.712383) vcan0 284#701CC239ACDD7342
(1502932361.812566) vcan0 284#505133273708C654
(1502932361.912742) vcan0 284#F8878F5772A35677
(1502932362.012930) vcan0 284#10543475B6F75451
(1502932362.113187) vcan0 284#46D4F2073245857E
(1502932362.213456) vcan0 284#118F4F41D2BF3B00
(1502932362.313718) vcan0 284#461DF3655197FD1F
(1502932362.413979) vcan0 284#3170B55D73BEEE70
(1502932362.514251) vcan0 284#A081D12C82FA4035
(1502932362.614509) vcan0 284#E3A81D1ACA144165
(1502932362.714758) vcan0 284#EF891B5CDD214240
(1502932362.815014) vcan0 284#B791F6331345315E
(1502932362.915269) vcan0 284#5354C932F46C6E3B
(1502932363.015528) vcan0 284#150C1902D3681928
(1502932363.115782) vcan0 284#324BCB68E9BD274C
(1502932363.216030) vcan0 284#EC3BF903A2678D22
(1502932363.316298) vcan0 284#969B9B0E3C8D2C2B
(1502932363.416556) vcan0 284#DA6F53778E232B66
(1502932363.516808) vcan0 284#AE308322EAC3876C
(1502932363.617059) vcan0 284#441B8037F504762A
(1502932363.717325) vcan0 284#1C090D6B55AACF78
(1502932363.817583) vcan0 284#C7C4B12A62260051
(1502932363.917837) vcan0 284#A641CD18F9346708
(1502932364.018091) vcan0 284#D6E4EE4146C39E45
(1502932364.118361) vcan0 284#7B2FA83DB98D0C5C
(1502932364.218634) vcan0 284#10D8DF2A6AB9C319
(1502932364.318897) vcan0 284#96AF4E1CC869D65E
(1502932364.419151) vcan0 284#7DFEF477E903184F
(1502932364.519416) vcan0 284#BCD6441A920A0E7A
(1502932364.619688) vcan0 284#BD6C3177EE211003
(1502932364.719937) vcan0 284#7BC83546A9A82A7B
(1502932364.820205) vcan0 284#90899D251164D154
(1502932364.920479) vcan0 284#E63557266AF9F01C
(1502932365.020751) vcan0 284#9F87FC3A9466DA48
(1502932365.121014) vcan0 284#54BD7809E3A27C72
(1502932365.221267) vcan0 284#896B507370C68574
(1502932365.321497) vcan0 284#394D4C6B5130021E
(1502932365.421727) vcan0 284#D3EC8545DF8E1904
(1502932365.521970) vcan0 284#4A656926A9D17407
(1502932365.622228) vcan0 284#2652B849C5941164
(1502932365.722504) vcan0 284#625F8163362A9874
(1502932365.822814) vcan0 284#2F4ED57DF80ED07F
(1502932365.923068) vcan0 284#FE936E53AC4CCA75
(1502932366.023262) vcan0 284#E112E84EBA6AB36D
(1502932366.123458) vcan0 284#3E57D86F9E7F1946
(1502932366.223658) vcan0 284#A88CC370B91F0E36
(1502932366.323853) vcan0 284#4828444139166116
(1502932366.424047) vcan0 284#CB83DF0A2E5E9B67
(1502932366.524220) vcan0 284#A30F52336A0BDC45
(1502932366.624444) vcan0 284#C2C47530F8CCCA3C
(1502932366.724712) vcan0 284#4EAE58384C30C623
(1502932366.824977) vcan0 284#6893503187FBA423
(1502932366.925242) vcan0 284#9D60C8413B80D676
(1502932367.025504) vcan0 284#668ABE27E7C53168
(1502932367.125777) vcan0 284#E4514B7E8CDC7671
(1502932367.226055) vcan0 284#AC5A434C46B1CC61
(1502932367.326335) vcan0 284#C3060F66DBA8184A
(1502932367.426597) vcan0 284#3EC09C61C19A7D39
(1502932367.526865) vcan0 284#87F5E23F20D38430
(1502932367.627138) vcan0 284#7C053127C54CBB2F
(1502932367.727413) vcan0 284#BE529E762492F417
(1502932367.827680) vcan0 284#7E6CC965067BE237
(1502932367.927947) vcan0 284#5DA8552E49F0A870
(1502932368.028218) vcan0 284#34D97D1F01B8A761
(1502932368.128492) vcan0 284#B4FB8436F79DF34F
(1502932368.228763) vcan0 284#F984721E02AADD6E
(1502932368.329039) vcan0 284#43CEB9736118C34F
(1502932368.429309) vcan0 284#89A58212E02E8235
(1502932368.529577) vcan0 284#9D989946EF2F413A
(1502932368.629852) vcan0 284#C7F4B31D81EAE444
(1502932368.730132) vcan0 284#7C0CB82B734FF769
(1502932368.830402) vcan0 284#C89BB1263F13C711
(1502932368.930681) vcan0 284#4EF80F34065C4E08
(1502932369.030950) vcan0 284#00AE444BD5EDF273
(1502932369.131218) vcan0 284#262FD3387CB37572
(1502932369.231491) vcan0 284#9A3AAE23E581712F
(1502932369.331759) vcan0 284#A1456A0A18A77709
(1502932369.432026) vcan0 284#EBFC5367FEEDBF38
(1502932369.532294) vcan0 284#6297207A20D6D106
(1502932369.632559) vcan0 284#FFA5671A1693A530
(1502932369.732905) vcan0 284#1774C556F82ADA38
(1502932369.833180) vcan0 284#183D831F5A427F4A
(1502932369.933450) vcan0 284#5A439D08A1E20532
(1502932370.033731) vcan0 284#3A710100F7DB364F
(1502932370.133996) vcan0 284#9012476C0166B51D
(1502932370.234273) vcan0 284#78C61B140C1FFF17
