(1502931909.104872) vcan0 284#A9449B16990FCC64
(1502931909.115106) vcan0 284#12340435C5869460
(1502931909.125369) vcan0 284#67BBE449BA5EF40B
(1502931909.135539) vcan0 284#8D87D44EEA8A787C
(1502931909.145647) vcan0 284#C0C7A764777C273B
(1502931909.155863) vcan0 284#BCCBD21280BC9517
(1502931909.166064) vcan0 284#E2C4B217039C7462
(1502931909.176259) vcan0 284#B967B0591C5DAF62
(1502931909.186473) vcan0 284#9F7C237C97408047
(1502931909.196621) vcan0 284#BD2E4C2E34478744
(1502931909.206777) vcan0 284#64B61977A219D321
(1502931909.216989) vcan0 284#8EEAA8441D7D836F
(1502931909.227149) vcan0 284#64B5936B402C6751
(1502931909.237250) vcan0 284#E806706F123B564D
(1502931909.247447) vcan0 284#56902853B3373C11
(1502931909.257625) vcan0 284#ABFD7D06FFD4C369
(1502931909.267733) vcan0 284#4D470876BD31823B
(1502931909.277932) vcan0 284#C45B584AB402ED3F
(1502931909.288116) vcan0 284#7790764752E32C19
(1502931909.298229) vcan0 284#9E8D653C37581E2C
(1502931909.308451) vcan0 284#C95F54545A59384F
(1502931909.318658) vcan0 284#B814B443AB24076C
(1502931909.328764) vcan0 284#5DF5AC31717C641D
(1502931909.338966) vcan0 284#C781B64EFC71D02D
(1502931909.349120) vcan0 284#09BDE46485B0027D
(1502931909.359287) vcan0 284#30B957726D73FE5B
(1502931909.369504) vcan0 284#27CAD51EBFA30037
(1502931909.379656) vcan0 284#8AF0814B8B7F690A
(1502931909.389759) vcan0 284#FFCF670873F7F13A
(1502931909.399958) vcan0 284#9DBABF575560905B
(1502931909.410153) vcan0 284#262F2E4C48B83D5E
(1502931909.420263) vcan0 284#5435544573763642
(1502931909.430469) vcan0 284#05EABF191891AC0F
(1502931909.440625) vcan0 284#277923027C7A3661
(1502931909.450768) vcan0 284#6A74D928C506893E
(1502931909.461004) vcan0 284#B4D2540D34D42D7D
(1502931909.471220) vcan0 284#1F60C10D6CE70851
(1502931909.481325) vcan0 284#DFF834697C556E3F
(1502931909.491514) vcan0 284#DD636D6EA77AEB37
(1502931909.501672) vcan0 284#79C73E6DE6205253
(1502931909.511845) vcan0 284#2C2BEE34A980965F
(1502931909.522063) vcan0 284#5494502F53F5C353
(1502931909.532216) vcan0 284#68249716DE84D27A
(1502931909.542317) vcan0 284#DE742D5E67F4FE1E
(1502931909.552500) vcan0 284#517CC4357B2FED35
(1502931909.562754) vcan0 284#BC548F7A78ABF201
(1502931909.572920) vcan0 284#C3E72A14108AE33F
(1502931909.583197) vcan0 284#EB212944C8D1EA2D
(1502931909.593503) vcan0 284#291B904F139B4C46
(1502931909.603724) vcan0 284#444C210F938F6978
(1502931909.614338) vcan0 284#D8A1D504F81E761C
(1502931909.624582) vcan0 284#C7639775F8019712
(1502931909.634825) vcan0 284#64067F6DA75CCC5E
(1502931909.645133) vcan0 284#74570552426AEC5B
(1502931909.655398) vcan0 284#4ED7B716ED1E443F
(1502931909.665620) vcan0 284#288B3E2F7A02A64B
(1502931909.675953) vcan0 284#979FDA1E7C1F8F5E
(1502931909.686218) vcan0 284#CDF7691FFFC37135
(1502931909.696379) vcan0 284#5BA46159AB6C977D
(1502931909.706632) vcan0 284#67B87054AC20260F
(1502931909.716912) vcan0 284#269C8433230D004F
(1502931909.727096) vcan0 284#24CC1811E983AF47
(1502931909.737403) vcan0 284#3497E30E10EE4155
(1502931909.747684) vcan0 284#B1559A755DB2735E
(1502931909.757921) vcan0 284#23898E1BF5A1BB04
(1502931909.768267) vcan0 284#F041DD56FB2A6420
(1502931909.778544) vcan0 284#EEC03121B8A5744C
(1502931909.788708) vcan0 284#F32CFB3252C7B00E
(1502931909.799030) vcan0 284#5F02412B68840005
(1502931909.809283) vcan0 284#94319D6AADD9F841
(1502931909.819445) vcan0 284#55A34444BDBCDB19
(1502931909.829758) vcan0 284#27DC9E0DEC421F63
(1502931909.840026) vcan0 284#39DC6A78F4D3082D
(1502931909.850188) vcan0 284#EC0691189480CC51
(1502931909.860514) vcan0 284#9F40A02A53BF016D
(1502931909.870807) vcan0 284#41A1F260C5DC245E
(1502931909.881004) vcan0 284#76CC013C656D0B72
(1502931909.891283) vcan0 284#AE60D425AA63E54A
(1502931909.901554) vcan0 284#755B4D475FB66E1B
(1502931909.911794) vcan0 284#0716592998E4DB62
(1502931909.922111) vcan0 284#54582A20F8573600
(1502931909.932387) vcan0 284#940F400342195C41
(1502931909.942547) vcan0 284#B0FDAA4C873C3B36
(1502931909.952942) vcan0 284#95E00C500F00EC77
(1502931909.963177) vcan0 284#EFC03B3B2912AA3A
(1502931909.973301) vcan0 284#BCD9E4394564807F
(1502931909.983474) vcan0 284#E6CE8554E3B58347
(1502931909.993616) vcan0 284#31A79F6220ABF04C
(1502931910.003722) vcan0 284#D7898C741DAE307B
(1502931910.013945) vcan0 284#B42BBD1E76CA2C1F
(1502931910.024095) vcan0 284#706D3268F5CCAF7F
(1502931910.034214) vcan0 284#3BA7517DE7393424
(1502931910.044391) vcan0 284#5B3ABB71E9072623
(1502931910.054537) vcan0 284#919D196FD0950839
(1502931910.064705) vcan0 284#48BE943E99B37218
(1502931910.074913) vcan0 284#697AE41B9C16BF5E
(1502931910.085044) vcan0 284#910BA918FD89241F
(1502931910.095144) vcan0 284#DF2F1B2041095465
(1502931910.105348) vcan0 284#84C65F5574102870
(1502931910.115589) vcan0 284#5009405D74879B10
(1502931910.125961) vcan0 284#9D22D22A0CE32417
(1502931910.136324) vcan0 284#B9EB1B1084F1577F
(1502931910.146519) vcan0 284#EF98A85EEA92BB72
(1502931910.156682) vcan0 284#A49C484CC6223553
(1502931910.166890) vcan0 284#0841EC6D58C8056B
(1502931910.177031) vcan0 284#3CED617278AE1E56
(1502931910.187132) vcan0 284#4E95B56A7794B36F
(1502931910.197320) vcan0 284#5FE8527AA9CF705C
(1502931910.207466) vcan0 284#609CD912F1856C69
(1502931910.217628) vcan0 284#79657915A85A6E51
(1502931910.227828) vcan0 284#8A39DF01E2DF5D31
(1502931910.237964) vcan0 284#44712D301B45881A
(1502931910.248065) vcan0 284#DF69825023A14850
(1502931910.258274) vcan0 284#5C4EDC7F6430E225
(1502931910.268467) vcan0 284#97B17040AC571C5D
(1502931910.278578) vcan0 284#D8B77D3635D4426B
(1502931910.288768) vcan0 284#B83A417491A39946
(1502931910.298916) vcan0 284#B9C59A6AA7D3E952
(1502931910.309093) vcan0 284#7B3655395D62E336
(1502931910.319312) vcan0 284#6DF61E2683774127
(1502931910.329465) vcan0 284#B52AE921A9E38018
(1502931910.339573) vcan0 284#FC25607D03C09E0C
(1502931910.349761) vcan0 284#207834085B0EB377
(1502931910.359958) vcan0 284#AC8F0F6980140E1B
(1502931910.370106) vcan0 284#4C941F6126F5887E
(1502931910.380299) vcan0 284#286F7C6CD6CDFE62
(1502931910.390436) vcan0 284#08D5E62F6CE0A91C
(1502931910.400536) vcan0 284#F112877DE83E6900
(1502931910.410722) vcan0 284#9081F26C4D61637D
(1502931910.420890) vcan0 284#4C6F4B262733632D
(1502931910.431004) vcan0 284#F9B87F5A2427C95C
(1502931910.441174) vcan0 284#5C07A618B1F3C04E
(1502931910.451365) vcan0 284#B5CA622315CD4003
(1502931910.461547) vcan0 284#58C7AA213001B85C
(1502931910.471755) vcan0 284#722F243AC5BDC947
(1502931910.481897) vcan0 284#B478F903285A0D5C
(1502931910.491996) vcan0 284#6EA14A60B09E5901
(1502931910.502182) vcan0 284#2B1AAC688E197F68
(1502931910.512354) vcan0 284#0BAD0C79D8A9BB51
(1502931910.522464) vcan0 284#0E2E8D0358412C5A
(1502931910.532654) vcan0 284#FE9E4450369D0970
(1502931910.542794) vcan0 284#2E0F2B3D06742B00
(1502931910.552895) vcan0 284#A37DB30C2022B23A
(1502931910.563081) vcan0 284#EEB2940033FFA579
(1502931910.573235) vcan0 284#6D8315383A22E026
(1502931910.583339) vcan0 284#5A320927673C9512
(1502931910.593517) vcan0 284#5E49A903B739AF3F
(1502931910.603659) vcan0 284#1830566113140C27
(1502931910.613825) vcan0 284#CC06F04271F70003
(1502931910.624015) vcan0 284#4415C4033F36147D
(1502931910.634180) vcan0 284#36B5CA4AF88DBD07
(1502931910.644297) vcan0 284#67902159A556152B
(1502931910.654474) vcan0 284#A82C170992AACD41
(1502931910.664716) vcan0 284#33709413B3D92302
(1502931910.674886) vcan0 284#6A548913429E2117
(1502931910.685168) vcan0 284#0B1B505C68F3CD63
(1502931910.695439) vcan0 284#783B2B073A2A7B19
(1502931910.705659) vcan0 284#6F67F9631BB9DE13
(1502931910.715994) vcan0 284#5A4C2D545D1A8E64
(1502931910.726278) vcan0 284#4EB8840DC7CF420C
(1502931910.736454) vcan0 284#983C6E0BA9EA8D34
(1502931910.746750) vcan0 284#2E0CD81EF685170F
(1502931910.757011) vcan0 284#60243D74473C2E00
(1502931910.767256) vcan0 284#0A9A23362C2B2D37
(1502931910.777587) vcan0 284#B8332F034EAFE739
(1502931910.787840) vcan0 284#6B614134EEE8F94D
(1502931910.798004) vcan0 284#463DA541D2F1620D
(1502931910.808315) vcan0 284#933F0F79EE69BC4A
(1502931910.818586) vcan0 284#659C304FC7AFA30C
(1502931910.828754) vcan0 284#A143E04CCFF0B962
(1502931910.839067) vcan0 284#094EC523AD5E3029
(1502931910.849335) vcan0 284#38E487468189F02A
(1502931910.859537) vcan0 284#E788AB42A74B812A
(1502931910.869883) vcan0 284#9D42CF3E41D5D816
(1502931910.880176) vcan0 284#04660F0FEBFA534C
(1502931910.890365) vcan0 284#08A51B239CA27D1A
(1502931910.900699) vcan0 284#94E5E10037B1F341
(1502931910.910981) vcan0 284#93289529F4091F75
(1502931910.921223) vcan0 284#7EED21429DC2B85F
(1502931910.931554) vcan0 284#21354C2C36215145
(1502931910.941826) vcan0 284#EB71A0198C968D60
(1502931910.951995) vcan0 284#240A4B1331AF455B
(1502931910.962264) vcan0 284#5F88F06DB8495A0C
(1502931910.972547) vcan0 284#1F190226C424213D
(1502931910.982715) vcan0 284#7FF9FD18C05CE272
(1502931910.993024) vcan0 284#9315DB1F8847C33C
(1502931911.003306) vcan0 284#6DBB121CCBF96266
(1502931911.013572) vcan0 284#09D1B3675444BE5E
(1502931911.023855) vcan0 284#7245E410A6138326
(1502931911.034118) vcan0 284#9519977577ABF31F
(1502931911.044280) vcan0 284#920ED7729EBEB218
(1502931911.054561) vcan0 284#134E713A26F4B873
(1502931911.064791) vcan0 284#D56FA65AA6760664
(1502931911.074955) vcan0 284#1BFED768535DC81C
(1502931911.085151) vcan0 284#4339BF433C332415
(1502931911.095300) vcan0 284#897E19622EAB5F5D
(1502931911.105400) vcan0 284#C8C9B175AD886475
(1502931911.115607) vcan0 284#5F5AA5382752A263
(1502931911.125785) vcan0 284#65D2BE017E73A75E
(1502931911.135895) vcan0 284#EB76C320E4CBBC1A
(1502931911.146080) vcan0 284#3FD089517F8C9E40
(1502931911.156213) vcan0 284#6C138057AC8B9C6D
(1502931911.166390) vcan0 284#4A86012776E4333F
(1502931911.176607) vcan0 284#01D05A4CBDCBE537
(1502931911.186747) vcan0 284#1CF8B66596E9F141
(1502931911.196846) vcan0 284#3477D957AE068E58
(1502931911.207037) vcan0 284#34A8A45A47C54A12
(1502931911.217213) vcan0 284#D5FA464C09184B35
(1502931911.227325) vcan0 284#EE3B5176F0F81E35
(1502931911.237512) vcan0 284#5C7513523175103A
(1502931911.247650) vcan0 284#2C2C434AE5F32C34
(1502931911.257751) vcan0 284#60207017F4F5F43F
(1502931911.267947) vcan0 284#937C9129BF7A1550
(1502931911.278094) vcan0 284#1C489723F84E502B
(1502931911.288195) vcan0 284#3EEEBC2E07BF5A44
(1502931911.298386) vcan0 284#DD1A0D467DBE4600
(1502931911.308519) vcan0 284#864BF904492E8D1D
(1502931911.318679) vcan0 284#294AE36DD1D1FA2B
(1502931911.328886) vcan0 284#BF12C15C2A1A3E3A
(1502931911.339027) vcan0 284#8E9DE063DC0A7842
(1502931911.349127) vcan0 284#C103307CC214BA3B
(1502931911.359318) vcan0 284#8A11061BF5ABD456
(1502931911.369506) vcan0 284#09DA044E5F0C4D67
(1502931911.379628) vcan0 284#FFC31F0CF7155644
(1502931911.389821) vcan0 284#4F056C1C5B39335E
(1502931911.399955) vcan0 284#298B667E7B31AF66
(1502931911.410056) vcan0 284#412D601289ABD615
(1502931911.420261) vcan0 284#7027A426D4A9F13B
(1502931911.430457) vcan0 284#4826EC658C6F3B4A
(1502931911.440567) vcan0 284#CCF841678614A914
(1502931911.450771) vcan0 284#932E960EA9134F2D
(1502931911.460922) vcan0 284#03D3EF141A7A8F13
(1502931911.471101) vcan0 284#F341DC4A2D1DD302
(1502931911.481312) vcan0 284#EB4B8A3FB2549D27
(1502931911.491447) vcan0 284#5737113D79E96A23
(1502931911.501548) vcan0 284#8E5F156A183B4139
(1502931911.511741) vcan0 284#3BFE245F19711B05
(1502931911.521917) vcan0 284#0EE7151044D8292D
(1502931911.532030) vcan0 284#787D686C0DAB351C
(1502931911.542221) vcan0 284#3CEE7F71C882D408
(1502931911.552361) vcan0 284#68E4687A6579E66F
(1502931911.562459) vcan0 284#43B4836FA911C90C
(1502931911.572671) vcan0 284#EE24BD05B3DB2716
(1502931911.582861) vcan0 284#7DBBBA48364BA96B
(1502931911.592967) vcan0 284#3F4B63604AB4FC2F
(1502931911.603153) vcan0 284#BD5F5200D379F96E
(1502931911.613298) vcan0 284#F3C74B5DC0324215
(1502931911.623484) vcan0 284#EDF38802E6092828
(1502931911.633691) vcan0 284#ED4F1518D83F1342
(1502931911.643877) vcan0 284#995EC54F45872655
(1502931911.653999) vcan0 284#51297E6527BEDA39
(1502931911.664197) vcan0 284#5DC2670E8C27A344
(1502931911.674386) vcan0 284#402FF63E6BA97D1E
(1502931911.684503) vcan0 284#D0FFCC71B9AC5E2B
(1502931911.694706) vcan0 284#7854B33A0CEE4C63
(1502931911.704856) vcan0 284#812F3334E1381C35
(1502931911.715016) vcan0 284#71673353C4E3B623
(1502931911.725246) vcan0 284#8A4AE5415F8CF058
(1502931911.735412) vcan0 284#78BFDE390806A00A
(1502931911.745519) vcan0 284#96D79944B70A421A
(1502931911.755725) vcan0 284#52BA9C3A5337EC44
(1502931911.765887) vcan0 284#8A843B094582E817
(1502931911.776127) vcan0 284#136A2E5A7778C40B
(1502931911.786463) vcan0 284#2C8C104001BA4372
(1502931911.796760) vcan0 284#4FB8D74DC5EAD50F
(1502931911.806946) vcan0 284#46416A47A0E15533
(1502931911.817279) vcan0 284#ECA8B049A303D255
(1502931911.827589) vcan0 284#2C09F9772DD8A608
(1502931911.837768) vcan0 284#0FAD4F74FD08C669
(1502931911.848081) vcan0 284#E68405348701032F
(1502931911.858382) vcan0 284#09F7124D67B43868
(1502931911.868625) vcan0 284#683A1F647B5E4620
(1502931911.878959) vcan0 284#2B98EF0BF3840426
(1502931911.889260) vcan0 284#DAEA3679A357CE45
(1502931911.899459) vcan0 284#FB8AA43070C2D03D
(1502931911.909780) vcan0 284#5B6210604D45416B
(1502931911.920078) vcan0 284#C3F9BC02E5E64B69
(1502931911.930300) vcan0 284#92C72903D763EB5C
(1502931911.940617) vcan0 284#5D5F1075BE533A43
(1502931911.950919) vcan0 284#D81D2F4FAC17E842
(1502931911.961102) vcan0 284#833E10531E5F9916
(1502931911.971452) vcan0 284#4DF93D7670E7C01C
(1502931911.981755) vcan0 284#C1626B6C7902376E
(1502931911.991942) vcan0 284#9DBF6725D00FBB60
(1502931912.002244) vcan0 284#760BFD5783446D59
(1502931912.012537) vcan0 284#5811BE0F80021025
(1502931912.022795) vcan0 284#EAF8A541C04BDD73
(1502931912.033160) vcan0 284#FB6056451591954D
(1502931912.043471) vcan0 284#B3D0E119D54B8D3E
(1502931912.053661) vcan0 284#B9E86313AE5B864A
(1502931912.063947) vcan0 284#460E5E7C144B7473
(1502931912.074166) vcan0 284#FBA0C73509081B7F
(1502931912.084286) vcan0 284#F931C05C8E68F138
(1502931912.094494) vcan0 284#E06B065C5691D051
(1502931912.104647) vcan0 284#4CBC2B7CB889352B
(1502931912.114758) vcan0 284#03A9B814D0FA3B4F
(1502931912.124953) vcan0 284#D6E8CE4150A2F60A
(1502931912.135114) vcan0 284#40E2FC6B984B3A2E
(1502931912.145223) vcan0 284#C9A42D79DDA16411
(1502931912.155430) vcan0 284#685BF50E40B02A51
(1502931912.165580) vcan0 284#60E6D16AC06CB31E
(1502931912.175757) vcan0 284#C0B23A764ADF772C
(1502931912.185980) vcan0 284#81B89012BB13913B
(1502931912.196132) vcan0 284#5F700D7A3489722C
(1502931912.206236) vcan0 284#905F1E7A1859710D
(1502931912.216443) vcan0 284#E3E4F876D66D7C76
(1502931912.226631) vcan0 284#2CA4E500DE85C02C
(1502931912.236750) vcan0 284#E075977526D6A55D
(1502931912.246961) vcan0 284#6CEEB165C0E19D51
(1502931912.257112) vcan0 284#7C67762FB9AADD61
(1502931912.267219) vcan0 284#796BD37C7F102F44
(1502931912.277560) vcan0 284#89A519314F54A23E
(1502931912.287776) vcan0 284#CFB2254FC987161D
(1502931912.297941) vcan0 284#E79FDC6C99575348
(1502931912.308127) vcan0 284#A6297B2E50FBD17B
(1502931912.318280) vcan0 284#D9077E1906104D19
(1502931912.328452) vcan0 284#1068851A99BAB80F
(1502931912.338674) vcan0 284#50EFC4459120162D
(1502931912.348828) vcan0 284#54CE494BAF5FD23F
(1502931912.358936) vcan0 284#C6A98859E42D6845
(1502931912.369144) vcan0 284#C8B8434DA98E8150
(1502931912.379340) vcan0 284#BB9BE43BF45C294E
(1502931912.389459) vcan0 284#8714427D9B117C31
(1502931912.399661) vcan0 284#1A33CF2BF402F462
(1502931912.409816) vcan0 284#5BF31903979A455B
(1502931912.419923) vcan0 284#ADADD144D45EED7F
(1502931912.430126) vcan0 284#16AB741F3653EB75
(1502931912.440284) vcan0 284#24B38F3EE65D9A6E
(1502931912.450449) vcan0 284#FFDA01130B536C2B
(1502931912.460669) vcan0 284#7FB5ED36A5047D41
(1502931912.470856) vcan0 284#5B4E3E2758BD6B50
(1502931912.481021) vcan0 284#AB14CA5A6CB6C341
(1502931912.491221) vcan0 284#F1772460FB038F20
(1502931912.501370) vcan0 284#FDD6D96E45466E2B
(1502931912.511527) vcan0 284#AA636160C3806248
(1502931912.521755) vcan0 284#2974D670721CA52D
(1502931912.531951) vcan0 284#6C0FE418E40FBB2C
(1502931912.542066) vcan0 284#6779CE7BF4232616
(1502931912.552277) vcan0 284#7F21375E81AC9D27
(1502931912.562434) vcan0 284#E8261A79DB145161
(1502931912.572600) vcan0 284#1847E30295D4EB3D
(1502931912.582882) vcan0 284#AF733E612FF25722
(1502931912.593039) vcan0 284#CB27D733D326CE1F
(1502931912.603149) vcan0 284#1550F210CA02D946
(1502931912.613348) vcan0 284#DF793A4B9405E047
(1502931912.623538) vcan0 284#6F0756083AC87872
(1502931912.633702) vcan0 284#ECC24B181A1C2063
(1502931912.643909) vcan0 284#A67E3C34DD3A7078
(1502931912.654060) vcan0 284#1520AF03A4551623
(1502931912.664180) vcan0 284#2281DE23BF831064
(1502931912.674387) vcan0 284#67D6786B4BF5B414
(1502931912.684566) vcan0 284#32A0B511D4E55C04
(1502931912.694688) vcan0 284#300570419919840D
(1502931912.704898) vcan0 284#C809831AAF26A71F
(1502931912.715086) vcan0 284#1AC62135B0309D13
(1502931912.725263) vcan0 284#8A3BF800330D0538
(1502931912.735493) vcan0 284#450589513AAF3662
(1502931912.745649) vcan0 284#62FF5C5A102D6005
(1502931912.755759) vcan0 284#0DD60402774F4F6B
(1502931912.765961) vcan0 284#DA2F394CEC4F3F4D
(1502931912.776218) vcan0 284#0B552F3349378F54
(1502931912.786396) vcan0 284#2718B83FF7177B4B
(1502931912.796703) vcan0 284#6353AF37CD96F473
(1502931912.806996) vcan0 284#D452EB4378735E3B
(1502931912.817195) vcan0 284#71EC0A17F6D3C967
(1502931912.827487) vcan0 284#37F76E1FD9C28302
(1502931912.837793) vcan0 284#41C97E7C69972431
(1502931912.847981) vcan0 284#ADA8E00671CEEE3D
(1502931912.858282) vcan0 284#02B1A83E75B26321
(1502931912.868573) vcan0 284#21F5955D1D77CA73
(1502931912.878838) vcan0 284#25E30035AB308E5E
(1502931912.889181) vcan0 284#5084CF2B6AE88906
(1502931912.899483) vcan0 284#E5DFC440B2832C06
(1502931912.909668) vcan0 284#7A15EA0BF3B5C942
(1502931912.919989) vcan0 284#29D37B7154452358
(1502931912.930286) vcan0 284#DF0509103428AB24
(1502931912.940459) vcan0 284#9D7CB22C061EC14F
(1502931912.950786) vcan0 284#2B40267000D06164
(1502931912.961077) vcan0 284#D4B4B543FF921134
(1502931912.971254) vcan0 284#7843C01F45A1C05A
(1502931912.981628) vcan0 284#F566DB1BAF3A2F3F
(1502931912.991949) vcan0 284#1E64445D36305A18
(1502931913.002148) vcan0 284#19D25370CB0C2564
(1502931913.012463) vcan0 284#A8FE48561B83FC2E
(1502931913.022766) vcan0 284#40BF8805C9F3DE33
(1502931913.033038) vcan0 284#38FAC62265A2893A
(1502931913.043358) vcan0 284#74246D12887E964E
(1502931913.053652) vcan0 284#CF8A13415A043253
(1502931913.063833) vcan0 284#3A02C35449A0FD4C
(1502931913.074069) vcan0 284#4DBAFB1563D53E46
(1502931913.084308) vcan0 284#9DE520252CC00426
(1502931913.094443) vcan0 284#97FDE96A3A62D351
(1502931913.104652) vcan0 284#33DEC575C23D105B
(1502931913.114815) vcan0 284#3A32353607937B39
(1502931913.124979) vcan0 284#C1D0210FB275F555
(1502931913.135211) vcan0 284#4C343C14B637FD2A
(1502931913.145365) vcan0 284#62B024156B988071
(1502931913.155475) vcan0 284#ED6757437B827805
(1502931913.165674) vcan0 284#36A5A5559566A019
(1502931913.175864) vcan0 284#9605753477642E5B
(1502931913.186014) vcan0 284#5E5A7F4DCFFF3B57
(1502931913.196225) vcan0 284#DC06B815D27EEC5F
(1502931913.206369) vcan0 284#577ED225AC91CB56
(1502931913.216471) vcan0 284#2C831E339280957A
(1502931913.226718) vcan0 284#F531C923793D1A49
(1502931913.236926) vcan0 284#F555D4409317EA48
(1502931913.247039) vcan0 284#A6FD1E6F8D53BE2B
(1502931913.257240) vcan0 284#CD79BD1AD9DBE464
(1502931913.267384) vcan0 284#4F91CE0608ACF250
(1502931913.277553) vcan0 284#E06E601E1162F015
(1502931913.287768) vcan0 284#BA21E8262CA39C32
(1502931913.297917) vcan0 284#C799ED401CD20C3C
(1502931913.308019) vcan0 284#973B1D24B4014504
(1502931913.318215) vcan0 284#97548541CEE0C279
(1502931913.328412) vcan0 284#4968E51D2E5AFA75
(1502931913.338547) vcan0 284#4545F154A7C2646B
(1502931913.348754) vcan0 284#FD59364D214CA96A
(1502931913.358897) vcan0 284#7A41514B54D80873
(1502931913.368999) vcan0 284#CDDD7441A6C46F7E
(1502931913.379206) vcan0 284#E6589E6DC30F3E65
(1502931913.389384) vcan0 284#20028A47DCAE722E
(1502931913.399493) vcan0 284#5627282EC6FFA836
(1502931913.409697) vcan0 284#6902315A23A1E548
(1502931913.419841) vcan0 284#9FDB8D1BB893FF60
(1502931913.430010) vcan0 284#2B4DD8197F4AEE39
(1502931913.440229) vcan0 284#C9F5EF76E66EC040
(1502931913.450416) vcan0 284#ABED8A6C918FDD37
(1502931913.460533) vcan0 284#0241CD7C4329A810
(1502931913.470732) vcan0 284#4591223C9A95523E
(1502931913.480924) vcan0 284#110A6B0A8FF9075A
(1502931913.491037) vcan0 284#C8EF4C34564F5C5F
(1502931913.501237) vcan0 284#36BC6C45C5498301
(1502931913.511417) vcan0 284#779B054AB0FDBD10
(1502931913.521532) vcan0 284#19228C7445797A0B
(1502931913.531731) vcan0 284#57C22D0F007B2A62
(1502931913.541891) vcan0 284#0889B87077C4B756
(1502931913.552008) vcan0 284#DC299D105EB0E01E
(1502931913.562207) vcan0 284#3DC4600D452CCE6A
(1502931913.572349) vcan0 284#8151C667DC9FEE28
(1502931913.582527) vcan0 284#FDBFCD4BAD9E9E01
(1502931913.592744) vcan0 284#5BEADC62C7B5BD42
(1502931913.602904) vcan0 284#930D5F4206D8674F
(1502931913.613009) vcan0 284#58459B7A954E2C3F
(1502931913.623203) vcan0 284#490110609DD6BD36
(1502931913.633391) vcan0 284#2FE47E7D5A0B7B6A
(1502931913.643547) vcan0 284#2CD0C510F7D3CB31
(1502931913.653752) vcan0 284#B05AD749638C3256
(1502931913.663901) vcan0 284#BC1D4F3328F6DC13
(1502931913.674010) vcan0 284#138AF066D63FDB27
(1502931913.684210) vcan0 284#6D6F571F6A4C1E76
(1502931913.694355) vcan0 284#D6BA050A75F80F10
(1502931913.704460) vcan0 284#E110D64CB2E4A21A
(1502931913.714663) vcan0 284#D3A8F02E1ED5365A
(1502931913.724806) vcan0 284#F710710554FAB616
(1502931913.734986) vcan0 284#FA742503F4D03E51
(1502931913.745207) vcan0 284#01995518555F0266
(1502931913.755362) vcan0 284#BB86FC1394A6B45A
(1502931913.765464) vcan0 284#5C376A3513CC970E
(1502931913.775665) vcan0 284#2AF5E019A5387A15
(1502931913.785910) vcan0 284#B1A2554559D95F17
(1502931913.796144) vcan0 284#0044F57FDD721B56
(1502931913.806442) vcan0 284#51AD2B49B09ECC49
(1502931913.816720) vcan0 284#40FF4D2C0DCB7A7C
(1502931913.826911) vcan0 284#D894A95D54893E13
(1502931913.837239) vcan0 284#E30A56244504017D
(1502931913.847525) vcan0 284#BED55C09B9C55B2E
(1502931913.857691) vcan0 284#BAFC100DA0E63256
(1502931913.867991) vcan0 284#6BAAFE488DA5013C
(1502931913.878289) vcan0 284#BEBB693062BB6F4E
(1502931913.888548) vcan0 284#E29FB852B9308F33
(1502931913.898875) vcan0 284#578CAE1FE3380E6B
(1502931913.909168) vcan0 284#0E9091191213AB33
(1502931913.919340) vcan0 284#78DFC2456AC7FB4E
(1502931913.929647) vcan0 284#26DF4242A2D4A35F
(1502931913.939919) vcan0 284#10007664D7819807
(1502931913.950093) vcan0 284#FBAD037710446B64
(1502931913.960374) vcan0 284#B4F4B35D4C5B2F40
(1502931913.970640) vcan0 284#C0E2372EF5F3010A
(1502931913.980884) vcan0 284#5A26AA3C9977E10B
(1502931913.991187) vcan0 284#497D401D3D310061
(1502931914.001458) vcan0 284#DE7BE20807539D26
(1502931914.011668) vcan0 284#F7F65B0F9978F315
(1502931914.021965) vcan0 284#A739D07C62A15A58
(1502931914.032315) vcan0 284#261EF55166F5392D
(1502931914.042583) vcan0 284#C55CCA2608BEAD24
(1502931914.053047) vcan0 284#1F26C9601CE97846
(1502931914.063314) vcan0 284#ECF6BB0F2DB65A7A
(1502931914.073504) vcan0 284#2EFC237A64D67E55
(1502931914.083854) vcan0 284#987D564954DB663C
(1502931914.094076) vcan0 284#06AB2235A87DCC2D
(1502931914.104183) vcan0 284#2B5DFF430159262C
(1502931914.114350) vcan0 284#B8C13712E051B321
(1502931914.124469) vcan0 284#4EB4556C78A46F40
(1502931914.134643) vcan0 284#D545B52BA8DAFF28
(1502931914.144846) vcan0 284#111C514C1EC3F548
(1502931914.154986) vcan0 284#E50B000AF0973355
(1502931914.165085) vcan0 284#2516936FDC025C19
(1502931914.175257) vcan0 284#8910276BCD4F636C
(1502931914.185437) vcan0 284#3FA4B671AF2E1C3D
(1502931914.195546) vcan0 284#33459D1904018118
(1502931914.205722) vcan0 284#B8ECC961526B667A
(1502931914.215858) vcan0 284#20EAF95EA4E38571
(1502931914.225957) vcan0 284#7F21C1744EE61D59
(1502931914.236176) vcan0 284#08BA0447179F173E
(1502931914.246376) vcan0 284#A3C184150E65277C
(1502931914.256482) vcan0 284#BF1CE46BCE1E8459
(1502931914.266654) vcan0 284#0FBE4D2877DE1B7E
(1502931914.276777) vcan0 284#AE70377B5D72A314
(1502931914.286947) vcan0 284#F0828B3E83B6EC26
(1502931914.297136) vcan0 284#054DA33D019FDC0A
(1502931914.307265) vcan0 284#A179E26FEB58A347
(1502931914.317365) vcan0 284#F1361060C78F755F
(1502931914.327540) vcan0 284#C75BFF607A47374B
(1502931914.337717) vcan0 284#94DFD84B0600B652
(1502931914.347829) vcan0 284#2A765308C7247665
(1502931914.357989) vcan0 284#0A01376BE2621D6A
(1502931914.368119) vcan0 284#1990DC5F2AEB304A
(1502931914.378216) vcan0 284#8646A35B98B19D54
(1502931914.388438) vcan0 284#79D14E238E00A822
(1502931914.398642) vcan0 284#B050B5121C93D338
(1502931914.408747) vcan0 284#9C65CF1E6F6D997E
(1502931914.418921) vcan0 284#EAB15712AB231D47
(1502931914.429044) vcan0 284#E74BB57C99228F0D
(1502931914.439214) vcan0 284#0996C05BD7CE403B
(1502931914.449431) vcan0 284#1CD97B340EE36319
(1502931914.459582) vcan0 284#D86D1D46BE525E24
(1502931914.469689) vcan0 284#F93B0761CAA42D26
(1502931914.479878) vcan0 284#85E2D303C1970642
(1502931914.490065) vcan0 284#44EC647119C2AC4F
(1502931914.500184) vcan0 284#C797BC146E62B879
(1502931914.510383) vcan0 284#E0E62235D298F37F
(1502931914.520537) vcan0 284#50C5D563F976FF14
(1502931914.530645) vcan0 284#FC83244AD60B793F
(1502931914.540875) vcan0 284#91289D697555736D
(1502931914.551086) vcan0 284#640C21624179527C
(1502931914.561199) vcan0 284#91E846260072F000
(1502931914.571386) vcan0 284#B1E6EB7A7C9A9E38
(1502931914.581524) vcan0 284#AC950D489832A177
(1502931914.591696) vcan0 284#15BD2D46B52BCE23
(1502931914.601902) vcan0 284#6F01E2323196A97A
(1502931914.612043) vcan0 284#C30E323D476FFF78
(1502931914.622143) vcan0 284#EFE8071FBD4A391E
(1502931914.632331) vcan0 284#11142D1F74CBDB22
(1502931914.642526) vcan0 284#7EE23F6056009210
(1502931914.652644) vcan0 284#8D8D8872457AFC74
(1502931914.662900) vcan0 284#C4624A0A6D74AB27
(1502931914.673048) vcan0 284#1713F0741528206E
(1502931914.683146) vcan0 284#66EBAA3C1497143F
(1502931914.693349) vcan0 284#EB33992DF8134826
(1502931914.703507) vcan0 284#89EC872C5040BA0F
(1502931914.713664) vcan0 284#398D9A221BD5CE52
(1502931914.723856) vcan0 284#50B2AA10EA73861D
(1502931914.733992) vcan0 284#976F6D0BFC47B858
(1502931914.744180) vcan0 284#82A62715AC2C9B51
(1502931914.754386) vcan0 284#B173867CF1A70948
(1502931914.764526) vcan0 284#DDC2444C7582B839
(1502931914.774629) vcan0 284#39170941CDAB4C6B
(1502931914.784810) vcan0 284#32CDF1574A2B3660
(1502931914.795033) vcan0 284#4177280EB0AF3138
(1502931914.805184) vcan0 284#A02BC870CF04B100
(1502931914.815456) vcan0 284#F5292E2D658E127B
(1502931914.825734) vcan0 284#3C795C280D3D1E22
(1502931914.835940) vcan0 284#7AB63269A3640765
(1502931914.846280) vcan0 284#21D4326165EACB16
(1502931914.856572) vcan0 284#9B784F0BAAC0BA0D
(1502931914.866740) vcan0 284#B52A8626D405EA2D
(1502931914.877033) vcan0 284#C595896006DD3037
(1502931914.887320) vcan0 284#BF79704B5C05F76B
(1502931914.897585) vcan0 284#0225E90F41209860
(1502931914.907864) vcan0 284#0832923DB4986F0C
(1502931914.918137) vcan0 284#33C8A128E6F4D609
(1502931914.928303) vcan0 284#291B28466CDFAA69
(1502931914.938575) vcan0 284#B3A023755BE8191E
(1502931914.948872) vcan0 284#B60AE149F4174C03
(1502931914.959068) vcan0 284#0B984B565736A93A
(1502931914.969383) vcan0 284#C31CFD0300C27903
(1502931914.979668) vcan0 284#BCC4BB350096592C
(1502931914.989922) vcan0 284#0DFF9725367BEE1E
(1502931915.000383) vcan0 284#A3FA60112ED3CA06
(1502931915.010606) vcan0 284#9B65BA353E73B01C
(1502931915.020719) vcan0 284#D99385145190405C
(1502931915.030907) vcan0 284#12799A4A9E290F75
(1502931915.041088) vcan0 284#576D7113D1F20A16
(1502931915.051202) vcan0 284#FB2E066159925A23
(1502931915.061391) vcan0 284#1313A3760361981E
(1502931915.071534) vcan0 284#0D2BCA2F46DB441F
(1502931915.081633) vcan0 284#E9556F283646F275
(1502931915.091835) vcan0 284#B2BAEF089CF6921D
(1502931915.101986) vcan0 284#912E0C1468C5D052
(1502931915.112089) vcan0 284#910EDF209CC6576A
(1502931915.122276) vcan0 284#BFFB790D542BDC24
(1502931915.132459) vcan0 284#9D88D16D7BC03543
(1502931915.142659) vcan0 284#54C13551AA876913
(1502931915.152918) vcan0 284#B13B2462F7BB9662
(1502931915.163063) vcan0 284#D95A341A4DA1DE17
(1502931915.173168) vcan0 284#352F477FB2EEB92E
(1502931915.183341) vcan0 284#9E311F7448A8E149
(1502931915.193535) vcan0 284#5018C923F59E9007
(1502931915.203654) vcan0 284#199BEC5F4B47CF04
(1502931915.213835) vcan0 284#4E31EB2A2CAE8F56
(1502931915.223974) vcan0 284#4FA867235C5CB55A
(1502931915.234074) vcan0 284#7289D47538FED64B
(1502931915.244316) vcan0 284#92A2A7502444C47E
(1502931915.254535) vcan0 284#D5F4696924D1B364
(1502931915.264649) vcan0 284#8D0995516603490A
(1502931915.274828) vcan0 284#C0970B4F4C050F5F
(1502931915.284961) vcan0 284#BA2E252F5D20DD3C
(1502931915.295138) vcan0 284#C8C544220FF05A00
(1502931915.305345) vcan0 284#08A8465079016904
(1502931915.315495) vcan0 284#06ACF162E1027B6A
(1502931915.325598) vcan0 284#C6A2471C3CDB3862
(1502931915.335793) vcan0 284#93F1341964D46610
(1502931915.345992) vcan0 284#84831A2CE309FE3C
(1502931915.356109) vcan0 284#5973F7179D1E070C
(1502931915.366295) vcan0 284#2F51CD41A8A4E242
(1502931915.376430) vcan0 284#CACC96627EF93465
(1502931915.386531) vcan0 284#0401981D3C566B58
(1502931915.396746) vcan0 284#B6F70B3196A33F6E
(1502931915.406898) vcan0 284#619A2F578BEC751A
(1502931915.417003) vcan0 284#BA74F352EEA3C428
(1502931915.427194) vcan0 284#F1EFBE247B0CFF21
(1502931915.437327) vcan0 284#3AA9D307AC1EE453
(1502931915.447567) vcan0 284#D82CDC5E026F182A
(1502931915.457838) vcan0 284#BB0E3F54E0D4222F
(1502931915.468057) vcan0 284#7C70812EC1BA3037
(1502931915.478233) vcan0 284#C1D79D194213C94A
(1502931915.488441) vcan0 284#FD95691954C9D232
(1502931915.498636) vcan0 284#A7E72F5B81198445
(1502931915.508757) vcan0 284#38D3D06F005B2773
(1502931915.518944) vcan0 284#1F388B5167249E31
(1502931915.529081) vcan0 284#A8FF0936E9042234
(1502931915.539183) vcan0 284#E51DD316AC00A253
(1502931915.549441) vcan0 284#255B8D0C9B15DF47
(1502931915.559655) vcan0 284#43A4E14186F5BC63
(1502931915.569769) vcan0 284#27025562FD18D514
(1502931915.579954) vcan0 284#7499810C18F21307
(1502931915.590137) vcan0 284#7825D436AF425514
(1502931915.600286) vcan0 284#C410F85A5152B015
(1502931915.610482) vcan0 284#B1B16D3E7F1F372F
(1502931915.620621) vcan0 284#3127D3442D22EF6C
(1502931915.630720) vcan0 284#41DA6766F3FE705E
(1502931915.640912) vcan0 284#7035B8373E70D17F
(1502931915.651111) vcan0 284#47C84311171DE812
(1502931915.661233) vcan0 284#C08955457F9B1401
(1502931915.671423) vcan0 284#17780F06DFC1E016
(1502931915.681559) vcan0 284#E6BFB232C077193C
(1502931915.691740) vcan0 284#C8C6024BCBDD8549
(1502931915.701953) vcan0 284#6C78BB0FED219057
(1502931915.712177) vcan0 284#67F36411AF1C9D51
(1502931915.722337) vcan0 284#74174D3B8EF5B973
(1502931915.732636) vcan0 284#AD357266E8B0CE47
(1502931915.743041) vcan0 284#A6E7CD7A255B461D
(1502931915.753316) vcan0 284#97F3235C6BF8C555
(1502931915.763639) vcan0 284#76ADF63249A5911A
(1502931915.773910) vcan0 284#EA17FD04A8D4C977
(1502931915.784084) vcan0 284#76C780072BF2646B
(1502931915.794381) vcan0 284#9BD33A56E6FC383F
(1502931915.804658) vcan0 284#6A62366BE29B7E67
(1502931915.814878) vcan0 284#FD1921522AEC8B30
(1502931915.825149) vcan0 284#6237936815923058
(1502931915.835413) vcan0 284#09AE6C4748F7451B
(1502931915.845682) vcan0 284#D5094A14D1746F12
(1502931915.856006) vcan0 284#14D5CB6441820524
(1502931915.866274) vcan0 284#BE96FF697BC83076
(1502931915.876445) vcan0 284#F19EA27532AE4C25
(1502931915.886745) vcan0 284#09BEEA699ED4145C
(1502931915.897027) vcan0 284#1B5F1B6DAFA5B864
(1502931915.907202) vcan0 284#C32F5B79B2523F49
(1502931915.917627) vcan0 284#1A9E7E3A3ADD512C
(1502931915.927846) vcan0 284#FBF7D06305B67B3F
(1502931915.937959) vcan0 284#E2B11B2472BF516B
(1502931915.948364) vcan0 284#30A8E02A7D85567A
(1502931915.958611) vcan0 284#58BC8A2A9A0A1716
(1502931915.968722) vcan0 284#5F21D56156D6AB7C
(1502931915.978911) vcan0 284#C4F6A246C158684A
(1502931915.989055) vcan0 284#6B68DC54CDA40F0E
(1502931915.999240) vcan0 284#0A50AE6540722669
(1502931916.009445) vcan0 284#9E197F201E257A4A
(1502931916.019586) vcan0 284#81F42B0D5DB07E0A
(1502931916.029687) vcan0 284#99EDAA407293CE02
(1502931916.039878) vcan0 284#8F5ECB2FA2AB952A
(1502931916.050068) vcan0 284#1068E35EAABDE61C
(1502931916.060190) vcan0 284#51514E0FD4973E58
(1502931916.070383) vcan0 284#5D1026666CEFCC49
(1502931916.080519) vcan0 284#0E7590045808F749
(1502931916.090620) vcan0 284#71A54809F026AC28
(1502931916.100836) vcan0 284#CAC74835A14D2934
(1502931916.111046) vcan0 284#6DAC02232384D35F
(1502931916.121160) vcan0 284#3C58404ACCCDD704
(1502931916.131369) vcan0 284#795A7F5C004FE310
(1502931916.141520) vcan0 284#8E26404FE4C25B31
(1502931916.151707) vcan0 284#CEF3F21E9876EE34
(1502931916.161928) vcan0 284#2435821A6C0D723F
(1502931916.172071) vcan0 284#B69B687FA529AE27
(1502931916.182174) vcan0 284#C9BDF0494F891340
(1502931916.192364) vcan0 284#18BD7C2A591CBC79
(1502931916.202563) vcan0 284#F134A96A28256009
(1502931916.212681) vcan0 284#03DAA2164286F779
(1502931916.222923) vcan0 284#FCBC9E6160EAC87C
(1502931916.233074) vcan0 284#AE75C4430A322F66
(1502931916.243178) vcan0 284#B9F2BF461F1B0D4D
(1502931916.253418) vcan0 284#FA58DB0E83BA087C
(1502931916.263649) vcan0 284#C16836016705DE31
(1502931916.273764) vcan0 284#A63EDC5BFDC0764B
(1502931916.283944) vcan0 284#34D3B5361F995B38
(1502931916.294085) vcan0 284#FD0F5A5CC2F9F505
(1502931916.304274) vcan0 284#035CB769CB034D7B
(1502931916.314491) vcan0 284#5A70E43A27913904
(1502931916.324630) vcan0 284#3811BF3A100C4D3A
(1502931916.334732) vcan0 284#CDBAE72B01CFAF04
(1502931916.344914) vcan0 284#5F95607AE5776456
(1502931916.355120) vcan0 284#5AEB6B7E50CA0965
(1502931916.365240) vcan0 284#0D9DC45F5EC50E15
(1502931916.375431) vcan0 284#9250015F0A5A6341
(1502931916.385568) vcan0 284#BEAFD71141C6C522
(1502931916.395679) vcan0 284#148C922777A29758
(1502931916.405897) vcan0 284#60E1D26F0FE56D36
(1502931916.416048) vcan0 284#FB5CA054214A0971
(1502931916.426149) vcan0 284#76EA4B68A19B7C30
(1502931916.436331) vcan0 284#1E0B803CAABD011F
(1502931916.446519) vcan0 284#C134D8681C1BDA18
(1502931916.456718) vcan0 284#6CB7F724C4908F52
(1502931916.466937) vcan0 284#E71E2714C627DC5F
(1502931916.477086) vcan0 284#EC21C9561F30E64E
(1502931916.487192) vcan0 284#D633291AB9DCB002
(1502931916.497382) vcan0 284#21FF955335C98914
(1502931916.507525) vcan0 284#9E5415597BEA0152
(1502931916.517664) vcan0 284#85939379ABF1D938
(1502931916.527864) vcan0 284#D9AF106718E49458
(1502931916.538005) vcan0 284#B54B3D7A985FE878
(1502931916.548184) vcan0 284#59AA5A7BCAD7CF21
(1502931916.558393) vcan0 284#0F028051B98B2D6B
(1502931916.568530) vcan0 284#D9BC3D580A5F2026
(1502931916.578631) vcan0 284#DBD5365C4FA78940
(1502931916.588819) vcan0 284#ACFA9C56F9E0B618
(1502931916.599012) vcan0 284#FA648B5F6D2F753F
(1502931916.609131) vcan0 284#15FC9031661C8304
(1502931916.619326) vcan0 284#31C00412FD1AB845
(1502931916.629511) vcan0 284#2D445F641DE2CD68
(1502931916.639724) vcan0 284#1C4B9E140378887E
(1502931916.650020) vcan0 284#D6BE7E6B3D4A3468
(1502931916.660327) vcan0 284#3941121374139444
(1502931916.670536) vcan0 284#B934363ABED4A50C
(1502931916.680803) vcan0 284#20056E7D92E44621
(1502931916.691093) vcan0 284#D6B83A65D550AB77
(1502931916.701369) vcan0 284#2A442F1A2F639560
(1502931916.711664) vcan0 284#9F287B193A46AF6B
(1502931916.721983) vcan0 284#E9EEC24B78E5B871
(1502931916.732252) vcan0 284#44A5CF11C4C4F927
(1502931916.742472) vcan0 284#C88C4232F09F6C68
(1502931916.752665) vcan0 284#BDA5B040C2F1CD11
(1502931916.762783) vcan0 284#5DCFE127D3A14172
(1502931916.773015) vcan0 284#280E51168F8FE639
(1502931916.783181) vcan0 284#D0BCF9375552B07A
(1502931916.793289) vcan0 284#AC71B422EC07984C
(1502931916.803486) vcan0 284#59CA38798330330E
(1502931916.813680) vcan0 284#2A52CC34920B4B0C
(1502931916.823792) vcan0 284#F743C752E386026F
(1502931916.833982) vcan0 284#50E0F01817493550
(1502931916.844133) vcan0 284#756B491027992B7E
(1502931916.854325) vcan0 284#ED99E047A0AF782A
(1502931916.864536) vcan0 284#56FCC05E8CC25B61
(1502931916.874692) vcan0 284#DAF527163FEB832A
(1502931916.884798) vcan0 284#05A814531E9BF727
(1502931916.894996) vcan0 284#03B07D52CD345705
(1502931916.905196) vcan0 284#0F3B6410C1552E13
(1502931916.915317) vcan0 284#8F2625176C0A4638
(1502931916.925569) vcan0 284#94F76F05B734762D
(1502931916.935779) vcan0 284#FB992C7264B4693D
(1502931916.945899) vcan0 284#0D872628A80BE114
(1502931916.956211) vcan0 284#50BC010A66515F21
(1502931916.966433) vcan0 284#2B3C14237A0ECE3E
(1502931916.976545) vcan0 284#F85CAA2D2280DB75
(1502931916.986750) vcan0 284#5D95D02D483D9B46
(1502931916.996891) vcan0 284#3AC91046D3001A3E
(1502931917.007065) vcan0 284#6FD6C6442763F10D
(1502931917.017276) vcan0 284#73B09268C6D28723
(1502931917.027419) vcan0 284#B3254D6F4DA6BA7E
(1502931917.037521) vcan0 284#05BE0B4EB8CD6142
(1502931917.047717) vcan0 284#6B41B226096E8920
(1502931917.057900) vcan0 284#8502B9477A7C1637
(1502931917.068045) vcan0 284#CAC3B7331429DE5E
(1502931917.078250) vcan0 284#E7865C6F5EBB2739
(1502931917.088394) vcan0 284#CC5D540CE2208961
(1502931917.098499) vcan0 284#C26F9176D9E47A34
(1502931917.108713) vcan0 284#8A2C6A76122C9300
(1502931917.118880) vcan0 284#3F36DA55B5687E19
(1502931917.129049) vcan0 284#8D3A613F37938403
(1502931917.139273) vcan0 284#D8E8590FEACF316D
(1502931917.149420) vcan0 284#7FD01F4A12B26A55
(1502931917.159608) vcan0 284#BDD04B2BEFA6E60E
(1502931917.169834) vcan0 284#39155C633081DE13
(1502931917.179980) vcan0 284#B5796E32EC3AA952
(1502931917.190085) vcan0 284#7D279912BA377A00
(1502931917.200280) vcan0 284#A5080B15E9684B39
(1502931917.210476) vcan0 284#C3A503212A0BC45C
(1502931917.220593) vcan0 284#63E561708D69BB54
(1502931917.230794) vcan0 284#3F34A23B4A6CBE5F
(1502931917.240933) vcan0 284#EB24E30D0B92F647
(1502931917.251113) vcan0 284#2D8D4741AD947404
(1502931917.261332) vcan0 284#E476717CB7B9B137
(1502931917.271508) vcan0 284#C0C0070523AD4B52
(1502931917.281619) vcan0 284#6D2230514DFB6844
(1502931917.291816) vcan0 284#5A40D055450B8A60
(1502931917.302008) vcan0 284#37CB9A31D910F01F
(1502931917.312126) vcan0 284#57BDF435F59BE65C
(1502931917.322328) vcan0 284#C8B7D62E90D25019
(1502931917.332475) vcan0 284#251DC5707D314561
(1502931917.342580) vcan0 284#7C0DFA6BA3445E03
(1502931917.352785) vcan0 284#3869BF6121160501
(1502931917.362988) vcan0 284#8CADA93CFB0EC302
(1502931917.373101) vcan0 284#4C21C95DEF920B2D
(1502931917.383297) vcan0 284#89787E578B556B19
(1502931917.393445) vcan0 284#3AFFC90C749D6165
(1502931917.403630) vcan0 284#96E76161678C114E
(1502931917.413840) vcan0 284#2232D6697A5ED35D
(1502931917.423988) vcan0 284#1E46C305E2F2DD6E
(1502931917.434091) vcan0 284#9D0B1F308B68F356
(1502931917.444364) vcan0 284#2FEE4633F74BEF05
(1502931917.454635) vcan0 284#D0737D3766B9E164
(1502931917.464856) vcan0 284#D05CDF252731726D
(1502931917.475178) vcan0 284#5B55C8419914B654
(1502931917.485433) vcan0 284#B703C30681728D32
(1502931917.495610) vcan0 284#1646FB353411BD72
(1502931917.505918) vcan0 284#24B7EB354EAFBA17
(1502931917.516200) vcan0 284#5527C273B0649572
(1502931917.526368) vcan0 284#4ABE7D1AA1488B51
(1502931917.536674) vcan0 284#9FF7A01FD336FC71
(1502931917.546882) vcan0 284#2C9EF66AD9F66A2C
(1502931917.557062) vcan0 284#47D45D57C285584C
(1502931917.567315) vcan0 284#40837C7A69063441
(1502931917.577522) vcan0 284#3CE42B2A5FC93F00
(1502931917.587635) vcan0 284#4BF91130D9EF4A5A
(1502931917.597832) vcan0 284#EA3133577AE75863
(1502931917.608012) vcan0 284#D03B3A60BBA5B00E
(1502931917.618125) vcan0 284#E1A03A48A1981906
(1502931917.628320) vcan0 284#E2D6227C3CF6020A
(1502931917.638513) vcan0 284#3AADCF5A9ADAE502
(1502931917.648630) vcan0 284#BD68903C50F3CA10
(1502931917.658850) vcan0 284#CEEBA275E11F7C72
(1502931917.669033) vcan0 284#9FA2852823136569
(1502931917.679148) vcan0 284#91841165E9600343
(1502931917.689344) vcan0 284#C55BF03A317CB204
(1502931917.699487) vcan0 284#BC97FF34F1F9E625
(1502931917.709678) vcan0 284#0A731D31036C5D0C
(1502931917.719900) vcan0 284#B47F3F724BF6992B
(1502931917.730040) vcan0 284#6D72914DF0636B1C
(1502931917.740143) vcan0 284#AABFD92BB86BA37D
(1502931917.750346) vcan0 284#CA53B67694F10C03
(1502931917.760539) vcan0 284#3353FC609A8FF056
(1502931917.770687) vcan0 284#4F97BD1114F43629
(1502931917.780898) vcan0 284#3B280A5D326EE00D
(1502931917.791034) vcan0 284#50EA393375D5D937
(1502931917.801135) vcan0 284#CC48C6100E53CA6F
(1502931917.811373) vcan0 284#C6C8A4489A346906
(1502931917.821539) vcan0 284#EF724662656B2A71
(1502931917.831646) vcan0 284#BD47CE6F81F75747
(1502931917.841842) vcan0 284#4ECC2D3482A3BE2A
(1502931917.851983) vcan0 284#B2730A4C0A642D69
(1502931917.862169) vcan0 284#749DA550BCE6277D
(1502931917.872362) vcan0 284#0DD08A75281DE542
(1502931917.882511) vcan0 284#07DDC1287A421C43
(1502931917.892616) vcan0 284#1881505FB19C9B54
(1502931917.902814) vcan0 284#33AEBF40E2D40656
(1502931917.913055) vcan0 284#468EA8576601BC21
(1502931917.923173) vcan0 284#7D64F72C95256669
(1502931917.933359) vcan0 284#7AF5F24AB88C010A
(1502931917.943506) vcan0 284#C7934677CADF2C7E
(1502931917.953613) vcan0 284#2E62DB4193DC0C08
(1502931917.963871) vcan0 284#D832F76DF42A800A
(1502931917.974066) vcan0 284#2D11760EC8A53D50
(1502931917.984178) vcan0 284#5996AA7BEB58447E
(1502931917.994374) vcan0 284#499D9517A762D82F
(1502931918.004546) vcan0 284#6DFC0229FB10A063
(1502931918.014718) vcan0 284#B1C60519E199A879
(1502931918.024911) vcan0 284#B7F7C760BE96900E
(1502931918.035063) vcan0 284#09B78D3CBFD48909
(1502931918.045168) vcan0 284#39D9AC512238DE1B
(1502931918.055372) vcan0 284#7071255E6C876C12
(1502931918.065579) vcan0 284#040DE571B6FFCD35
(1502931918.075713) vcan0 284#D28828348171DC1E
(1502931918.085922) vcan0 284#4C25341F4C7E1B7F
(1502931918.096064) vcan0 284#3AFEDD2813B97A16
(1502931918.106242) vcan0 284#165E487D6860B96A
(1502931918.116456) vcan0 284#A795871EEF903F6B
(1502931918.126596) vcan0 284#5C8B3975D4A6FD2C
(1502931918.136767) vcan0 284#B7367D3BB521E470
(1502931918.146983) vcan0 284#BFFF412B00D41253
(1502931918.157172) vcan0 284#5C84BC202DFC4454
(1502931918.167323) vcan0 284#FBE4B2360D4BC239
(1502931918.177530) vcan0 284#0E96ED4DB2DC7A17
(1502931918.187675) vcan0 284#CBE15248184D7B0A
(1502931918.197778) vcan0 284#71B1042104BBFF19
(1502931918.207955) vcan0 284#3A855926E2222A7F
(1502931918.218096) vcan0 284#70426C2C3E923E18
(1502931918.228199) vcan0 284#9822F83442CB9460
(1502931918.238400) vcan0 284#C0031B37E4472C54
(1502931918.248597) vcan0 284#8E49B05FFA01F95F
(1502931918.258845) vcan0 284#F800A76AA5A7F85C
(1502931918.269148) vcan0 284#6262B24A9F962E09
(1502931918.279461) vcan0 284#94383848BEEDEB3F
(1502931918.289653) vcan0 284#733D2C364B6FB503
(1502931918.299986) vcan0 284#730FD030333D6E61
(1502931918.310284) vcan0 284#4B43C856CF938C51
(1502931918.320482) vcan0 284#6039B33546287B0D
(1502931918.330804) vcan0 284#DCDE4E0B6ECFA003
(1502931918.341069) vcan0 284#F804F624A7C0A153
(1502931918.351254) vcan0 284#861C1C0E6AB6FA45
(1502931918.361506) vcan0 284#AC7BA16DC0A17534
(1502931918.371697) vcan0 284#4CD924451CBE0D1A
(1502931918.381817) vcan0 284#FF33B44CE4FB1C7A
(1502931918.392023) vcan0 284#5F89A27ABF37CF03
(1502931918.402180) vcan0 284#C943494EEDD2525A
(1502931918.412351) vcan0 284#B939C863C144F038
(1502931918.422579) vcan0 284#927A4B371B9C7A2E
(1502931918.432737) vcan0 284#60DB1E4226B3837F
(1502931918.442870) vcan0 284#D989666ED3184B78
(1502931918.453060) vcan0 284#712239034C99361F
(1502931918.463270) vcan0 284#0656B959BC65015A
(1502931918.473439) vcan0 284#1B2DC370668F6C0F
(1502931918.483650) vcan0 284#028E7C67F70B127C
(1502931918.493800) vcan0 284#D55E0D13FB92720C
(1502931918.503909) vcan0 284#9ECCB34F5B7B2921
(1502931918.514141) vcan0 284#65496D524A48553D
(1502931918.524295) vcan0 284#1C1D9F55B1229217
(1502931918.534413) vcan0 284#670663571B515322
(1502931918.544622) vcan0 284#951EAF11C68F0552
(1502931918.554785) vcan0 284#DA8822265E62F85F
(1502931918.564968) vcan0 284#B362582C93C2EA09
(1502931918.575205) vcan0 284#1FA7E81846DDA363
(1502931918.585361) vcan0 284#AE5E65387F82075B
(1502931918.595475) vcan0 284#6C90276387E8CB26
(1502931918.605678) vcan0 284#539B5253DEB26066
(1502931918.615886) vcan0 284#D381024659F10B2D
(1502931918.626008) vcan0 284#9A186240EEAEC536
(1502931918.636211) vcan0 284#C080783C9DA6DE27
(1502931918.646402) vcan0 284#E5BAD73295DF854F
(1502931918.656520) vcan0 284#9839513483878B02
(1502931918.666774) vcan0 284#F05AAF70FD82BE06
(1502931918.676967) vcan0 284#CECFE03F0C784E46
(1502931918.687082) vcan0 284#AEA5501E35D64317
(1502931918.697287) vcan0 284#27C9A16843C4FF2F
(1502931918.707442) vcan0 284#FB6549690152C40E
(1502931918.717634) vcan0 284#A226F80FAEC8A115
(1502931918.727856) vcan0 284#9414AF18C1CDE028
(1502931918.738014) vcan0 284#F4A5457942731451
(1502931918.748120) vcan0 284#4150E80361366D5C
(1502931918.758344) vcan0 284#C95BE07794EB3A57
(1502931918.768540) vcan0 284#3FE9CD429CDDE23D
(1502931918.778705) vcan0 284#EDDC4604D9013003
(1502931918.788923) vcan0 284#8A8CA874AD5DBF40
(1502931918.799078) vcan0 284#76A80E2B6F478027
(1502931918.809187) vcan0 284#423D45100EE25F5F
(1502931918.819525) vcan0 284#F3CE0B2A3398F400
(1502931918.829731) vcan0 284#0B651E66C19EEC69
(1502931918.839848) vcan0 284#3F104347B90A6F04
(1502931918.850049) vcan0 284#F674300167D9E42F
(1502931918.860245) vcan0 284#FDCE6E34F1DA796A
(1502931918.870406) vcan0 284#682BA93E9FF56644
(1502931918.880626) vcan0 284#9FA31B00FD3F5857
(1502931918.890787) vcan0 284#60C3476D94496179
(1502931918.900893) vcan0 284#3FB36C28A1133071
(1502931918.911128) vcan0 284#F57FCE55090F4D20
(1502931918.921289) vcan0 284#35FF6A4834699C18
(1502931918.931399) vcan0 284#A5EC2F5E23DCB14C
(1502931918.941610) vcan0 284#0D6BCC1B3079D852
(1502931918.951762) vcan0 284#D039710D8413DB46
(1502931918.961938) vcan0 284#9FC0587A1377B61D
(1502931918.972154) vcan0 284#92F53A26928F6424
(1502931918.982316) vcan0 284#460FAB1E9E5A590C
(1502931918.992425) vcan0 284#532E510E851FEE65
(1502931919.002628) vcan0 284#5765C81049A3810F
(1502931919.012873) vcan0 284#ECF8D21554343745
(1502931919.022999) vcan0 284#3A7EFB7955247C54
(1502931919.033198) vcan0 284#F3299E09DA21177A
(1502931919.043354) vcan0 284#5264D42B54EDE576
(1502931919.053461) vcan0 284#6E6B787391174154
(1502931919.063783) vcan0 284#F500166863EB4649
(1502931919.074069) vcan0 284#9A268E742B008130
(1502931919.084233) vcan0 284#9754E3614013BE52
(1502931919.094537) vcan0 284#4EDC327DA4BFAF7D
(1502931919.104825) vcan0 284#708C96251E16A40A
(1502931919.115091) vcan0 284#28D38A440F4DEF1F
(1502931919.125414) vcan0 284#318D5A28BBC8C56A
(1502931919.135732) vcan0 284#A2DC5344779C0547
(1502931919.145916) vcan0 284#59231F77F50AA552
(1502931919.156228) vcan0 284#FDBBF32CB088E707
(1502931919.166523) vcan0 284#3FAE2662E9B4C642
(1502931919.176767) vcan0 284#05BD1E4D792C225C
(1502931919.187093) vcan0 284#3ED94217F8E6BC56
(1502931919.197389) vcan0 284#534E3956903D1743
(1502931919.207562) vcan0 284#4CD4A24DC1B9B149
(1502931919.217925) vcan0 284#2255581742D5B835
(1502931919.228209) vcan0 284#24A5F812BC7BE60B
(1502931919.238409) vcan0 284#6DD53966BBF9DB74
(1502931919.248729) vcan0 284#FC8EA45EBBB16C63
(1502931919.259031) vcan0 284#60B98B726C1B3B04
(1502931919.269229) vcan0 284#D9C7106E888C1637
(1502931919.279461) vcan0 284#7C682A240B556B16
(1502931919.289624) vcan0 284#4355DC211E457E68
