(1502935007.505190) vcan0 284#2B154713EC41D97E
(1502935007.515414) vcan0 284#39AC617C6F6B4063
(1502935007.525699) vcan0 284#C2B5345E4EE75B71
(1502935007.536010) vcan0 284#14AEFC3F83314903
(1502935007.546283) vcan0 284#14746E29DF058124
(1502935007.556583) vcan0 284#114B3668006E0444
(1502935007.567014) vcan0 284#41EBB221215E2005
(1502935007.577290) vcan0 284#61A7F151CB12B626
(1502935007.587559) vcan0 284#73094500DA634241
(1502935007.597769) vcan0 284#0ACFCC2707A4957E
(1502935007.607877) vcan0 284#083E5915CBB84711
(1502935007.618245) vcan0 284#AB5B5D0EEF2DFA1C
(1502935007.628460) vcan0 284#5D66241D173DC25A
(1502935007.638614) vcan0 284#5C426A4A75331859
(1502935007.648987) vcan0 284#2E3D7061D3DBDB33
(1502935007.659201) vcan0 284#A11865495952B774
(1502935007.669313) vcan0 284#BF1DB532DAC4C645
(1502935007.679570) vcan0 284#C8BDF75781D3E910
(1502935007.689777) vcan0 284#28AC2237DC6BF417
(1502935007.699943) vcan0 284#040533143C209160
(1502935007.710320) vcan0 284#BC71753C1550697C
(1502935007.720527) vcan0 284#3C8E9524FD5C285E
(1502935007.730636) vcan0 284#36AE89019D358776
(1502935007.741001) vcan0 284#C96FDE04AAB7CE01
(1502935007.751206) vcan0 284#7799C937D33EAB2C
(1502935007.761321) vcan0 284#B15B640080D7224D
(1502935007.771691) vcan0 284#9FF7F23D5DB7C10E
(1502935007.781909) vcan0 284#6F051D6AFC5D175B
(1502935007.792027) vcan0 284#74F48369CB478734
(1502935007.802400) vcan0 284#71912F34A231F44A
(1502935007.812612) vcan0 284#9F23636812AA947D
(1502935007.822725) vcan0 284#FB83AB3F5E41181B
(1502935007.833036) vcan0 284#EC6E5B43C441A317
(1502935007.843260) vcan0 284#E014022C141B7E7A
(1502935007.853373) vcan0 284#A0AD972FE4193540
(1502935007.863727) vcan0 284#503B0F5B5C1F0D6C
(1502935007.873929) vcan0 284#FA699E3C8CC9A47F
(1502935007.884115) vcan0 284#5A7C354A3018283E
(1502935007.894502) vcan0 284#29FF2B7623EC134F
(1502935007.904701) vcan0 284#DACFF63FA198F52D
(1502935007.914814) vcan0 284#F62ABF7B8C2B5B40
(1502935007.925173) vcan0 284#2170187B9522B239
(1502935007.935381) vcan0 284#E9E21C4F90753565
(1502935007.945484) vcan0 284#9180C9145DD7A038
(1502935007.955864) vcan0 284#5CBDBC190312F948
(1502935007.966074) vcan0 284#FF089503FBE01F02
(1502935007.976186) vcan0 284#15BC8D46FA8C4043
(1502935007.986584) vcan0 284#5922381D022BE909
(1502935007.996820) vcan0 284#BECEE35A39373A49
(1502935008.006937) vcan0 284#164667045F7C7B0A
(1502935008.017307) vcan0 284#1E516F096781765F
(1502935008.027514) vcan0 284#BB9B887618BB0D46
(1502935008.037669) vcan0 284#F34A1B5F1518BE40
(1502935008.048048) vcan0 284#48D335041D4A4755
(1502935008.058269) vcan0 284#3804D20F23A32C44
(1502935008.068377) vcan0 284#BEE23C032F2F910B
(1502935008.080198) vcan0 284#AFCE8704DF52557E
(1502935008.090413) vcan0 284#C451434598B1A453
(1502935008.100532) vcan0 284#6FC88A6356D20C5A
(1502935008.110736) vcan0 284#F588450CCB85477D
(1502935008.120901) vcan0 284#59E40523F491DA0F
(1502935008.131004) vcan0 284#C666677F6EA09369
(1502935008.141322) vcan0 284#EE1E1B5320899F1C
(1502935008.151515) vcan0 284#70CB7C73ADEDFE2D
(1502935008.161629) vcan0 284#59C0D9658711E477
(1502935008.171835) vcan0 284#0C6A7A387711496F
(1502935008.182058) vcan0 284#EE925A57C705032F
(1502935008.192175) vcan0 284#8FCC5635E1DD7536
(1502935008.202384) vcan0 284#DD1DC16FD89F8C39
(1502935008.212536) vcan0 284#FE27BD0B1522937F
(1502935008.222642) vcan0 284#FB42B97DBC0AFA0E
(1502935008.232937) vcan0 284#4451240BAA114102
(1502935008.243145) vcan0 284#9B5D4F0D09A36750
(1502935008.253268) vcan0 284#42C3E5550B26DA70
(1502935008.263468) vcan0 284#5F75742A374C2B62
(1502935008.273620) vcan0 284#D6AB216EB8597A4D
(1502935008.283812) vcan0 284#2BDE05729D12896D
(1502935008.294049) vcan0 284#26FA0D3719FD2045
(1502935008.304252) vcan0 284#BD9B280A97C58A2A
(1502935008.314393) vcan0 284#C6EA1F73165C0270
(1502935008.324693) vcan0 284#1ED76E22D2549A2B
(1502935008.335049) vcan0 284#8E6D4B5F0C6AC979
(1502935008.345219) vcan0 284#9A5A9D5A1D3AA214
(1502935008.355522) vcan0 284#ED473F3077785E4A
(1502935008.365749) vcan0 284#F5D92E4EEC6FFC3B
(1502935008.375910) vcan0 284#8C9AF149F01CE84B
(1502935008.386208) vcan0 284#A87AF64AD1EB1555
(1502935008.396512) vcan0 284#9A2E294E44D84558
(1502935008.406725) vcan0 284#DA8E7D25DCF10E24
(1502935008.417041) vcan0 284#4FFE1F493904F24F
(1502935008.427338) vcan0 284#133E3A0625AA4137
(1502935008.437582) vcan0 284#F15D6C1D3E1C4078
(1502935008.447901) vcan0 284#C2BCCA2417587A54
(1502935008.458201) vcan0 284#5819613D7F58F32E
(1502935008.468367) vcan0 284#AE1D057F1E048130
(1502935008.478678) vcan0 284#96B4F51ECCF47321
(1502935008.489008) vcan0 284#F1581B5C2422417E
(1502935008.499184) vcan0 284#D85E3D1B8BB3B836
(1502935008.509515) vcan0 284#415CE312C6A67C4B
(1502935008.519811) vcan0 284#022C170137361261
