(1502932470.409177) vcan0 284#E8460455253D173A
(1502932470.509462) vcan0 284#F60F616E98D16A10
(1502932470.609759) vcan0 284#63BEC91EE3FADE3E
(1502932470.710050) vcan0 284#34836277C2E89247
(1502932470.810336) vcan0 284#4D060B64FC71292C
(1502932470.910617) vcan0 284#01FB0C666910154C
(1502932471.010889) vcan0 284#79AEF72076ABFC7B
(1502932471.111176) vcan0 284#015A82608B05F93F
(1502932471.211458) vcan0 284#3CEDC1426D01112A
(1502932471.311738) vcan0 284#6383AA59AA278437
(1502932471.412019) vcan0 284#3FA5583588614B5E
(1502932471.512302) vcan0 284#2995615477F58A27
(1502932471.612569) vcan0 284#31F36C4DCFA4C30F
(1502932471.712908) vcan0 284#4C877D01BBC27D09
(1502932471.813207) vcan0 284#32729307F6DF4645
(1502932471.913502) vcan0 284#4FAE05011AB9975C
(1502932472.013787) vcan0 284#1B1D5E7F45BE666F
(1502932472.114087) vcan0 284#B28A026D7FDB271E
(1502932472.214374) vcan0 284#28B9452EE70D6564
(1502932472.314656) vcan0 284#41C4BA6575BF5012
(1502932472.414937) vcan0 284#E37F8E1042BFC74B
(1502932472.515205) vcan0 284#DECF655E5D2E8631
(1502932472.615491) vcan0 284#B86AC447E029E83E
(1502932472.715775) vcan0 284#E8337F71F557860A
(1502932472.816057) vcan0 284#4D2BF9684BB7294B
(1502932472.916349) vcan0 284#9F7F0A428CD0511E
(1502932473.016632) vcan0 284#D4187529C8146C16
(1502932473.116910) vcan0 284#03C6DC45050CE276
(1502932473.217178) vcan0 284#98B92F264F4D5A47
(1502932473.317459) vcan0 284#C0CE5F00CA2BC32D
(1502932473.417745) vcan0 284#452DA10C0F7D6501
(1502932473.518031) vcan0 284#E4E45A0A614AFF0B
(1502932473.618315) vcan0 284#543BCC70966F5D77
(1502932473.718596) vcan0 284#E025272A7CF4111F
(1502932473.818881) vcan0 284#7D7DC25B21EAE10F
(1502932473.919158) vcan0 284#F1B3623161FD506C
(1502932474.019446) vcan0 284#63A9A95BD083C80F
(1502932474.119736) vcan0 284#BE2BD71D1C146E23
(1502932474.220021) vcan0 284#B0ADB04EA65F560F
(1502932474.320288) vcan0 284#116CF42DFDD8A937
(1502932474.420548) vcan0 284#F116805AB0EBFE6F
(1502932474.520841) vcan0 284#89A9FB55C52FF503
(1502932474.621114) vcan0 284#78006B068C6FD81B
(1502932474.721396) vcan0 284#CB3BD77A10BA9A2C
(1502932474.821694) vcan0 284#DCBC32638B0A377B
(1502932474.921972) vcan0 284#DAE55D5A21EAD36F
(1502932475.022251) vcan0 284#9B879C7CBECAB864
(1502932475.122530) vcan0 284#8234D37BEFC2686D
(1502932475.222811) vcan0 284#553A165C625AFA25
(1502932475.323136) vcan0 284#6CB77A0CD2B7D837
(1502932475.423417) vcan0 284#8344DC355D6BDD3D
(1502932475.523682) vcan0 284#33B52924E7ED8511
(1502932475.623984) vcan0 284#2DEFA54DF1E00042
(1502932475.724237) vcan0 284#0302F434DD9C561C
(1502932475.824501) vcan0 284#97405751146EE862
(1502932475.924776) vcan0 284#DA7500548957D72B
(1502932476.025050) vcan0 284#C459E752631FFC29
(1502932476.125327) vcan0 284#4E87CC2F3C5A5259
(1502932476.225596) vcan0 284#F08ED44519C3A32A
(1502932476.325879) vcan0 284#4D14ED05CC4B0729
(1502932476.426159) vcan0 284#A5CDDA2527FA4A60
(1502932476.526433) vcan0 284#ED35DB1840557722
(1502932476.626693) vcan0 284#E6C40345706AAE14
(1502932476.726957) vcan0 284#2F18E00F3BFF1921
(1502932476.827230) vcan0 284#D2C4A83A9BCF5A1C
(1502932476.927506) vcan0 284#0DB7F25856098570
(1502932477.027784) vcan0 284#F93A385A416C1C7D
(1502932477.128063) vcan0 284#3DF70A02262ADE27
(1502932477.228341) vcan0 284#324D1D3F40F9FE36
(1502932477.328626) vcan0 284#04C73444CA8D7410
(1502932477.428893) vcan0 284#5467E719DE3C3518
(1502932477.529178) vcan0 284#53E54B3C18C1CE6C
(1502932477.629464) vcan0 284#425C3142A16C186C
(1502932477.729738) vcan0 284#541B214632EB0508
(1502932477.830021) vcan0 284#BB2FBC16A12F0E4C
(1502932477.930290) vcan0 284#FE360D3160FD963C
(1502932478.030560) vcan0 284#C929592CEB6CE849
(1502932478.130841) vcan0 284#A0520E5FAFEE5C71
(1502932478.231118) vcan0 284#5BD7965ECF6AEE6E
(1502932478.331398) vcan0 284#EAED76122E9C3F19
(1502932478.431680) vcan0 284#6B3A490BF7A4696B
(1502932478.531952) vcan0 284#84A5C40964758165
(1502932478.632244) vcan0 284#38118668C19CCF0B
(1502932478.732503) vcan0 284#8A9F5F0D6B5EA327
(1502932478.832770) vcan0 284#0196CE428E669451
(1502932478.933031) vcan0 284#35EC173855FDB55C
(1502932479.033308) vcan0 284#6DA3C96988D16374
(1502932479.133591) vcan0 284#6DBE8449AFFFFA2B
(1502932479.233864) vcan0 284#293E7C60C1D9A50F
(1502932479.334134) vcan0 284#E1EA0034E46D3877
(1502932479.434402) vcan0 284#6309B45BDF210E65
(1502932479.534681) vcan0 284#446BCF332C330D08
(1502932479.634966) vcan0 284#CA8EF62EE4BDDD12
(1502932479.735243) vcan0 284#DB216A7926668D0D
(1502932479.835514) vcan0 284#B428CC01C50FE10B
(1502932479.935799) vcan0 284#5402CD261F63150D
(1502932480.036071) vcan0 284#BCB44A77D8A79130
(1502932480.136347) vcan0 284#83D89672F5C5D05F
(1502932480.236620) vcan0 284#9944613C0D78F67F
(1502932480.336889) vcan0 284#602474079ADA2F7F
