(1502932518.088573) vcan0 284#E9C7BE52AE9DE60A
(1502932518.098875) vcan0 284#34CAD9326462716F
(1502932518.109260) vcan0 284#3BC71B7B9CFC7345
(1502932518.119772) vcan0 284#5946877C5A375478
(1502932518.130136) vcan0 284#8C55270128535D03
(1502932518.140490) vcan0 284#A08D3F3066248F73
(1502932518.150696) vcan0 284#3BE3BD4E83A9FE03
(1502932518.160806) vcan0 284#962BAB2888AA9A5D
(1502932518.170985) vcan0 284#3754FF5E33F79D3A
(1502932518.181119) vcan0 284#D8A1500732602B2C
(1502932518.191218) vcan0 284#7BA358038F4AA439
(1502932518.201414) vcan0 284#5130FB4188E1E22F
(1502932518.211601) vcan0 284#7D6B3A085C24C17B
(1502932518.221719) vcan0 284#7459370BDDDA7A47
(1502932518.231918) vcan0 284#69D2A348821E2F56
(1502932518.242153) vcan0 284#09D09822529A621B
(1502932518.252514) vcan0 284#31BC15613D9A7255
(1502932518.262765) vcan0 284#B7FCD30A6C83315C
(1502932518.272977) vcan0 284#DA96E61A10435B07
(1502932518.283099) vcan0 284#C6BA855466EC0D1C
(1502932518.293289) vcan0 284#3996B80A6748C504
(1502932518.303451) vcan0 284#CD109D0F74797659
(1502932518.313643) vcan0 284#EAF1C308633C4838
(1502932518.323847) vcan0 284#FC2311372246C367
(1502932518.333971) vcan0 284#9733E672D5C5613E
(1502932518.344067) vcan0 284#54A6EE1312D73E76
(1502932518.354238) vcan0 284#64100678A5D6E955
(1502932518.364363) vcan0 284#9BB82126E27B4000
(1502932518.374526) vcan0 284#02FBAA510F125931
(1502932518.384734) vcan0 284#BF56BB476BCD4E1A
(1502932518.394859) vcan0 284#91308807C826546A
(1502932518.404954) vcan0 284#BE67B135C2EC9D68
(1502932518.415160) vcan0 284#05C1C63F75648540
(1502932518.425294) vcan0 284#2E70CF44DF57AD5A
(1502932518.435393) vcan0 284#85A7E047F52A5519
(1502932518.445585) vcan0 284#4644BB76BE3D9952
(1502932518.455706) vcan0 284#5C731A1E13555806
(1502932518.465870) vcan0 284#32B70F2C4665DE26
(1502932518.476077) vcan0 284#7691A03E2FDB2063
(1502932518.486208) vcan0 284#68ABA10E0DC58631
(1502932518.496304) vcan0 284#04A18221BC519022
(1502932518.506491) vcan0 284#209CC52768B18819
(1502932518.516694) vcan0 284#62287A78BB54E74D
(1502932518.526808) vcan0 284#4A2DC9196423254A
(1502932518.536985) vcan0 284#CA66407F09848461
(1502932518.547122) vcan0 284#CFF073645B97C806
(1502932518.557217) vcan0 284#D1AAD84B8D58251A
(1502932518.567386) vcan0 284#1E84666FD76B9F0B
(1502932518.577515) vcan0 284#02BDAA5A4CF43534
(1502932518.587612) vcan0 284#B6C34C6688648B22
(1502932518.597802) vcan0 284#411F8B4DFC07085D
(1502932518.607927) vcan0 284#46A224759D92A56B
(1502932518.618104) vcan0 284#0F5D606379593421
(1502932518.628331) vcan0 284#E4F7831286EE0022
(1502932518.638506) vcan0 284#A83455044CA32521
(1502932518.648616) vcan0 284#93B38753ACD5D725
(1502932518.658817) vcan0 284#09F5B543B34F4D7B
(1502932518.668993) vcan0 284#1487603F6B1D303C
(1502932518.679103) vcan0 284#6EA434495FB42959
(1502932518.689299) vcan0 284#CF405506380B7548
(1502932518.699428) vcan0 284#6838AE3A9E31C96A
(1502932518.709600) vcan0 284#94A23D4F3AE38606
(1502932518.719806) vcan0 284#2C8AEE04B226A43E
(1502932518.729939) vcan0 284#114F26122E47995F
(1502932518.740042) vcan0 284#FE1ADA72C7127378
(1502932518.750237) vcan0 284#B6AB2402403A6540
(1502932518.760370) vcan0 284#C41A7B55FD4D4977
(1502932518.770518) vcan0 284#DDCC0A2CD377DB38
(1502932518.780722) vcan0 284#76A77D18C1C48E3E
(1502932518.790860) vcan0 284#5966DC5A1EDCD21C
(1502932518.800957) vcan0 284#0E68B45FED19642E
(1502932518.811146) vcan0 284#CAB1AA42175D6A23
(1502932518.821280) vcan0 284#A069B129DE380B02
(1502932518.831379) vcan0 284#827A9A5F0F0EE672
(1502932518.841626) vcan0 284#3DED345B51BBEF65
(1502932518.851894) vcan0 284#47195B3BA625E315
(1502932518.862059) vcan0 284#EFECB850DBBB980A
(1502932518.872324) vcan0 284#E0086A1C1B77A755
(1502932518.882607) vcan0 284#8DE23C49F157902E
(1502932518.892773) vcan0 284#4ABE40358CFD163C
(1502932518.903113) vcan0 284#B86A0327006A6537
(1502932518.913367) vcan0 284#CC377C7C7C857E7C
(1502932518.923565) vcan0 284#FDB7AE2EA9048728
(1502932518.933839) vcan0 284#50FD5935735F2C47
(1502932518.944129) vcan0 284#6BC91567A9633610
(1502932518.954289) vcan0 284#913BFF637931CA46
(1502932518.964567) vcan0 284#967D9A3E5BEDA926
(1502932518.974836) vcan0 284#908E346A37E74B68
(1502932518.985017) vcan0 284#3A26B5281209CF49
(1502932518.995310) vcan0 284#46F5315B7713EA03
(1502932519.005591) vcan0 284#63C4BE2F8D0E8D16
(1502932519.015852) vcan0 284#1D39CD1952B17700
(1502932519.026160) vcan0 284#69CA2521FD413736
(1502932519.036458) vcan0 284#6E281F56F6AC626A
(1502932519.046626) vcan0 284#EE99C764B8E65F0B
(1502932519.056917) vcan0 284#82AA7926A704CB0B
(1502932519.067178) vcan0 284#B850C5424EE2F522
(1502932519.077437) vcan0 284#238A4908B6087471
(1502932519.087729) vcan0 284#F8E67C4B7387A33D
(1502932519.098014) vcan0 284#2968A03863B09232
