(1502931922.841520) vcan0 284#E7C2495EBB3F8F75
(1502931922.851708) vcan0 284#4622176957626E61
(1502931922.861913) vcan0 284#4C9F9042F372BB5F
(1502931922.872138) vcan0 284#3D11CA0E56D5AA24
(1502931922.882317) vcan0 284#4279AB601C626243
(1502931922.892655) vcan0 284#6C249629AE74C329
(1502931922.902905) vcan0 284#5373FE1551EAF766
(1502931922.913026) vcan0 284#49564733F4DE297D
(1502931922.923364) vcan0 284#4A0D0C6628AE3E00
(1502931922.933591) vcan0 284#F1BCD319B754F709
(1502931922.943772) vcan0 284#97F4597BA1A46C31
(1502931922.954161) vcan0 284#51E1242F41041F04
(1502931922.964407) vcan0 284#B3F9E900FD962905
(1502931922.974530) vcan0 284#94B2757C5720B440
(1502931922.984731) vcan0 284#3D5F4E28D339B653
(1502931922.994920) vcan0 284#5DA84B1424229806
(1502931923.005035) vcan0 284#8E794549A3CA627D
(1502931923.015380) vcan0 284#7C840668DB18D60B
(1502931923.025598) vcan0 284#963D1E5DB995D076
(1502931923.035747) vcan0 284#31EE8030D8B6C93D
(1502931923.046116) vcan0 284#D5F7323A9D12175A
(1502931923.056367) vcan0 284#862B8D67286B3150
(1502931923.066492) vcan0 284#EEFC0E41D081D41A
(1502931923.076892) vcan0 284#1D4A5B4D380A1B27
(1502931923.087087) vcan0 284#F82F131B0E072F67
(1502931923.097240) vcan0 284#EF5E123190246D16
(1502931923.107610) vcan0 284#AFAB9B1840403760
(1502931923.117849) vcan0 284#D1288C1A62A58519
(1502931923.127973) vcan0 284#3DD7606565DB0117
(1502931923.138347) vcan0 284#BAC5395A7A36AF0D
(1502931923.148598) vcan0 284#3915B86A176E856E
(1502931923.158723) vcan0 284#9F584714C78EFD33
(1502931923.169109) vcan0 284#BA38E86B1BDD4D7C
(1502931923.179337) vcan0 284#A2A7D33F51760649
(1502931923.189516) vcan0 284#D4721E73D3955470
(1502931923.199731) vcan0 284#292DD006A96A512D
(1502931923.209952) vcan0 284#70A86B4AB0585D6E
(1502931923.220067) vcan0 284#D1D5827D5FA57A0B
(1502931923.230427) vcan0 284#80DA3109EE1FDE4A
(1502931923.240626) vcan0 284#97AF9532780A4524
(1502931923.250744) vcan0 284#FC260D32870EA863
(1502931923.261068) vcan0 284#082FB23AABD2A84A
(1502931923.271280) vcan0 284#C74EDF43D9573E55
(1502931923.281406) vcan0 284#0E782E6405264029
(1502931923.291772) vcan0 284#3F33406CC83D683E
(1502931923.302006) vcan0 284#7F5CEF367848F856
(1502931923.312123) vcan0 284#DFABED2C1EB5364B
(1502931923.322465) vcan0 284#3FD7F50A99E4D518
(1502931923.332676) vcan0 284#39928447E27EC94A
(1502931923.342906) vcan0 284#EA5ADC610D05A33A
(1502931923.353291) vcan0 284#B5141E3B1488AC68
(1502931923.363543) vcan0 284#B66FF46726BD8905
(1502931923.373660) vcan0 284#C4E0095788457765
(1502931923.384012) vcan0 284#8562041144BB3B60
(1502931923.394242) vcan0 284#766555301C129A43
(1502931923.404412) vcan0 284#BCC58004738C6262
(1502931923.414818) vcan0 284#A3204227C5F4323F
(1502931923.425061) vcan0 284#1E5F0B2D6B6F216B
(1502931923.435183) vcan0 284#9E4C71142CD73911
(1502931923.445570) vcan0 284#70956114DD7FB100
(1502931923.455813) vcan0 284#F414A24FEFF1504B
(1502931923.465938) vcan0 284#55C8A957D3C08F7C
(1502931923.476331) vcan0 284#0EA78716959F9F62
(1502931923.486547) vcan0 284#6DA5651547390C5E
(1502931923.496679) vcan0 284#771E692D57004277
(1502931923.507063) vcan0 284#553EAF182C338768
(1502931923.517371) vcan0 284#6B88EE5F0BAEA300
(1502931923.527589) vcan0 284#52F0106E2F69F836
(1502931923.538004) vcan0 284#93F31A66D752157F
(1502931923.548341) vcan0 284#732434170A597016
(1502931923.558544) vcan0 284#F464AF4230EAB41B
(1502931923.568930) vcan0 284#7DE5D2789785F169
(1502931923.579253) vcan0 284#F5DEE75A9B44DE25
(1502931923.589520) vcan0 284#02F51255932B596F
(1502931923.599935) vcan0 284#C81B1837728A7469
(1502931923.610272) vcan0 284#71AB0A70BC30BA06
(1502931923.620542) vcan0 284#627CC534C673B447
(1502931923.630926) vcan0 284#90F1490370234D4B
(1502931923.641201) vcan0 284#5B13542AFD96AF18
(1502931923.651463) vcan0 284#B75C5929D231BD57
(1502931923.661867) vcan0 284#5497F10F0C9B0842
(1502931923.672190) vcan0 284#FF644440C01FE06F
(1502931923.682399) vcan0 284#1849AC425155552E
(1502931923.692758) vcan0 284#EF88D826AB3CC728
(1502931923.703089) vcan0 284#29A86A2D63AD0C3E
(1502931923.713323) vcan0 284#B595373F1D0D1A70
(1502931923.723618) vcan0 284#9397C159327B0A38
(1502931923.733870) vcan0 284#B4920B5A8876A934
(1502931923.744061) vcan0 284#CEBFE85DB7871E2F
(1502931923.754474) vcan0 284#1BA2022496DB0015
(1502931923.764724) vcan0 284#291293188C4D0D14
(1502931923.774853) vcan0 284#520CBB1B8B8E584D
(1502931923.785242) vcan0 284#53C1C15BE2FD041F
(1502931923.795476) vcan0 284#FBB1A518AED41506
(1502931923.805642) vcan0 284#DF94B437B30EFF41
(1502931923.816027) vcan0 284#8106D35D342CA647
(1502931923.826264) vcan0 284#BFA90704806B171E
(1502931923.836387) vcan0 284#F44B8637D7F2B346
(1502931923.846620) vcan0 284#D1C06C4CE3D45E5E
(1502931923.856865) vcan0 284#832F7B6FFA68D779
(1502931923.867112) vcan0 284#46826B1C38C5B22E
(1502931923.877404) vcan0 284#1776F169D9192D76
(1502931923.887685) vcan0 284#6B40BD66CC08FD43
(1502931923.897819) vcan0 284#6190D62A3900A644
(1502931923.908157) vcan0 284#83901B737D32D94E
(1502931923.918354) vcan0 284#CFDBA659ACA2AE0B
(1502931923.928480) vcan0 284#0980E66221E86175
(1502931923.938853) vcan0 284#383107595C41A83E
(1502931923.949066) vcan0 284#04E6661433E3AC71
(1502931923.959189) vcan0 284#0B16BE44E37A1B4C
(1502931923.969539) vcan0 284#E6F1AB338C1C9122
(1502931923.979755) vcan0 284#17A7C113A69BB337
(1502931923.989946) vcan0 284#0C88A8400BF3474B
(1502931924.000171) vcan0 284#7D8E677EDD48150D
(1502931924.010376) vcan0 284#EFC7A62900BEE26D
(1502931924.020500) vcan0 284#D8B1EC06354A1246
(1502931924.030850) vcan0 284#3983951CEF27DE70
(1502931924.041042) vcan0 284#0F643F3CA4C35203
(1502931924.051223) vcan0 284#BB30DB3470F41567
(1502931924.061574) vcan0 284#DDC3F8473EC1F627
(1502931924.071779) vcan0 284#ED26EF35AC9F9F21
(1502931924.081905) vcan0 284#EB63A533F7A6D518
(1502931924.092105) vcan0 284#CD8701172395AC0C
(1502931924.102305) vcan0 284#53E87D57D16D682B
(1502931924.112419) vcan0 284#5678597E5EFE3B1C
(1502931924.122796) vcan0 284#B5E883773D6A0532
(1502931924.133059) vcan0 284#EA1ACD3ECC8F450B
(1502931924.143219) vcan0 284#E305B969F6A2757F
(1502931924.153612) vcan0 284#D8828D5660942068
(1502931924.163847) vcan0 284#D4EB8A0CC74A3400
(1502931924.173968) vcan0 284#61520356AC9D7713
(1502931924.184329) vcan0 284#FC9446469AD59872
(1502931924.194542) vcan0 284#9BC555040BF98502
(1502931924.204697) vcan0 284#3E99EB7557F63039
(1502931924.215102) vcan0 284#7CED9B691B5DE43D
(1502931924.225289) vcan0 284#95B7276169148B1F
(1502931924.235406) vcan0 284#C7FC835F801BCD14
(1502931924.245801) vcan0 284#60BB603894848576
(1502931924.256053) vcan0 284#A3B07921B4A3DE0F
(1502931924.266179) vcan0 284#66F2ED21FA28D31F
(1502931924.276570) vcan0 284#12A21A2C1BDB7119
(1502931924.286784) vcan0 284#3793D851FDBCE76A
(1502931924.296968) vcan0 284#E76AB7241A99913B
(1502931924.307364) vcan0 284#F35F5D6ABFED447B
(1502931924.317581) vcan0 284#7A2DB223C74BE876
(1502931924.327703) vcan0 284#8638797BDB7FB579
(1502931924.338084) vcan0 284#73E95F0A83CDBF41
(1502931924.348314) vcan0 284#75554E6C0FAFB50E
(1502931924.358442) vcan0 284#8EC64544B3EE3962
(1502931924.368793) vcan0 284#66A5E6470AB4E12D
(1502931924.378987) vcan0 284#CE4B1E20FB5C0E29
(1502931924.389114) vcan0 284#74C86C4D9548A27F
(1502931924.399503) vcan0 284#7C78DB3DD483CD05
(1502931924.409734) vcan0 284#2ACD27761F29555F
(1502931924.419850) vcan0 284#8827AC1590BF1518
(1502931924.430195) vcan0 284#1952287F9BC9C641
(1502931924.440444) vcan0 284#AB9A873150E50051
(1502931924.450699) vcan0 284#9886AE2C92053F56
(1502931924.461102) vcan0 284#6A7E920C8BE60B17
(1502931924.471426) vcan0 284#52F38351E5AB4430
(1502931924.481638) vcan0 284#5332F40DD82BFD4C
(1502931924.491937) vcan0 284#C02BFA29C61B5418
(1502931924.502246) vcan0 284#5BF9BC0E36814816
(1502931924.512507) vcan0 284#D5CA0927EABF0253
(1502931924.522962) vcan0 284#E96F82783B70F06E
(1502931924.533240) vcan0 284#F473E400B8BBA018
(1502931924.543403) vcan0 284#37CDFE17683C514E
(1502931924.553720) vcan0 284#4D044318B345DA55
(1502931924.563951) vcan0 284#3DC01E5477D16A0E
(1502931924.574070) vcan0 284#D26E2F35C5E7CA69
(1502931924.584388) vcan0 284#07918026ECC05734
(1502931924.594599) vcan0 284#60B1912BB22B0858
(1502931924.604759) vcan0 284#3CA65805F8374058
(1502931924.615098) vcan0 284#4531472EA724EB11
(1502931924.625275) vcan0 284#841E4C6F9724CB7F
(1502931924.635402) vcan0 284#8CD02F42D750407D
(1502931924.645798) vcan0 284#6F50C84C4CFC296C
(1502931924.656035) vcan0 284#9D6C9415CB49855B
(1502931924.666163) vcan0 284#827D720273379E3C
(1502931924.676461) vcan0 284#B509882E6CEDF47A
(1502931924.686628) vcan0 284#AEA78E2BA97D6C2F
(1502931924.696804) vcan0 284#24A99513E5748D43
(1502931924.707223) vcan0 284#12BABD7D71ADD82B
(1502931924.717443) vcan0 284#98BA67194F7ADC51
(1502931924.727561) vcan0 284#E97E433A6B29974E
(1502931924.737905) vcan0 284#1462A73BF00FC460
(1502931924.748121) vcan0 284#57EAEE0275133967
(1502931924.758240) vcan0 284#A33BCC3893904708
(1502931924.768586) vcan0 284#6D4B793FE86C1367
(1502931924.778785) vcan0 284#3AB5321AF169C52E
(1502931924.788899) vcan0 284#7F91DE66C685625C
(1502931924.799251) vcan0 284#C8BA052CEEE1A633
(1502931924.809474) vcan0 284#13828C4866279A41
(1502931924.819591) vcan0 284#B92B2C0F95FFFE4A
(1502931924.829876) vcan0 284#D95E387E6E35B43D
(1502931924.840055) vcan0 284#01EDF3458706C729
(1502931924.850236) vcan0 284#18B3206D25968959
(1502931924.860586) vcan0 284#6D7B546D2A6DDE6A
(1502931924.870786) vcan0 284#974362050536BC06
(1502931924.880908) vcan0 284#79E7BA3C80C2A53F
(1502931924.891159) vcan0 284#705F53558D496278
(1502931924.901348) vcan0 284#70D26920C7494258
(1502931924.911512) vcan0 284#025D9B5F130E3659
(1502931924.921868) vcan0 284#5BDA896070A8141F
(1502931924.932058) vcan0 284#FB7A4940958FBC7A
(1502931924.942173) vcan0 284#6112DA4D7A0C2827
(1502931924.952435) vcan0 284#5C151F572ACDDF79
(1502931924.962660) vcan0 284#69EECE5A6F97AB1F
(1502931924.972776) vcan0 284#90F4793B221AFB69
(1502931924.983036) vcan0 284#0497AA6A6953B239
(1502931924.993235) vcan0 284#914FAF2706849E30
(1502931925.003428) vcan0 284#F0597963A902D014
(1502931925.013787) vcan0 284#2B1A280A5DD5CD50
(1502931925.023987) vcan0 284#D36FAE7FC25D8A0F
(1502931925.034116) vcan0 284#630B8A574C57693C
(1502931925.044443) vcan0 284#4220304FD36ADD2C
(1502931925.054642) vcan0 284#D9A0CB34B3F2996F
(1502931925.064763) vcan0 284#9BB41F05DCFD6614
(1502931925.075038) vcan0 284#C600D048F68EA965
(1502931925.085213) vcan0 284#4CA67B33C27B1909
(1502931925.095393) vcan0 284#8B1E6660ADB85501
(1502931925.105618) vcan0 284#3C884130E7338537
(1502931925.115829) vcan0 284#D785357BA576100B
(1502931925.125954) vcan0 284#56CB3057677AAF36
(1502931925.136374) vcan0 284#C8900B755B62DB41
(1502931925.146634) vcan0 284#D0CD617059E0BA1C
(1502931925.156811) vcan0 284#61E67972C127DB53
(1502931925.167175) vcan0 284#02E38A318C00A27C
(1502931925.177381) vcan0 284#1EFDA824D5523931
(1502931925.187496) vcan0 284#4F5E2C0C8108337C
(1502931925.197902) vcan0 284#21AAA26D917E5C5B
(1502931925.208133) vcan0 284#55731029FA4A6E22
(1502931925.218251) vcan0 284#4471F64AF027302E
(1502931925.228591) vcan0 284#D648D5360B72C613
(1502931925.238850) vcan0 284#E6B6D91322EF506A
(1502931925.249071) vcan0 284#CDEDDF1C71D53F74
(1502931925.259424) vcan0 284#D0A7A66B0976214D
(1502931925.269712) vcan0 284#5909C52BA72DDC66
(1502931925.279893) vcan0 284#AFEC3158AFD4F502
(1502931925.290214) vcan0 284#0FA88B1D777D3D4D
(1502931925.300521) vcan0 284#0A37D144DF75ED0D
(1502931925.310770) vcan0 284#D05DF8696B1D4B37
(1502931925.321104) vcan0 284#A09DC861D240831B
(1502931925.331409) vcan0 284#F81DED33BF9A7106
(1502931925.341612) vcan0 284#A793BC4C477C1940
(1502931925.351895) vcan0 284#40A3A402C83D5F3A
(1502931925.362193) vcan0 284#D8FA751B9516B52B
(1502931925.372378) vcan0 284#C288CD5C1D6C6C66
(1502931925.382709) vcan0 284#853EE55999D1A213
(1502931925.393022) vcan0 284#28DE327A6BF5BE6D
(1502931925.403300) vcan0 284#BBC0F37DF5CB1217
(1502931925.413626) vcan0 284#DDCAFE618B689A69
(1502931925.423919) vcan0 284#FE41346436D4C30D
(1502931925.434088) vcan0 284#33967650AD2E663C
(1502931925.444360) vcan0 284#E5A8B910423E026E
(1502931925.454579) vcan0 284#24ACA309F0DF8A55
(1502931925.464742) vcan0 284#21B4EF7BF4099C73
(1502931925.474963) vcan0 284#5BFDD50CC251B85D
(1502931925.485115) vcan0 284#C64A1F0F531BC340
(1502931925.495230) vcan0 284#81EC29646DDEDB5B
(1502931925.505441) vcan0 284#9A97DC00C18FCE66
(1502931925.515633) vcan0 284#351C3B167392521C
(1502931925.525801) vcan0 284#57A68312F8A40873
(1502931925.536027) vcan0 284#90FEBE02DCE4686C
(1502931925.546182) vcan0 284#9176AB06B8DCF17C
(1502931925.556382) vcan0 284#48DA275A4C379F04
(1502931925.566603) vcan0 284#ADA8041425A5263C
(1502931925.576750) vcan0 284#D89F396EABEA3878
(1502931925.586855) vcan0 284#5B79EA490B36B03E
(1502931925.597063) vcan0 284#59199F344022A45A
(1502931925.607249) vcan0 284#4D74B22C7DC5423E
(1502931925.617410) vcan0 284#30022F306E28A228
(1502931925.627627) vcan0 284#72CFDE318CFF043D
(1502931925.637780) vcan0 284#307A5A06381AFE40
(1502931925.647939) vcan0 284#DF1AC87DB166846A
(1502931925.658165) vcan0 284#A6F8D91C7AB2A47E
(1502931925.668375) vcan0 284#73F65251DB141533
(1502931925.678492) vcan0 284#ED44F71ACA9CD663
(1502931925.688695) vcan0 284#D3B91D267D43B61D
(1502931925.698892) vcan0 284#A6813F506430C92C
(1502931925.709024) vcan0 284#3520A81AEE5B672A
(1502931925.719271) vcan0 284#B1676831E2C8AC2E
(1502931925.729485) vcan0 284#13018E668907A21F
(1502931925.739602) vcan0 284#8DB3E5266E7A7830
(1502931925.749807) vcan0 284#943D525EE6CC845B
(1502931925.760009) vcan0 284#AF9C1C0BE1B1040B
(1502931925.770128) vcan0 284#6492C719DF9E4B3B
(1502931925.780329) vcan0 284#4FDAA633D661A64B
(1502931925.790479) vcan0 284#6B9E50788054013A
(1502931925.800649) vcan0 284#0E7CA40C4BB91876
(1502931925.810974) vcan0 284#31BB8524B4747E29
(1502931925.821174) vcan0 284#C56BBD74A4B1D875
(1502931925.831300) vcan0 284#9089935CB2B0B40F
(1502931925.841505) vcan0 284#6E4EAF596343B102
(1502931925.851657) vcan0 284#2FF46A2D15D0EE29
(1502931925.861830) vcan0 284#C8737A2F64141348
(1502931925.872028) vcan0 284#032C565479DBE260
(1502931925.882176) vcan0 284#46DDBF76172DE43A
(1502931925.892285) vcan0 284#02E38400D390A51D
(1502931925.902502) vcan0 284#85A75C6B9620D75E
(1502931925.912695) vcan0 284#BA5D2A7934447976
(1502931925.922811) vcan0 284#77D2DB691EF0F112
(1502931925.933019) vcan0 284#14E3C431C6AC821D
(1502931925.943172) vcan0 284#F451985E7F81152A
(1502931925.953377) vcan0 284#4601845702CE3C6B
(1502931925.963583) vcan0 284#CA3A2E2078BC097C
(1502931925.973740) vcan0 284#B742BB148FA6EB14
(1502931925.983850) vcan0 284#1C6EE27147CC4E71
(1502931925.994045) vcan0 284#4157A0248BBC914B
(1502931926.004236) vcan0 284#AA0F0074704B0B52
(1502931926.014388) vcan0 284#A08C807572837A23
(1502931926.024587) vcan0 284#D45F1E1AA3B8D649
(1502931926.034747) vcan0 284#EB5E5D041A3DDE10
(1502931926.044852) vcan0 284#BAE5BA04ED41E204
(1502931926.055042) vcan0 284#EECD832E408D1770
(1502931926.065193) vcan0 284#8362B963A82BAE27
(1502931926.075308) vcan0 284#74D19066FA34954D
(1502931926.085516) vcan0 284#C61BA03A88B45518
(1502931926.095671) vcan0 284#C1E1176BBA6D3819
(1502931926.105844) vcan0 284#08366B4207E39B42
(1502931926.116100) vcan0 284#BC3B7504D2709962
(1502931926.126316) vcan0 284#7F9FA53E737E3019
(1502931926.136472) vcan0 284#621785779C0D8830
(1502931926.146688) vcan0 284#BA4A7F0AA36E251C
(1502931926.156940) vcan0 284#27CA197C655A7F7E
(1502931926.167116) vcan0 284#14BA306EC7569A71
(1502931926.177487) vcan0 284#D7DDF921E8194F08
(1502931926.187732) vcan0 284#6A0F713BC33C5726
(1502931926.197905) vcan0 284#03572D1925F52B40
(1502931926.208215) vcan0 284#B07E392BF124B147
(1502931926.218529) vcan0 284#6582433034E1F20E
(1502931926.228738) vcan0 284#99505F6FD953D416
(1502931926.239062) vcan0 284#2E16885C5F6CFF29
(1502931926.249368) vcan0 284#62082A2FEFF79F47
(1502931926.259636) vcan0 284#19DA37436A3E9571
(1502931926.269984) vcan0 284#F7DA3B0AD515AD47
(1502931926.280288) vcan0 284#3CAF2E54767AE148
(1502931926.290467) vcan0 284#4994DD609EC6B34B
(1502931926.300786) vcan0 284#1288697903DF5C6B
(1502931926.311101) vcan0 284#4235D96739528375
(1502931926.321351) vcan0 284#6839DC6956EF0956
(1502931926.331685) vcan0 284#00A91D674017D60B
(1502931926.341987) vcan0 284#3E09595E6BB88E22
(1502931926.352166) vcan0 284#03542D3241608677
(1502931926.362529) vcan0 284#90ADBA62B3D2665D
(1502931926.372929) vcan0 284#3285373FF52FFE12
(1502931926.383156) vcan0 284#E7B3596CCBD5962E
(1502931926.393434) vcan0 284#CE83D22916CAE148
(1502931926.403699) vcan0 284#2A429658308CFC58
(1502931926.413949) vcan0 284#05C28110431CCE1B
(1502931926.424196) vcan0 284#9ACA914AFC9CBD1A
(1502931926.434464) vcan0 284#19327B63D779C01E
(1502931926.444672) vcan0 284#73179F6362C65844
(1502931926.454948) vcan0 284#7540746A859F085D
(1502931926.465278) vcan0 284#65A5B52FB7754D52
(1502931926.475488) vcan0 284#BFF18B52CEDE9119
(1502931926.485803) vcan0 284#0D655728BF9AA939
(1502931926.496228) vcan0 284#0EF667254C6EB006
(1502931926.513198) vcan0 284#2A53385C114A9557
(1502931926.523534) vcan0 284#8DCE367EBA00F33E
(1502931926.533783) vcan0 284#C41CFC34C0536E3D
(1502931926.544138) vcan0 284#AF30F151ACD05521
(1502931926.554447) vcan0 284#8B29056C7EB4C37B
(1502931926.564651) vcan0 284#C29A376AB66B9B44
(1502931926.575014) vcan0 284#AE40C054C75CB97A
(1502931926.585227) vcan0 284#F9876960490B521F
(1502931926.595355) vcan0 284#C4F9761512BAE443
(1502931926.605753) vcan0 284#2085123E37111679
(1502931926.615977) vcan0 284#74803D0895C58628
(1502931926.626091) vcan0 284#BCB01E56DA25F337
(1502931926.636449) vcan0 284#4D3BD47A7BA2AA28
(1502931926.646648) vcan0 284#A80485515AA02B23
(1502931926.656761) vcan0 284#3B3D5462B6FAEC76
(1502931926.667150) vcan0 284#A60EDC2965908C3E
(1502931926.677359) vcan0 284#C744824E34DD1228
(1502931926.687476) vcan0 284#20917F7D8B617E03
(1502931926.697819) vcan0 284#F4308165CFC1704F
(1502931926.708010) vcan0 284#3732D4247F5A8651
(1502931926.718180) vcan0 284#4D76344BF9CC0B0F
(1502931926.728489) vcan0 284#35C62116FCB6F41F
(1502931926.738718) vcan0 284#C129C5092F4E8B76
(1502931926.748845) vcan0 284#45C2463F85233C1F
(1502931926.759030) vcan0 284#4108703A6547597D
(1502931926.769245) vcan0 284#BC345218B688AD42
(1502931926.779363) vcan0 284#FA0CE02578E5706E
(1502931926.789679) vcan0 284#90AEA07A4748B420
(1502931926.799899) vcan0 284#F4871B1738B3254C
(1502931926.810083) vcan0 284#A2E8DF432FC56F79
(1502931926.820476) vcan0 284#EEAD124348F7BB6D
(1502931926.830708) vcan0 284#9455FC37B5F29411
(1502931926.840827) vcan0 284#7CD4CE15B4E67B35
(1502931926.851127) vcan0 284#405413157005507B
(1502931926.861353) vcan0 284#84A8EC047886E739
(1502931926.871476) vcan0 284#F05FD64CD11E2150
(1502931926.881774) vcan0 284#7153F3482526F862
(1502931926.892000) vcan0 284#CDD51570327DB852
(1502931926.902120) vcan0 284#5474835912985C2F
(1502931926.912492) vcan0 284#B7A0F471967CF313
(1502931926.922718) vcan0 284#77DFB52C73D5460A
(1502931926.932860) vcan0 284#4C05A15672EC9552
(1502931926.943159) vcan0 284#ECBAB778DCB34151
(1502931926.953377) vcan0 284#B9344A73E042D30F
(1502931926.963570) vcan0 284#1467671D5B1D2A37
(1502931926.973966) vcan0 284#0F08430902157A60
(1502931926.984221) vcan0 284#A414E624A35D3F41
(1502931926.994352) vcan0 284#B7070F7220E9B43A
(1502931927.004687) vcan0 284#5844BB76F75B2207
(1502931927.014901) vcan0 284#91EE0436DCECA77B
(1502931927.025060) vcan0 284#6FE20941814EDB02
(1502931927.035455) vcan0 284#AD0BC94BE135FD09
(1502931927.045667) vcan0 284#A674D3657BE1DE3B
(1502931927.055793) vcan0 284#13B3B55CFBE8563F
(1502931927.065999) vcan0 284#8D793B6BCB53AA4E
(1502931927.076221) vcan0 284#91654A530559F117
(1502931927.086341) vcan0 284#3E29F158DD6AEB29
(1502931927.096685) vcan0 284#7745876A2AE4A851
(1502931927.106927) vcan0 284#B91E2D7B307AD15D
(1502931927.117083) vcan0 284#0A277C61CD859418
(1502931927.127446) vcan0 284#8C97FB14192FBF6A
(1502931927.137653) vcan0 284#CF9A0E7930ACE139
(1502931927.147771) vcan0 284#BD8CFE2B86A21D6B
(1502931927.158058) vcan0 284#5095967415D1B922
(1502931927.168270) vcan0 284#7DFE3F72E1839B2A
(1502931927.178426) vcan0 284#F1BD611EEDE04933
(1502931927.188760) vcan0 284#62D2762D9EC92A6A
(1502931927.198979) vcan0 284#CE16473D09474A13
(1502931927.209161) vcan0 284#19AB0926E1C9FC19
(1502931927.219604) vcan0 284#0430A152A7244511
(1502931927.229845) vcan0 284#AC1DA7689595EB25
(1502931927.239970) vcan0 284#AC7D3629EB469841
(1502931927.250304) vcan0 284#7200D74F23C3BD13
(1502931927.260524) vcan0 284#152B41132B1F044B
(1502931927.270712) vcan0 284#533D8F712052BD74
(1502931927.281097) vcan0 284#F8A49863DFD48A06
(1502931927.291397) vcan0 284#39817C5FC73FA75C
(1502931927.301590) vcan0 284#0F816C40F60D7B0B
(1502931927.311944) vcan0 284#4DE2C44760160335
(1502931927.322255) vcan0 284#0BDF342ECAE0043A
(1502931927.332461) vcan0 284#419A9E5FFC9C964C
(1502931927.342802) vcan0 284#B7C14E6DA46C150D
(1502931927.353123) vcan0 284#9B66C13685D8952A
(1502931927.363407) vcan0 284#ADB35F20B411CB5C
(1502931927.373733) vcan0 284#67A29244B1E30073
(1502931927.384028) vcan0 284#5B36106E13C0392D
(1502931927.394229) vcan0 284#4679EC1807B44617
(1502931927.404574) vcan0 284#FE06D26EB879C368
(1502931927.414862) vcan0 284#2A77042B14321302
(1502931927.425099) vcan0 284#E398C7337EB4931C
(1502931927.435486) vcan0 284#3484D076DB3D6017
(1502931927.445804) vcan0 284#5D891E236D054D56
(1502931927.455985) vcan0 284#A27D07746D0A8B63
(1502931927.466392) vcan0 284#6413C861EF5FCC3B
(1502931927.476759) vcan0 284#CD208E186FF2FC0F
(1502931927.486915) vcan0 284#B940D1750EBB2C78
(1502931927.497299) vcan0 284#6C8F935C71022063
(1502931927.507489) vcan0 284#B227420507F65413
(1502931927.517661) vcan0 284#F6DAB50D5FDBA125
(1502931927.528017) vcan0 284#BB0720705D7D4852
(1502931927.538238) vcan0 284#10BFA218173E305E
(1502931927.548353) vcan0 284#713D827F56388F31
(1502931927.558641) vcan0 284#1EF276756F44546E
(1502931927.568847) vcan0 284#0EB2521A49697B20
(1502931927.578959) vcan0 284#83766770F14A1A4E
(1502931927.589299) vcan0 284#C71D0F3DB7FA3767
(1502931927.599500) vcan0 284#CC887A6524A72D60
(1502931927.609620) vcan0 284#2500853D6E068259
(1502931927.619997) vcan0 284#91B1B84389134D1F
(1502931927.630210) vcan0 284#5D664E155ED2465C
(1502931927.640327) vcan0 284#F8054A2F17A71F0B
(1502931927.650668) vcan0 284#6D8D73546495DD0B
(1502931927.660871) vcan0 284#88A93F6E1FB5B559
(1502931927.671053) vcan0 284#6B8B321F7E84F57B
(1502931927.681388) vcan0 284#7F90577F2793520F
(1502931927.691587) vcan0 284#DC013E4E8F4FFA17
(1502931927.701702) vcan0 284#3ED1826D4D3FC04D
(1502931927.711980) vcan0 284#E68789495CC3F962
(1502931927.722188) vcan0 284#BC83143CF439DC63
(1502931927.732322) vcan0 284#A52C750340FA7B2C
(1502931927.742611) vcan0 284#E684F6316C4A8440
(1502931927.752886) vcan0 284#F7F4B313B20D7117
(1502931927.763005) vcan0 284#91F1B1201CF53851
(1502931927.773292) vcan0 284#2114F37022A36A64
(1502931927.783539) vcan0 284#A50886707E7A4106
(1502931927.793666) vcan0 284#8175B1409E0ED01F
(1502931927.803876) vcan0 284#95216111EE022515
(1502931927.814074) vcan0 284#02A4AD2B1DCBA07F
(1502931927.824225) vcan0 284#0DB8DA6E6E2FE04A
(1502931927.834434) vcan0 284#9C4F967B8C48326E
(1502931927.844642) vcan0 284#95C2325A7851D449
(1502931927.854760) vcan0 284#1C982C06D393B547
(1502931927.864958) vcan0 284#C59094170220B64F
(1502931927.875149) vcan0 284#2F57AF2A8114A953
(1502931927.885263) vcan0 284#F6599233D583242E
(1502931927.895468) vcan0 284#C10E2500DCDE8865
(1502931927.905676) vcan0 284#41CEA86EB903D913
(1502931927.915848) vcan0 284#8FECF97CD2BF5A0F
(1502931927.926046) vcan0 284#D5F81165B000ED6D
(1502931927.936240) vcan0 284#F562C5737B019855
(1502931927.946359) vcan0 284#2E7B2E7476D87634
(1502931927.956564) vcan0 284#19106875C49C8F05
(1502931927.966763) vcan0 284#64DB9B491BB41521
(1502931927.976876) vcan0 284#E167300571937638
(1502931927.987083) vcan0 284#89E3F56B7DB7C600
(1502931927.997292) vcan0 284#FEDBA8261EA62846
(1502931928.007409) vcan0 284#F5089B4A1A74D52C
(1502931928.017600) vcan0 284#F139DE0DBA992F62
(1502931928.027788) vcan0 284#1C948B7C21918D38
(1502931928.037904) vcan0 284#3CAED83512EE1D30
(1502931928.048116) vcan0 284#F614B266FDBCFD35
(1502931928.058353) vcan0 284#EFCCA61537E35A55
(1502931928.068537) vcan0 284#B6C0D6497EB9A012
(1502931928.078757) vcan0 284#0AA3B5648CB9E82E
(1502931928.088961) vcan0 284#2EBA8D00FF057B58
(1502931928.099077) vcan0 284#07BB80045C35BC74
(1502931928.109299) vcan0 284#75DEF10C20CBE879
(1502931928.119511) vcan0 284#20D24B7AD9B98D56
(1502931928.129660) vcan0 284#3B7FFE1A023A7C7F
(1502931928.139899) vcan0 284#4A4D040FC562F406
(1502931928.150076) vcan0 284#7FF142004829AD35
(1502931928.160191) vcan0 284#E3081D4D75FADD4A
(1502931928.170372) vcan0 284#629D8262D542FB5A
(1502931928.180576) vcan0 284#2F940D2D7E310E5F
(1502931928.190726) vcan0 284#F6D388136B42E662
(1502931928.201120) vcan0 284#911F2C0FECE83A7A
(1502931928.211443) vcan0 284#69FFE31880ECD224
(1502931928.221688) vcan0 284#23CC954F1FC0BA62
(1502931928.232131) vcan0 284#FEA573372D6F4B34
(1502931928.242449) vcan0 284#AB79A3112C600138
(1502931928.252646) vcan0 284#2C75C60CB2342416
(1502931928.263171) vcan0 284#8895BD2CA153B819
(1502931928.273605) vcan0 284#D2FF0C10A9670927
(1502931928.283892) vcan0 284#7A0D46700E7F0B2B
(1502931928.294244) vcan0 284#ABA18526C55A4A7F
(1502931928.304556) vcan0 284#D3E1FF312A93C826
(1502931928.314797) vcan0 284#0D84F734B6EA1C7F
(1502931928.325169) vcan0 284#9F8DA67170217A17
(1502931928.335487) vcan0 284#8B2D185ACF21B41E
(1502931928.345680) vcan0 284#EE5288768101A16D
(1502931928.356051) vcan0 284#3A649A017F72B405
(1502931928.366390) vcan0 284#6DEADB67A3637E1A
(1502931928.376657) vcan0 284#FF5E872A91B67137
(1502931928.387066) vcan0 284#C323397DFD04FB61
(1502931928.397402) vcan0 284#BE25BD6B6E9DDC0E
(1502931928.407580) vcan0 284#2965FC19EB9A8378
(1502931928.417946) vcan0 284#21D20025B2FAB946
(1502931928.428238) vcan0 284#8CEE3B12F3D10D35
(1502931928.438426) vcan0 284#5B62C36D07FC8102
(1502931928.448830) vcan0 284#0151196006044914
(1502931928.459111) vcan0 284#CC56CC01D4321912
(1502931928.469374) vcan0 284#3097113BD9DAC336
(1502931928.479757) vcan0 284#8B1D3611D024B82C
(1502931928.490096) vcan0 284#49FC3D4E164B4E6B
(1502931928.500236) vcan0 284#9F466C4B384FC644
(1502931928.510537) vcan0 284#984CEF58D9AA064D
(1502931928.520740) vcan0 284#B7C17A4A0537CB40
(1502931928.530910) vcan0 284#7D0E8567B7200275
(1502931928.541177) vcan0 284#96ED3C784032BE64
(1502931928.551387) vcan0 284#B425FD565513FA63
(1502931928.561501) vcan0 284#AECF9A73DE8AF970
(1502931928.571697) vcan0 284#40AE7D5CCFA19B18
(1502931928.581908) vcan0 284#9085B337CC9CB96E
(1502931928.592024) vcan0 284#C373A94DEBE77625
(1502931928.602314) vcan0 284#D3983B71C4C4C22D
(1502931928.612529) vcan0 284#F1EBBF399FEF0773
(1502931928.622700) vcan0 284#99F7DB3F2183D174
(1502931928.633040) vcan0 284#79CACB2924151251
(1502931928.643281) vcan0 284#F1A78921C2C60978
(1502931928.653450) vcan0 284#3A60603C90EEF56C
(1502931928.663803) vcan0 284#FA15D03CD2AC4F15
(1502931928.674018) vcan0 284#6A99FC39B2D74A07
(1502931928.684131) vcan0 284#D8E31A56E7A78121
(1502931928.694436) vcan0 284#69F84C7C6ED1574E
(1502931928.704654) vcan0 284#27DA3F061D1E4A53
(1502931928.714776) vcan0 284#C3E45132D5A9DA79
(1502931928.725132) vcan0 284#FBA843440393CF0E
(1502931928.735359) vcan0 284#A54B76128B2EF77B
(1502931928.745473) vcan0 284#D02F897D68BF1F60
(1502931928.755812) vcan0 284#76166E21A3C8C46E
(1502931928.765993) vcan0 284#2C84E20D67022E5B
(1502931928.776190) vcan0 284#43B8CC61C57BBE4D
(1502931928.786588) vcan0 284#8985FF4FBC82980B
(1502931928.796809) vcan0 284#E990D01E7A2D8971
(1502931928.806927) vcan0 284#7E49A20324F1305B
(1502931928.817275) vcan0 284#0B1C7F5E795F7240
(1502931928.827490) vcan0 284#F69D807075B57B18
(1502931928.837640) vcan0 284#2B37BD47CE819B46
(1502931928.847982) vcan0 284#5C5DFD39942F0A44
(1502931928.858171) vcan0 284#3D53F31483373D40
(1502931928.868288) vcan0 284#B14D541700384547
(1502931928.878609) vcan0 284#58E1173AADF6975B
(1502931928.888810) vcan0 284#04CB1456FD2C8E4C
(1502931928.898930) vcan0 284#38258F57D4FA9D53
(1502931928.909234) vcan0 284#65ECAD2CAF3BFD78
(1502931928.919463) vcan0 284#77C362429270903A
(1502931928.929651) vcan0 284#163E2B54BA7B2F24
(1502931928.940007) vcan0 284#57EC4E089FC32A24
(1502931928.950211) vcan0 284#76FEC72F417D1F27
(1502931928.960326) vcan0 284#1AF1B315F5476A33
(1502931928.970537) vcan0 284#656E5002250D3374
(1502931928.980737) vcan0 284#6EA7DC735B0CD172
(1502931928.990851) vcan0 284#9AC2AE0C99DE993B
(1502931929.001132) vcan0 284#2A8E6C39F61FAC46
(1502931929.011335) vcan0 284#2D0EA47F67E15F4E
(1502931929.021505) vcan0 284#7957E906DE5BF816
(1502931929.031822) vcan0 284#6719A515D1380141
(1502931929.042035) vcan0 284#8B5290726BE4B96B
(1502931929.052151) vcan0 284#CF658F0DC4771F4A
(1502931929.062444) vcan0 284#3FDF573F34523D3A
(1502931929.072669) vcan0 284#73B31C43B7A2BA01
(1502931929.082786) vcan0 284#C6C2CD7489F14717
(1502931929.093070) vcan0 284#711EEA251EAF1C7D
(1502931929.103281) vcan0 284#29B5723BE81CB255
(1502931929.113411) vcan0 284#5F2C3C2443A62651
(1502931929.123817) vcan0 284#DD641C09C49A8C26
(1502931929.134040) vcan0 284#68B359454B0CF97C
(1502931929.144197) vcan0 284#1FA75D1902760852
(1502931929.154572) vcan0 284#E4EA92384935CA52
(1502931929.164765) vcan0 284#F895B41811F93638
(1502931929.174956) vcan0 284#B0162A2171ED9D1F
(1502931929.185347) vcan0 284#EF542F4F1830CF36
(1502931929.195619) vcan0 284#42269F607BA7BF41
(1502931929.205867) vcan0 284#83148922118C2E6E
(1502931929.216265) vcan0 284#3F1FDF0BC3F3E061
(1502931929.226622) vcan0 284#46DE6B28B2D2FB4E
(1502931929.236908) vcan0 284#7A969B630CA1391D
(1502931929.247367) vcan0 284#3BC44366EBB48509
(1502931929.257643) vcan0 284#2A50561A6479B621
(1502931929.267916) vcan0 284#D3D1375F897C923E
(1502931929.278331) vcan0 284#A71FDD72B0365468
(1502931929.288674) vcan0 284#4D171F650FD33638
(1502931929.298891) vcan0 284#FB424D656DBE7C7E
(1502931929.309275) vcan0 284#11493F0ADF2DE01D
(1502931929.319502) vcan0 284#B6F3465109DFF322
(1502931929.329679) vcan0 284#F0261756670A7172
(1502931929.340060) vcan0 284#7ACC9142E07B4625
(1502931929.350260) vcan0 284#7F3A4029BDF23023
(1502931929.360370) vcan0 284#5B230667024FC94B
(1502931929.370656) vcan0 284#CE7E5F119A42E572
(1502931929.380867) vcan0 284#C542AA2D145DCB39
(1502931929.390983) vcan0 284#4C15E1413FD94511
(1502931929.401280) vcan0 284#21FE045787D92428
(1502931929.411494) vcan0 284#2B8ECB1A4B4E5B71
(1502931929.421616) vcan0 284#EC52DB49FE5F037A
(1502931929.431913) vcan0 284#D5CAED2F9372B83C
(1502931929.442146) vcan0 284#AF96576222E20C15
(1502931929.452263) vcan0 284#A345EF74AAD9A447
(1502931929.462657) vcan0 284#8FA08913B48E2E7F
(1502931929.472961) vcan0 284#8A0785654694D064
(1502931929.483141) vcan0 284#BE6D22227A2E9C3B
(1502931929.493492) vcan0 284#AD9E4157383AB464
(1502931929.503697) vcan0 284#5AAAE2602CD98100
(1502931929.513817) vcan0 284#F52CE507B5CDE847
(1502931929.523983) vcan0 284#2E284B4CC4AB4419
(1502931929.534149) vcan0 284#4F10CE3AF46AF579
(1502931929.544261) vcan0 284#D80810539B25AF7C
(1502931929.554591) vcan0 284#33443B0BF906152A
(1502931929.564781) vcan0 284#23FFD3245ED20626
(1502931929.574965) vcan0 284#4555701B0F52AF6E
(1502931929.585331) vcan0 284#5D320A201A205E4B
(1502931929.595541) vcan0 284#A2C4672B0CC96102
(1502931929.605654) vcan0 284#3C026B60450A5720
(1502931929.615997) vcan0 284#B6A2064ACCA2F473
(1502931929.626203) vcan0 284#FA98851F40AA8B2F
(1502931929.636352) vcan0 284#1237C558B806A841
(1502931929.646806) vcan0 284#BBD8276BBFD50630
(1502931929.657056) vcan0 284#F0405C2615830A4C
(1502931929.667178) vcan0 284#EBAE8830E66D412E
(1502931929.677379) vcan0 284#CB50F31319D7D37C
(1502931929.687576) vcan0 284#AA1986471A61C14E
(1502931929.697689) vcan0 284#0D42C9768222961A
(1502931929.707997) vcan0 284#B686704B41860402
(1502931929.718180) vcan0 284#7C29AB44D9854470
(1502931929.728357) vcan0 284#9F580B28C17E1B60
(1502931929.738753) vcan0 284#E8D7F35EFC8A1548
(1502931929.748982) vcan0 284#DB9E792B8A9C5B0A
(1502931929.759103) vcan0 284#0854774A17A1E40B
(1502931929.769432) vcan0 284#D0A6B22ABFF67D14
(1502931929.779639) vcan0 284#E343D97FCA3F384A
(1502931929.789754) vcan0 284#FFA00944F57A9E58
(1502931929.800112) vcan0 284#8246E00BBA79312F
(1502931929.810315) vcan0 284#B450A50872873C32
(1502931929.820431) vcan0 284#D0FC3B7B9FFF2D39
(1502931929.830804) vcan0 284#58F57D609B4D2F0F
(1502931929.841012) vcan0 284#B9D60136020F0428
(1502931929.851123) vcan0 284#B5AEF05DC618CB2C
(1502931929.861395) vcan0 284#85319A426B356129
(1502931929.871626) vcan0 284#079FCF2E015B4507
(1502931929.881817) vcan0 284#44BBA519A7F7DA56
(1502931929.892156) vcan0 284#C2D960672C939978
(1502931929.902351) vcan0 284#A382F01E9D78DA12
(1502931929.912464) vcan0 284#B72FF502ACD66769
(1502931929.922759) vcan0 284#B419BF1E87D6A72D
(1502931929.932959) vcan0 284#6BCDE57D985D981E
(1502931929.943113) vcan0 284#5116E0776A6EEF41
(1502931929.953460) vcan0 284#8DD83677D35CC003
(1502931929.963647) vcan0 284#25E820714229DC7F
(1502931929.973765) vcan0 284#45E4FC35F5E45C6C
(1502931929.984171) vcan0 284#E1280A399ED97A16
(1502931929.994398) vcan0 284#90328C7B9AFF0B6F
(1502931930.004578) vcan0 284#A0E87E3E45E17C59
(1502931930.014873) vcan0 284#6118D71B251A1901
(1502931930.025138) vcan0 284#B116DE0268B7A64A
(1502931930.035402) vcan0 284#26755E08F5D1831C
(1502931930.045767) vcan0 284#0FAF8121E84EBF6F
(1502931930.056055) vcan0 284#22651D15B3317240
(1502931930.066234) vcan0 284#85C79902D9941218
(1502931930.076542) vcan0 284#5F08DA293AE15821
(1502931930.086863) vcan0 284#606BBA45CAD5BF27
(1502931930.097082) vcan0 284#D23EF13FB1819A3D
(1502931930.107509) vcan0 284#3444AF695F172837
(1502931930.117806) vcan0 284#84DE5A41592CD05A
(1502931930.128059) vcan0 284#A1400437C9C25777
(1502931930.138411) vcan0 284#4E112D4783690E70
(1502931930.148699) vcan0 284#679CD20DDE43B942
(1502931930.158886) vcan0 284#1D691A5F0885514C
(1502931930.169237) vcan0 284#2425361C7E81F17A
(1502931930.179571) vcan0 284#2D9F6A4DD53B141F
(1502931930.189760) vcan0 284#E73898455414C955
(1502931930.200128) vcan0 284#CA0D983BF6E71967
(1502931930.210527) vcan0 284#3C638845EC72B550
(1502931930.220664) vcan0 284#A9198C27C22A2248
(1502931930.231029) vcan0 284#C507C86808226651
(1502931930.241225) vcan0 284#FC0B7B692573822E
(1502931930.251335) vcan0 284#D2F72579CE4A6C29
(1502931930.261614) vcan0 284#D6F41C6C073CD562
(1502931930.271829) vcan0 284#2D6294605AD3772D
(1502931930.282014) vcan0 284#6068A53DCFA29817
(1502931930.292348) vcan0 284#2496CF24AF79D204
(1502931930.302556) vcan0 284#520CA7078B32A232
(1502931930.312723) vcan0 284#8DBD8B476F75C166
(1502931930.323120) vcan0 284#93B7F37EB1E2C163
(1502931930.333325) vcan0 284#EEF6B261C1565E4C
(1502931930.343475) vcan0 284#861ED602D52F4B27
(1502931930.353813) vcan0 284#156B2722512C6E3E
(1502931930.364021) vcan0 284#CB17650E51CEAF67
(1502931930.374133) vcan0 284#3D9F230F7531F135
(1502931930.384515) vcan0 284#13F9D12F03A7EB77
(1502931930.394776) vcan0 284#7D5357070F054D19
(1502931930.404895) vcan0 284#281A6E26504B7D00
(1502931930.415193) vcan0 284#DD4FB942FF0E8B12
(1502931930.425398) vcan0 284#578752630BB24D23
(1502931930.435567) vcan0 284#59E20240B7EFF720
(1502931930.445923) vcan0 284#DA54E63A7D78D264
(1502931930.456157) vcan0 284#6669CA252C618D42
(1502931930.466338) vcan0 284#09AB7417F426566D
(1502931930.476659) vcan0 284#9BD64E299C626816
(1502931930.486886) vcan0 284#A509185189CD010B
(1502931930.497012) vcan0 284#5DB9C6622C28EE53
(1502931930.507347) vcan0 284#5EFD4C327224EE04
(1502931930.517548) vcan0 284#7D545C122A15B240
(1502931930.527711) vcan0 284#C4F29D6CBAF37F21
(1502931930.538090) vcan0 284#9F46A376D7EB6F1C
(1502931930.548292) vcan0 284#BD9A6B191C9AFA7D
(1502931930.558405) vcan0 284#E7F0BC35E6B4D93F
(1502931930.568708) vcan0 284#6CE5777EC4407678
(1502931930.578916) vcan0 284#E5C36452C36CCA61
(1502931930.589096) vcan0 284#CFF2C31B3EA66712
(1502931930.599461) vcan0 284#7B5CC202A947AA56
(1502931930.609668) vcan0 284#BC1E3A77E1C58C28
(1502931930.619786) vcan0 284#D5A83719C5C9AE0E
(1502931930.630128) vcan0 284#D5ECE215717F8642
(1502931930.640337) vcan0 284#612C17257BF6FA66
(1502931930.650505) vcan0 284#FA4C884DBFE5DD07
(1502931930.660826) vcan0 284#A71EE93A594AD57F
(1502931930.671029) vcan0 284#310ACC0C2473454D
(1502931930.681213) vcan0 284#835F8740F5FC6979
(1502931930.691531) vcan0 284#DE66C56E22A62A37
(1502931930.701753) vcan0 284#CDE8D9159C013108
(1502931930.711866) vcan0 284#3E402535B4D9964B
(1502931930.722241) vcan0 284#82B60A48AB259D33
(1502931930.732439) vcan0 284#781A0D44677A6F1A
(1502931930.742588) vcan0 284#6E926715480DD15F
(1502931930.752945) vcan0 284#A520D72CE9EE2918
(1502931930.763147) vcan0 284#F1547B36613F1124
(1502931930.773270) vcan0 284#CBB4B640C7FDB24F
(1502931930.783470) vcan0 284#2609C032A0A19956
(1502931930.793692) vcan0 284#387D39128835D757
(1502931930.803803) vcan0 284#1B98943D32CAC15F
(1502931930.814092) vcan0 284#471BB55FC2B67D78
(1502931930.824286) vcan0 284#8B14975F7825816C
(1502931930.834502) vcan0 284#E629C3450E741E20
(1502931930.844907) vcan0 284#6E22EB65C5908834
(1502931930.855165) vcan0 284#301A49573B0BC57B
(1502931930.865292) vcan0 284#6192B93C6F5A6E0C
(1502931930.875653) vcan0 284#EFE45B47E348C404
(1502931930.885870) vcan0 284#1A800B4067FF680B
(1502931930.895993) vcan0 284#4AC3331F88127355
(1502931930.906358) vcan0 284#AF0C3A6BEFE30A4C
(1502931930.916627) vcan0 284#72019D6DA161B521
(1502931930.926785) vcan0 284#51231C703DB6532E
(1502931930.937130) vcan0 284#685F6871772CDC22
(1502931930.947459) vcan0 284#DD57ED04A0DCA103
(1502931930.957649) vcan0 284#FF61B37AF9EF8142
(1502931930.968023) vcan0 284#D2A66363467D685A
(1502931930.978348) vcan0 284#BBA6FF3A5EBBFA42
(1502931930.988632) vcan0 284#BFA2E946A2D0C200
(1502931930.999014) vcan0 284#6C2F19632DC5D42C
(1502931931.009330) vcan0 284#67614B359D49623A
(1502931931.019561) vcan0 284#68D09928C8F30472
(1502931931.029901) vcan0 284#0CA4D04657B5F56F
(1502931931.040219) vcan0 284#AB3CC9762624DC06
(1502931931.050478) vcan0 284#BEB45E7BF5FFFC15
(1502931931.060824) vcan0 284#AE364F5C6EC19866
(1502931931.071158) vcan0 284#E4E307622038EC49
(1502931931.081349) vcan0 284#0F234E0835072452
(1502931931.091722) vcan0 284#5DEE3F787782B679
(1502931931.102041) vcan0 284#AD3300753B462D7D
(1502931931.112253) vcan0 284#175F587DAC95B36F
(1502931931.122615) vcan0 284#3436AF3FE905BC60
(1502931931.132995) vcan0 284#F3121C4AEFDCAE7A
(1502931931.143253) vcan0 284#47C1B623B2B50511
(1502931931.153575) vcan0 284#91AD717BB4F0CF06
(1502931931.163896) vcan0 284#DF7ADA3DF80EBD30
(1502931931.174084) vcan0 284#513A3241474B7466
(1502931931.184375) vcan0 284#C002C2225DDE0208
(1502931931.194681) vcan0 284#9E006A566B3F8B19
(1502931931.204899) vcan0 284#8302DF0E5CB5C851
(1502931931.215237) vcan0 284#603F882F31392E6B
(1502931931.225453) vcan0 284#CA76613845239011
(1502931931.235633) vcan0 284#52711A35D999AF40
(1502931931.245980) vcan0 284#7A2AB463AF5F5A2D
(1502931931.256184) vcan0 284#501C663A275EB458
(1502931931.266299) vcan0 284#EAA5872A677BBE37
(1502931931.276583) vcan0 284#D4F367481EDC366A
(1502931931.286784) vcan0 284#51817A18C7068412
(1502931931.296903) vcan0 284#0EB9E5649842313C
(1502931931.307216) vcan0 284#79BC89239F665760
(1502931931.317387) vcan0 284#4C33014358376461
(1502931931.327500) vcan0 284#987514119D6D3304
(1502931931.337851) vcan0 284#9F82D8475878D633
(1502931931.348069) vcan0 284#FA4B360C3D83421E
(1502931931.358190) vcan0 284#C4B7614D7D4E151B
(1502931931.368528) vcan0 284#99380B7024F7E97C
(1502931931.378709) vcan0 284#AF87430664AF6C28
(1502931931.388895) vcan0 284#691A7A0E01F95D3B
(1502931931.399232) vcan0 284#3D491C69E4442E72
(1502931931.409402) vcan0 284#B058B8688E658223
(1502931931.419519) vcan0 284#0BA3E24A9BFE3F13
(1502931931.429757) vcan0 284#F5E0405BDF964A13
(1502931931.439947) vcan0 284#B9DA767D4662BB73
(1502931931.450103) vcan0 284#A69DCE25C7935C62
(1502931931.460431) vcan0 284#DFA4EC2F1F5A5849
(1502931931.470656) vcan0 284#67FAB3422BD8ED72
(1502931931.480776) vcan0 284#7791BC2AFF6FC853
(1502931931.491087) vcan0 284#C945217716149572
(1502931931.501293) vcan0 284#57E89E07C3915703
(1502931931.511413) vcan0 284#5397D7101BA00055
(1502931931.521671) vcan0 284#41E06C1EEDCFE200
(1502931931.531868) vcan0 284#4097EA51F067B024
(1502931931.542044) vcan0 284#517F4F29A9B16460
(1502931931.552409) vcan0 284#F1600E608EC86B12
(1502931931.562607) vcan0 284#8DF69252A1B9C648
(1502931931.572723) vcan0 284#1C2EEE359999751D
(1502931931.582969) vcan0 284#3CB8065C120F2F11
(1502931931.593183) vcan0 284#7830C030F6927D59
(1502931931.603309) vcan0 284#5871EA041FCE8E56
(1502931931.613586) vcan0 284#BD26DA3B3716D734
(1502931931.623768) vcan0 284#3E28E71F24218E7E
(1502931931.633883) vcan0 284#63EEC427B6B9A34A
(1502931931.644230) vcan0 284#239156522C34E61E
(1502931931.654433) vcan0 284#CCCD383D7B79F559
(1502931931.664547) vcan0 284#EFC53D222065104E
(1502931931.674758) vcan0 284#9619F62E30A6AA40
(1502931931.684924) vcan0 284#0D35F34ED6B0E000
(1502931931.695102) vcan0 284#200E5B655EB44278
(1502931931.705452) vcan0 284#80624561116F6945
(1502931931.715636) vcan0 284#EC7CAE0A0D59D833
(1502931931.725797) vcan0 284#B328300E09AB9C40
(1502931931.736188) vcan0 284#A6F24D51EFE0366A
(1502931931.746408) vcan0 284#1BBACB511F230E02
(1502931931.756564) vcan0 284#E573B443732BB656
(1502931931.766915) vcan0 284#3EF19C58A39A8E7F
(1502931931.777096) vcan0 284#AB418D0B7C198478
(1502931931.787284) vcan0 284#C7BB1C7E0E305233
(1502931931.797628) vcan0 284#32D32743EB4C7350
(1502931931.807796) vcan0 284#3A643852FFA06000
(1502931931.817962) vcan0 284#66C6682A292A7674
(1502931931.828293) vcan0 284#1F06714EFCDF5E59
(1502931931.838479) vcan0 284#5AD020352C3B641D
(1502931931.848643) vcan0 284#D3903F5A7ADE7B1A
(1502931931.858913) vcan0 284#8AEFA61553F3843B
(1502931931.869074) vcan0 284#8C4DE55F766C5520
(1502931931.879189) vcan0 284#604C5D6F3F76156E
(1502931931.889611) vcan0 284#7F17F260073FAB40
(1502931931.899843) vcan0 284#2E574C589AD1BD32
(1502931931.909962) vcan0 284#2662B94214CB001C
(1502931931.920243) vcan0 284#0EFD73096453561B
(1502931931.930479) vcan0 284#B7658F1BB93E0115
(1502931931.940698) vcan0 284#E06CDA137E21AC19
(1502931931.951007) vcan0 284#C76E534813400257
(1502931931.961316) vcan0 284#696E1F6A01D38B1A
(1502931931.971523) vcan0 284#12E16257CF348814
(1502931931.981870) vcan0 284#2AFD010F31E7D325
(1502931931.992193) vcan0 284#CC14E76D84CD2244
(1502931932.002410) vcan0 284#5D2238439FA52648
(1502931932.012747) vcan0 284#FFAB9E5EE711DF58
(1502931932.023071) vcan0 284#F298AB038BF9833E
(1502931932.033317) vcan0 284#5D7E347952E50873
(1502931932.043602) vcan0 284#CA6F992CDD95265A
(1502931932.053871) vcan0 284#5924B433F8C6E504
(1502931932.064072) vcan0 284#7767E40C7F866D76
(1502931932.074357) vcan0 284#0C92E62085645816
(1502931932.084620) vcan0 284#E3D9C311C3F7753C
(1502931932.094905) vcan0 284#3EA3592BC4469E25
(1502931932.105292) vcan0 284#421922560512AD73
(1502931932.115594) vcan0 284#D786A07CAB874140
(1502931932.125786) vcan0 284#06E5380EE9670354
(1502931932.136157) vcan0 284#7BBCC95431E23A1D
(1502931932.146388) vcan0 284#1A4FD77947D1B042
(1502931932.156557) vcan0 284#B5AF5D6177710F3D
(1502931932.166885) vcan0 284#E676D70AB45BFC3F
(1502931932.177060) vcan0 284#5E83EE15D80F830E
(1502931932.187168) vcan0 284#3F55807EBB01230F
(1502931932.197513) vcan0 284#2AF58B0109C5192B
(1502931932.207707) vcan0 284#9897496984194035
(1502931932.217822) vcan0 284#028CFF2F10FF2D76
(1502931932.228126) vcan0 284#03A0AD2B0E1EE650
(1502931932.238298) vcan0 284#9563860CE779713D
(1502931932.248472) vcan0 284#D2155C0DD406E037
(1502931932.258798) vcan0 284#ABC00F63142F7E63
(1502931932.268971) vcan0 284#D9188D2B8247B05F
(1502931932.279087) vcan0 284#BFB6BF23E0FDC539
(1502931932.289300) vcan0 284#6BAFB3333A738978
(1502931932.299514) vcan0 284#11E0005785FE8A2D
(1502931932.309637) vcan0 284#81443A3BC68F5E38
(1502931932.319947) vcan0 284#FC6F9A6A67BB1146
(1502931932.330124) vcan0 284#7BEB5A785AF38800
(1502931932.340309) vcan0 284#3FCB9454BA40DB76
(1502931932.350636) vcan0 284#15F5AB0F6AC02056
(1502931932.360821) vcan0 284#C405F521AE8CF578
(1502931932.370929) vcan0 284#EED9600BC691F451
(1502931932.381173) vcan0 284#BE8B236FF1790E37
(1502931932.391370) vcan0 284#D4AFDA2253EFA97B
(1502931932.401489) vcan0 284#D8F37F74A6C53630
(1502931932.411730) vcan0 284#27F6893383B48F57
(1502931932.421893) vcan0 284#BAF4B413010F175F
(1502931932.432000) vcan0 284#05FC3F377AAB7437
(1502931932.442313) vcan0 284#E10CDD1870ABF36A
(1502931932.452497) vcan0 284#B41EFE2FF2ECDD6F
(1502931932.462673) vcan0 284#F5A97E183663386B
(1502931932.473004) vcan0 284#B87C3C28F1191903
(1502931932.483171) vcan0 284#9D1E4A3133689720
(1502931932.493372) vcan0 284#4B0DA203DDE9DE05
(1502931932.503689) vcan0 284#EEA8721761024E13
(1502931932.513859) vcan0 284#47AAFF5BB2AE6739
(1502931932.524001) vcan0 284#0F8F430C35846067
(1502931932.534289) vcan0 284#78405C0BCD1A677B
(1502931932.544469) vcan0 284#26FE6E1E4CF0362E
(1502931932.554619) vcan0 284#200A1177FFF1EE12
(1502931932.564903) vcan0 284#F3B56D5E48009B2A
(1502931932.575060) vcan0 284#82A67E6AADAA2272
(1502931932.585166) vcan0 284#490FB20988A2BE21
(1502931932.595586) vcan0 284#275697292A1C8F22
(1502931932.605815) vcan0 284#F84DB20CDC749559
(1502931932.615933) vcan0 284#1C096D12EEF73025
(1502931932.626145) vcan0 284#12D8CD44D485A93A
(1502931932.636306) vcan0 284#DF114A28AFF61776
(1502931932.646474) vcan0 284#08EE405B2B1FEC2B
(1502931932.656830) vcan0 284#8CE0F67BF696B372
(1502931932.667038) vcan0 284#8C213A3FD38AF657
(1502931932.677158) vcan0 284#A8451B2C9BB07D4B
(1502931932.687458) vcan0 284#080F573F20867737
(1502931932.697665) vcan0 284#68CBE4462F0DC65D
(1502931932.707782) vcan0 284#6C76AE6588D5F53D
(1502931932.718113) vcan0 284#2EFFB4705F2C1C44
(1502931932.728326) vcan0 284#D0D59068B0A5335B
(1502931932.738445) vcan0 284#0DD73E3619E54272
(1502931932.748796) vcan0 284#3848F27C342DD65F
(1502931932.759015) vcan0 284#4301D2143196A409
(1502931932.769133) vcan0 284#10A26B395F0A3F27
(1502931932.779411) vcan0 284#1F8ED52E227A397E
(1502931932.789581) vcan0 284#3490E861FE9F1F57
(1502931932.799770) vcan0 284#D27051743C7E293D
(1502931932.810110) vcan0 284#29BF0B035E514870
(1502931932.820288) vcan0 284#3215DD2FB5E04542
(1502931932.830404) vcan0 284#32DC3E48DA5AF85B
(1502931932.840683) vcan0 284#5091C30D3AEB9507
(1502931932.850924) vcan0 284#FAE06F13B85CA854
(1502931932.861133) vcan0 284#69F85B6566571E79
(1502931932.871475) vcan0 284#41329E1297F71056
(1502931932.881807) vcan0 284#C6833A3D11082F7B
(1502931932.892055) vcan0 284#489D4431D35A7973
(1502931932.902352) vcan0 284#2BED716D80E5362E
(1502931932.912764) vcan0 284#07884F536EEE4302
(1502931932.923058) vcan0 284#B17BDB37182ABB0C
(1502931932.933336) vcan0 284#CEF88229D009B166
(1502931932.943712) vcan0 284#3AA4F40A02896B0B
(1502931932.954032) vcan0 284#CFA9D03D0C15467F
(1502931932.964364) vcan0 284#3E079548F868DC40
(1502931932.974648) vcan0 284#6B668E6F701C7278
(1502931932.984861) vcan0 284#AE4922039D42CD37
(1502931932.995150) vcan0 284#4A776A54FEDAE510
(1502931933.005445) vcan0 284#D72D633F4458DA67
(1502931933.015675) vcan0 284#B7378E654126BF24
(1502931933.025925) vcan0 284#AAAFF860F8692C78
(1502931933.036254) vcan0 284#D81DD07A7033331E
(1502931933.046472) vcan0 284#09725B7320BB142C
(1502931933.056697) vcan0 284#438EAC11345FCD60
(1502931933.066860) vcan0 284#A1A04B5A4B16FC64
(1502931933.076970) vcan0 284#A34D1163521C2712
