(1502932523.817626) vcan0 284#EFBE1C02D7D8C635
(1502932523.827961) vcan0 284#3634E26F4C8D7672
(1502932523.838274) vcan0 284#9E498E7D7A3E497A
(1502932523.848630) vcan0 284#953D13525132AC4C
(1502932523.858964) vcan0 284#3CE833574B831B2D
(1502932523.869216) vcan0 284#114FBC5360841032
(1502932523.879442) vcan0 284#D9AD712CB4FD3D66
(1502932523.889657) vcan0 284#3A65EB173E9BD271
(1502932523.899833) vcan0 284#3AB8727D25AAA47C
(1502932523.910015) vcan0 284#FCCC7A4AD40F5445
(1502932523.920129) vcan0 284#D6C2EE0E00B8A71F
(1502932523.930252) vcan0 284#BF74973574409C7F
(1502932523.940432) vcan0 284#478D2E74EEC83A0B
(1502932523.950548) vcan0 284#CA106D7561011A6E
(1502932523.960672) vcan0 284#7101AE403437531B
(1502932523.970837) vcan0 284#3F59ED6260C0CA42
(1502932523.980946) vcan0 284#0B101A51768DCF52
(1502932523.991064) vcan0 284#AC4D4135A959A84E
(1502932524.001232) vcan0 284#F0CB184D428B5407
(1502932524.011414) vcan0 284#FB8B541B2DB44C24
(1502932524.021572) vcan0 284#8D0E70340CDB106F
(1502932524.031749) vcan0 284#8D385D5667BCE160
(1502932524.041925) vcan0 284#C1D84E55C89D486E
(1502932524.052077) vcan0 284#A557B452FB90C152
(1502932524.062251) vcan0 284#ED47ED6AA1242F1D
(1502932524.072365) vcan0 284#CFA01518C30ADC79
(1502932524.082488) vcan0 284#A1DCD63C8E15AD4D
(1502932524.092661) vcan0 284#374B7879E8690531
(1502932524.102878) vcan0 284#7DDEE758025CE56E
(1502932524.113065) vcan0 284#4A6B1F1FEEDF9519
(1502932524.123270) vcan0 284#3693380A89C40C02
(1502932524.133380) vcan0 284#4EA0605C41A3525B
(1502932524.143556) vcan0 284#FF51DC54FBEDA111
(1502932524.153733) vcan0 284#EAFCFA29F01DF521
(1502932524.163881) vcan0 284#3D79F618E5884F45
(1502932524.174015) vcan0 284#1DD24146CA87664D
(1502932524.184180) vcan0 284#F2636034AA0A9F1C
(1502932524.194302) vcan0 284#3144482EB33CAF09
(1502932524.204473) vcan0 284#72A8E70AD69BFC00
(1502932524.214676) vcan0 284#AECD705C5FF0D475
(1502932524.224793) vcan0 284#77C02B1E7D6E8674
(1502932524.234887) vcan0 284#22FBB06F189D025B
(1502932524.245055) vcan0 284#0C8433425A462969
(1502932524.255174) vcan0 284#0107080C89621B1B
(1502932524.265270) vcan0 284#5CA20E584B72272B
(1502932524.275454) vcan0 284#7742B13492354762
(1502932524.285575) vcan0 284#D436342DC5E21111
(1502932524.295671) vcan0 284#D3D8993DD4881002
(1502932524.305848) vcan0 284#C0D0B322BDD59467
(1502932524.315972) vcan0 284#C4A60524FD49AA3B
(1502932524.326066) vcan0 284#A35EE42CE178476A
(1502932524.336245) vcan0 284#C8D1100995C24461
(1502932524.346422) vcan0 284#8B83E606F9155937
(1502932524.356531) vcan0 284#48FFF36AFE2BCE11
(1502932524.366713) vcan0 284#D0B15538F6CC6447
(1502932524.376829) vcan0 284#5D1CA30747728156
(1502932524.386923) vcan0 284#733BEB3B80175477
(1502932524.397109) vcan0 284#600F84317FBF1E7E
(1502932524.407302) vcan0 284#DA5D7D6061168C3D
(1502932524.417421) vcan0 284#08223A1936008C38
(1502932524.427601) vcan0 284#AC88B3687F64EB4D
(1502932524.437723) vcan0 284#C835D31A80BFE715
(1502932524.447898) vcan0 284#4547FD5E9B0E6D58
(1502932524.458097) vcan0 284#5448F8170518B101
(1502932524.468217) vcan0 284#58E4014018EFFD3B
(1502932524.478312) vcan0 284#03625B3DFB42E66C
(1502932524.488496) vcan0 284#F9674526CB336C46
(1502932524.498614) vcan0 284#90052B4E85EB2B2D
(1502932524.508794) vcan0 284#C449C57DD8041F39
(1502932524.518992) vcan0 284#8317FA3E94FB1A36
(1502932524.529113) vcan0 284#CED18300E0339D46
(1502932524.539210) vcan0 284#DC6D9C0C420D6F3C
(1502932524.549402) vcan0 284#604BF13D3C7D203E
(1502932524.559525) vcan0 284#C1CC8D3A3AA96E1E
(1502932524.569626) vcan0 284#9D93AC7BCAEEC753
(1502932524.579807) vcan0 284#70A9FA56491C6064
(1502932524.589928) vcan0 284#4953B32138DFCD71
(1502932524.600026) vcan0 284#C9DB477A8E9AB000
(1502932524.610290) vcan0 284#D3ED3A4A1E244012
(1502932524.620465) vcan0 284#94B261022CD23C0A
(1502932524.630604) vcan0 284#36133E4E9714BD3F
(1502932524.640840) vcan0 284#27152377307B8374
(1502932524.651114) vcan0 284#62482906B81A4E45
(1502932524.661287) vcan0 284#B566AF212692EE03
(1502932524.671525) vcan0 284#901F6D7E387EA960
(1502932524.681808) vcan0 284#BB8D093A5FF1F07E
(1502932524.691973) vcan0 284#18B2462797FBA546
(1502932524.702214) vcan0 284#A1FE5F3B79FD3765
(1502932524.712483) vcan0 284#D378C60462CBED75
(1502932524.722681) vcan0 284#B3A6A603700C7300
(1502932524.733019) vcan0 284#2CBAB5492450A15A
(1502932524.743267) vcan0 284#B928D364760D696B
(1502932524.753505) vcan0 284#5C2F6F4C82041B5F
(1502932524.763754) vcan0 284#04A8196C301DAA16
(1502932524.774031) vcan0 284#A0285B71985A7B6E
(1502932524.784236) vcan0 284#5CEFE620D73B993F
(1502932524.794499) vcan0 284#2F6F382E83040A18
(1502932524.804802) vcan0 284#07B71C3491B76134
(1502932524.815066) vcan0 284#3B1F585DBC1DCC55
(1502932524.825416) vcan0 284#B8495038CC3EC55B
