(1502935217.285906) vcan0 284#E33389445E56BB2A
(1502935217.296567) vcan0 284#3DCBA05F57048108
(1502935217.306904) vcan0 284#6D6FEA370476FD26
(1502935217.317320) vcan0 284#4969E4614BD64F7D
(1502935217.327680) vcan0 284#F2E87A2A49990900
(1502935217.337958) vcan0 284#5608584B9E37E058
(1502935217.348298) vcan0 284#9FB1D42DE2A9E96A
(1502935217.358534) vcan0 284#E201483D3B7DEC26
(1502935217.368887) vcan0 284#ABF09807ACBB314B
(1502935217.379089) vcan0 284#4842B22831C4A277
(1502935217.389201) vcan0 284#A405FD52B8523E09
(1502935217.399489) vcan0 284#70234E57FAE04E27
(1502935217.409697) vcan0 284#12EB221E3E3B6D0F
(1502935217.419812) vcan0 284#7682C646B5F86F73
(1502935217.430152) vcan0 284#BDCDC745DF2AC77E
(1502935217.440347) vcan0 284#8FC8D358A001510A
(1502935217.450492) vcan0 284#3D818229CC937438
(1502935217.460831) vcan0 284#F805D212AAF06C61
(1502935217.471028) vcan0 284#D009725F416FB674
(1502935217.481139) vcan0 284#F5C6BC5EC2F2EC09
(1502935217.491425) vcan0 284#8A08C0744BCF142A
(1502935217.501612) vcan0 284#612ACD622ABA9422
(1502935217.511730) vcan0 284#2E79FE14432C1520
(1502935217.521969) vcan0 284#65378149D969971C
(1502935217.532155) vcan0 284#EFE7466BAD793372
(1502935217.542270) vcan0 284#0A2E3A1493ED433E
(1502935217.552527) vcan0 284#65CC717B7A51886B
(1502935217.562702) vcan0 284#8DCE926578B79419
(1502935217.572897) vcan0 284#B88CF57A0351592C
(1502935217.583212) vcan0 284#2DB0040D765ABD40
(1502935217.593383) vcan0 284#E27B202BBD78D865
(1502935217.603547) vcan0 284#165C0E4B1FFDA254
(1502935217.613889) vcan0 284#890C4D1E0E62E05D
(1502935217.624071) vcan0 284#CAED0F365A16BF7D
(1502935217.634227) vcan0 284#50D19652BFB4CC14
(1502935217.644539) vcan0 284#1C09AC07DAD95647
(1502935217.654722) vcan0 284#0B84E13E7D33796A
(1502935217.664835) vcan0 284#0494EB6939FDDF53
(1502935217.675202) vcan0 284#C05F8E0A69CB6C33
(1502935217.685404) vcan0 284#12677770AF47D575
(1502935217.695515) vcan0 284#1745A0251C95B104
(1502935217.705888) vcan0 284#423519347C111221
(1502935217.716081) vcan0 284#97E63970CF03AC19
(1502935217.726192) vcan0 284#F4C8A63A4F732F6B
(1502935217.736519) vcan0 284#D25405462279AB47
(1502935217.746701) vcan0 284#C5CDEC2BB4D02571
(1502935217.756850) vcan0 284#DFF1832DDC29FB76
(1502935217.767191) vcan0 284#D4CDC84568FED04B
(1502935217.777385) vcan0 284#EA8BDB549EBBD87B
(1502935217.787503) vcan0 284#C21490493A5D7227
(1502935217.797828) vcan0 284#5D70A510DF1D3C51
(1502935217.808035) vcan0 284#1537C96E68F4864F
(1502935217.818152) vcan0 284#5C51B53B19CBB458
(1502935217.828531) vcan0 284#A1F166231DB14346
(1502935217.838768) vcan0 284#8396210CB358DE13
(1502935217.848987) vcan0 284#CCF8183C9ADBC131
(1502935217.859353) vcan0 284#D0ED8F180F2E3270
(1502935217.869577) vcan0 284#16EDD35267D4C908
(1502935217.879700) vcan0 284#DE31DE090BB67A0D
(1502935217.889997) vcan0 284#B647F973B186E34F
(1502935217.900131) vcan0 284#2D2F26557C15E61F
(1502935217.910292) vcan0 284#655709410C21AA02
(1502935217.920619) vcan0 284#583FE1163925D206
(1502935217.930799) vcan0 284#741F7B4E42CBBC6B
(1502935217.940952) vcan0 284#D7E0AA0237340B18
(1502935217.951316) vcan0 284#7D282F1335515013
(1502935217.961526) vcan0 284#16524769925FF801
(1502935217.971690) vcan0 284#9D45D76272A3FC24
(1502935217.982044) vcan0 284#AB2AAD5A3F373E06
(1502935217.992226) vcan0 284#8F54406B2EC1CE66
(1502935218.002378) vcan0 284#F28F1C1A5C4D5927
(1502935218.012737) vcan0 284#C89C9018C27DAC32
(1502935218.023009) vcan0 284#6B7B8B17DF89646B
(1502935218.033189) vcan0 284#2952763B49AD6921
(1502935218.043509) vcan0 284#EA3FDF78E0996F2F
(1502935218.053803) vcan0 284#FA334D71176F054E
(1502935218.064053) vcan0 284#5CAF554F608B5632
(1502935218.074395) vcan0 284#2390AF50B4EE3666
(1502935218.084698) vcan0 284#99B0283997AF2A1F
(1502935218.094898) vcan0 284#F6B9F3517191D33B
(1502935218.105249) vcan0 284#CEE3353773E22265
(1502935218.115528) vcan0 284#A6E2234FE4357D20
(1502935218.125771) vcan0 284#05421B674328FB31
(1502935218.136053) vcan0 284#57D97945B16CC841
(1502935218.146337) vcan0 284#825F3938E62DBA30
(1502935218.156590) vcan0 284#DF2D972875EF5552
(1502935218.166965) vcan0 284#427B1358A8CA2741
(1502935218.177286) vcan0 284#376D0205ADF69E6F
(1502935218.187499) vcan0 284#87548C2C61BF7840
(1502935218.197876) vcan0 284#F7A3081171946B25
(1502935218.208188) vcan0 284#4159E86FF1D75502
(1502935218.218400) vcan0 284#880371739D083E3F
(1502935218.228763) vcan0 284#5163AC34AB932044
(1502935218.239055) vcan0 284#51F77425EB13D56D
(1502935218.249246) vcan0 284#42434B6347B16877
(1502935218.259599) vcan0 284#5CA5A8291127811A
(1502935218.269919) vcan0 284#BB938B5C0288CC78
(1502935218.280171) vcan0 284#F55CFE3AC0D5A643
(1502935218.290534) vcan0 284#45B0C72A4C367800
(1502935218.300857) vcan0 284#71426F05C80F0163
