(1502935110.586315) vcan0 284#C55A695CE9D2345E
(1502935110.596741) vcan0 284#184EC520B71C7C08
(1502935110.607093) vcan0 284#2DC59E266A3CBC3A
(1502935110.617332) vcan0 284#14AB636A5D58D93F
(1502935110.627442) vcan0 284#2C36A32C73DA3C76
(1502935110.637760) vcan0 284#F5CD0F25723A1041
(1502935110.648120) vcan0 284#8718EF1B519E756D
(1502935110.658406) vcan0 284#8AAF78427396A14D
(1502935110.668719) vcan0 284#60D0236139B45155
(1502935110.679219) vcan0 284#9A3B3B163F5E5F35
(1502935110.689682) vcan0 284#5D5CF7077ECAC76E
(1502935110.701038) vcan0 284#B34897339A232F3D
(1502935110.711688) vcan0 284#ED08EC6947624A0B
(1502935110.722194) vcan0 284#70696C488E652C6E
(1502935110.732695) vcan0 284#67612411D2F68601
(1502935110.742977) vcan0 284#FC9582192CBC8D6D
(1502935110.753125) vcan0 284#BCC9BB5F14E4473A
(1502935110.763479) vcan0 284#E3D80976E98E5A06
(1502935110.773729) vcan0 284#7E200475F7836D60
(1502935110.783892) vcan0 284#46E73346AA56A721
(1502935110.794282) vcan0 284#6B5EAA563BB5436B
(1502935110.804516) vcan0 284#1D91B762F2769972
(1502935110.814637) vcan0 284#8C53B958A7403025
(1502935110.824842) vcan0 284#650D3B40ED23DD39
(1502935110.835051) vcan0 284#E0F4817A00497656
(1502935110.845213) vcan0 284#2C823C6F3D517902
(1502935110.855614) vcan0 284#7E133E45E0CAD322
(1502935110.865873) vcan0 284#D774A83F6B1C2A2F
(1502935110.876055) vcan0 284#272D1E2E47DE1408
(1502935110.886414) vcan0 284#F981561D8E8E423F
(1502935110.896672) vcan0 284#1AD59B09F517D936
(1502935110.906842) vcan0 284#BA4AD02CD69E5769
(1502935110.917245) vcan0 284#09FC20719E23DA22
(1502935110.927496) vcan0 284#BF2DB26F881C2566
(1502935110.937626) vcan0 284#95A747030515E635
(1502935110.948018) vcan0 284#3273CC070006F259
(1502935110.958269) vcan0 284#41CA29214F04846A
(1502935110.968396) vcan0 284#F27C8B4CCD1DE379
(1502935110.978797) vcan0 284#F644B40F588AC60C
(1502935110.989033) vcan0 284#BA41C033D739360A
(1502935110.999155) vcan0 284#58D33C63E7C3FC22
(1502935111.009559) vcan0 284#148BAF0CD6E67A28
(1502935111.019770) vcan0 284#C78ED045ECFF574C
(1502935111.029892) vcan0 284#4203A557EEBBEE73
(1502935111.040300) vcan0 284#33DE6C543B85FB74
(1502935111.050541) vcan0 284#7D4A31334DB3085E
(1502935111.060663) vcan0 284#319DD42B37950160
(1502935111.071063) vcan0 284#235260473A99F51C
(1502935111.081299) vcan0 284#D5B8DB02E27F1237
(1502935111.091484) vcan0 284#C2B51A036B602306
(1502935111.101856) vcan0 284#E894F86CF528E70A
(1502935111.112104) vcan0 284#6B661560295F220E
(1502935111.122234) vcan0 284#442D6B755EE3A02C
(1502935111.132639) vcan0 284#F67C05083B721F05
(1502935111.142923) vcan0 284#B66D6739B1BEC53B
(1502935111.153042) vcan0 284#12AC550F0E41A41C
(1502935111.163401) vcan0 284#9882C25E2637051C
(1502935111.173646) vcan0 284#E4271F455F119324
(1502935111.183772) vcan0 284#12375D68262BC41C
(1502935111.193952) vcan0 284#4DCD81184615CA3C
(1502935111.204149) vcan0 284#62B0BF11CA17B34B
(1502935111.214278) vcan0 284#93C8D21A934D943D
(1502935111.224650) vcan0 284#02ADB42BB71A3362
(1502935111.234883) vcan0 284#CDE6895AD765902E
(1502935111.245044) vcan0 284#999A4519909CA45D
(1502935111.255446) vcan0 284#42C6B334812F3E06
(1502935111.265699) vcan0 284#85C58B68AE2CC914
(1502935111.275823) vcan0 284#AA8E6014C9F2F65D
(1502935111.286173) vcan0 284#0C106A41A10B661C
(1502935111.296407) vcan0 284#04651663C27DD17A
(1502935111.306623) vcan0 284#52CA2B5816116C72
(1502935111.316924) vcan0 284#D0BE7517EA4CEE36
(1502935111.327254) vcan0 284#3D48710EB4E6945C
(1502935111.337442) vcan0 284#495E815B4F7FCE76
(1502935111.347735) vcan0 284#DB115979962B0374
(1502935111.358061) vcan0 284#959498333DC2180B
(1502935111.368251) vcan0 284#6143B63F295D6B4E
(1502935111.378551) vcan0 284#D00FAD4863F06A6B
(1502935111.388837) vcan0 284#E0779E309DF63623
(1502935111.399108) vcan0 284#3A56FB197912E449
(1502935111.409439) vcan0 284#2D93DB007D1CAF4E
(1502935111.419739) vcan0 284#FB412250B2586769
(1502935111.429926) vcan0 284#2B497863A5D08264
(1502935111.440237) vcan0 284#7C4B5E473759E224
(1502935111.450564) vcan0 284#46DCE80080B0742A
(1502935111.460755) vcan0 284#F9D6B31F98A61459
(1502935111.471059) vcan0 284#97C1E01CC9952937
(1502935111.481379) vcan0 284#82F30210D409522B
(1502935111.491656) vcan0 284#7D7CBE13CB51846B
(1502935111.501980) vcan0 284#23892022588E170D
(1502935111.512311) vcan0 284#627D875FB91DB955
(1502935111.522505) vcan0 284#95503018C3C03D1F
(1502935111.532914) vcan0 284#E27A24246560DD60
(1502935111.543200) vcan0 284#26B1A80AC2F2C254
(1502935111.553458) vcan0 284#035714046007A424
(1502935111.563753) vcan0 284#3B05A71E30EAEF04
(1502935111.574062) vcan0 284#DD2353733647C96E
(1502935111.584261) vcan0 284#E342576E086DCB56
(1502935111.594593) vcan0 284#DC174C535F8EB535
(1502935111.605050) vcan0 284#3FC6AD7B22F43454
