(1502935114.408493) vcan0 284#18851670F0AF1F39
(1502935114.418939) vcan0 284#D2763B427F0F1E13
(1502935114.429236) vcan0 284#FA84AE26B2C8916F
(1502935114.439443) vcan0 284#E3C931521FE0C926
(1502935114.449900) vcan0 284#5E5EEB540A42AD5C
(1502935114.460225) vcan0 284#E0DC426E5DF4CC4C
(1502935114.470433) vcan0 284#1DEF744ED91D1065
(1502935114.480644) vcan0 284#2FF4287D8AD06E4F
(1502935114.490820) vcan0 284#034B6D2AB690C417
(1502935114.500972) vcan0 284#F0DA1B2A59C58646
(1502935114.511146) vcan0 284#3B0DD869BECD8429
(1502935114.521264) vcan0 284#D6EE833CAF0A9A21
(1502935114.531433) vcan0 284#E59B433648EE1932
(1502935114.541624) vcan0 284#DEF4FA1904C1E715
(1502935114.551742) vcan0 284#E9937E0DC6297410
(1502935114.561896) vcan0 284#FD086B300119957D
(1502935114.572081) vcan0 284#B6D99349CF7FA672
(1502935114.582498) vcan0 284#8028B310B05E4270
(1502935114.593026) vcan0 284#8148386264F2E462
(1502935114.603649) vcan0 284#D03E0C17E0A62337
(1502935114.614172) vcan0 284#6E34923FB01B4F05
(1502935114.627985) vcan0 284#3D9BF0038B23070E
(1502935114.638304) vcan0 284#89395F6A6C8F1901
(1502935114.648499) vcan0 284#16F4755D8D84CC14
(1502935114.658718) vcan0 284#2320DE1806CF9107
(1502935114.668920) vcan0 284#E649535B5E2DB602
(1502935114.679041) vcan0 284#C49C1631BD38D717
(1502935114.689238) vcan0 284#0D385024A9385A67
(1502935114.699455) vcan0 284#0527F149EB2C4B3E
(1502935114.709682) vcan0 284#ADF9417DEEBA6F57
(1502935114.719864) vcan0 284#B156BF4EAB02AD2D
(1502935114.730061) vcan0 284#F0D3045567305318
(1502935114.740178) vcan0 284#7A82532070FCB765
(1502935114.750365) vcan0 284#178F9508FCCA8B02
(1502935114.760572) vcan0 284#D4EE9C48E7CDA11F
(1502935114.770755) vcan0 284#DC71AF3943232F08
(1502935114.780955) vcan0 284#98E9F024190DA03D
(1502935114.791165) vcan0 284#CE4636162123500F
(1502935114.801288) vcan0 284#859CB93EE43AAC73
(1502935114.811479) vcan0 284#AEA71C24A8BC9757
(1502935114.821689) vcan0 284#EA093E7B95F16F7F
(1502935114.831854) vcan0 284#06EA4D5AAFA6542C
(1502935114.842195) vcan0 284#522A471713229E7E
(1502935114.852540) vcan0 284#58DFAE1357513861
(1502935114.862729) vcan0 284#FE4EE93C06D9F010
(1502935114.873147) vcan0 284#460CA838AFA5A80B
(1502935114.883638) vcan0 284#B1DB9D3E36E0AC0D
(1502935114.893895) vcan0 284#16D6FB232B5EF15E
(1502935114.904224) vcan0 284#A6DC64732E65912C
(1502935114.914490) vcan0 284#27297D617BCB013C
(1502935114.924666) vcan0 284#1533334C039B2C1B
(1502935114.934940) vcan0 284#BEEE3044AD1C2471
(1502935114.945226) vcan0 284#1CA8CC588C35675A
(1502935114.955404) vcan0 284#CF3F7400A2448617
(1502935114.965681) vcan0 284#7170134E7DE79024
(1502935114.975970) vcan0 284#4A011E6F5B7A5149
(1502935114.986129) vcan0 284#12D9002451EB6B49
(1502935114.996385) vcan0 284#0A21A6756403483B
(1502935115.006666) vcan0 284#640D0A4863005509
(1502935115.016906) vcan0 284#BC54801C635CF304
(1502935115.027253) vcan0 284#69D9451A02612855
(1502935115.037483) vcan0 284#12029C101AB5E358
(1502935115.047598) vcan0 284#3841D56229D89734
(1502935115.057969) vcan0 284#4513D537DE1D3A56
(1502935115.068182) vcan0 284#573D29616D3C5219
(1502935115.078401) vcan0 284#59E93B126C705C2D
(1502935115.088774) vcan0 284#70D77E3417D86C56
(1502935115.098993) vcan0 284#1A8D801E8D7F4B0D
(1502935115.109106) vcan0 284#A40DD430E9CCF41E
(1502935115.119451) vcan0 284#2FC4D124157EE77E
(1502935115.129652) vcan0 284#66B4854379C5EF13
(1502935115.139764) vcan0 284#70F83848798D8667
(1502935115.150209) vcan0 284#CAB05B5D7B19DF3D
(1502935115.160471) vcan0 284#DD90CE222FBE6525
(1502935115.170628) vcan0 284#DE19344799E54E3F
(1502935115.181019) vcan0 284#921A592A47F37961
(1502935115.191231) vcan0 284#9B467714A41CF53A
(1502935115.201345) vcan0 284#61A85D3AD3874C77
(1502935115.211704) vcan0 284#CDF48C6FA6BB3272
(1502935115.221912) vcan0 284#B2A5864D2432B650
(1502935115.232129) vcan0 284#13F8840B0B8FC25F
(1502935115.242578) vcan0 284#91A2127E84CF0340
(1502935115.252969) vcan0 284#23672F36AB2F931C
(1502935115.263140) vcan0 284#114F4F4DC7740367
(1502935115.273569) vcan0 284#94FC873B40132172
(1502935115.283971) vcan0 284#DCF2EA65FAB00D7F
(1502935115.294150) vcan0 284#B9D810064CEB232E
(1502935115.304597) vcan0 284#733E946684896C63
(1502935115.315258) vcan0 284#C704036C51CF6209
(1502935115.325447) vcan0 284#B347D208A51E3733
(1502935115.335808) vcan0 284#EAB4B14845622B33
(1502935115.346145) vcan0 284#EC11B11486FB285D
(1502935115.356307) vcan0 284#E97E206E4DBA0E4F
(1502935115.367661) vcan0 284#59837554B773AD5D
(1502935115.377872) vcan0 284#F47541410B29FC21
(1502935115.388021) vcan0 284#DBA5632E076EC64C
(1502935115.398272) vcan0 284#17B8BE016C48762C
(1502935115.408464) vcan0 284#8B3DCA0C3A1FEE37
(1502935115.418671) vcan0 284#177809499C8C195A
(1502935115.429259) vcan0 284#0194F11EAB749104
