(1502935104.670647) vcan0 284#2DB49F43F5B3BB06
(1502935104.681048) vcan0 284#F63012580E9C1839
(1502935104.691359) vcan0 284#FF80CF129D94A813
(1502935104.701699) vcan0 284#EA18571448533C38
(1502935104.711987) vcan0 284#31143657A8503146
(1502935104.722187) vcan0 284#1723B30D97EE000A
(1502935104.732667) vcan0 284#03F41957E5876D6A
(1502935104.743125) vcan0 284#0E114621A4F2F222
(1502935104.753467) vcan0 284#133E0F49D114F609
(1502935104.763937) vcan0 284#10262C6767175E28
(1502935104.774432) vcan0 284#5FBA9E24A3F27F00
(1502935104.788244) vcan0 284#C7272F0D333A1E25
(1502935104.799144) vcan0 284#F7FB8E694487306E
(1502935104.809803) vcan0 284#10E48E57F2A00B60
(1502935104.820262) vcan0 284#AF990A649FBE963F
(1502935104.830616) vcan0 284#24E2EB7ADC4DAA27
(1502935104.840830) vcan0 284#947252461A13FE52
(1502935104.851257) vcan0 284#EAE9C26093F32159
(1502935104.861471) vcan0 284#B8A7A666D4021A75
(1502935104.871628) vcan0 284#DB465E11E9BBDC3D
(1502935104.881963) vcan0 284#7D534B3BF269111F
(1502935104.892165) vcan0 284#80AADD4780476512
(1502935104.902290) vcan0 284#D7F17E098EBB2369
(1502935104.912631) vcan0 284#243A5835EA2F8E52
(1502935104.922876) vcan0 284#5FD019733460841C
(1502935104.932995) vcan0 284#5147EC7ABE8AB817
(1502935104.943316) vcan0 284#D752041D186F1B08
(1502935104.953532) vcan0 284#F2C4D63CCE4E9306
(1502935104.963686) vcan0 284#5CF64B7602A96514
(1502935104.974038) vcan0 284#C0EF9E660B90565A
(1502935104.984262) vcan0 284#A167FC53E5D18A61
(1502935104.994384) vcan0 284#E7DD000235DA4E1A
(1502935105.004711) vcan0 284#FFE48834D2C7C362
(1502935105.014926) vcan0 284#C8CD7073B78C2F1B
(1502935105.025051) vcan0 284#A6CADD57A314CF04
(1502935105.035498) vcan0 284#A0480C59231E2913
(1502935105.045701) vcan0 284#957EE02320F3E920
(1502935105.055888) vcan0 284#A4658E256C705F2D
(1502935105.066236) vcan0 284#AEAE0D0AC89FE65A
(1502935105.076456) vcan0 284#57A0ED7F0D7F277D
(1502935105.086579) vcan0 284#FDFF6A77A8E7D97A
(1502935105.096903) vcan0 284#CC09E014D4526F14
(1502935105.107125) vcan0 284#C156F502BECEB651
(1502935105.117244) vcan0 284#A3A1021B1D4D4179
(1502935105.127572) vcan0 284#C0771C666391A101
(1502935105.137773) vcan0 284#29DD975361DF183A
(1502935105.147889) vcan0 284#48632C6310BB9855
(1502935105.158379) vcan0 284#96B967544848B517
(1502935105.168576) vcan0 284#E2825C385E87D847
(1502935105.178696) vcan0 284#FFD4E432894D3A10
(1502935105.189024) vcan0 284#019CA74CA01DF10B
(1502935105.199230) vcan0 284#AC6B6323961A8870
(1502935105.209392) vcan0 284#C010DB2C50D1F148
(1502935105.219698) vcan0 284#028BE71D6FBFE836
(1502935105.229897) vcan0 284#1971D823592BD51D
(1502935105.240021) vcan0 284#7C3E10341671431B
(1502935105.250328) vcan0 284#0213AF184848F048
(1502935105.260541) vcan0 284#EAC3B22FC369A41B
(1502935105.270662) vcan0 284#0617A71A8D65B54A
(1502935105.280988) vcan0 284#E0B6E514C68EC300
(1502935105.291204) vcan0 284#F1F6564C09947D68
(1502935105.301331) vcan0 284#276EDC3A395A832F
(1502935105.311670) vcan0 284#1A4F163EBD27440F
(1502935105.321882) vcan0 284#81A23847FCD17276
(1502935105.332008) vcan0 284#1BAF1C5781771D7A
(1502935105.342435) vcan0 284#851FAD061C4BC423
(1502935105.352658) vcan0 284#21950E06328B102A
(1502935105.362882) vcan0 284#B2654C14E1A5E932
(1502935105.373220) vcan0 284#825C0273B5F03332
(1502935105.383436) vcan0 284#5065D2699BCDDA16
(1502935105.393562) vcan0 284#0E1C0950CDA3E21D
(1502935105.403892) vcan0 284#B13E1E32102FB868
(1502935105.414118) vcan0 284#15ECD2669C02D161
(1502935105.424242) vcan0 284#D3985C041C037A01
(1502935105.434574) vcan0 284#2968862CB44F4219
(1502935105.444778) vcan0 284#E2913D021A5FDD78
(1502935105.455016) vcan0 284#BDE3BF010A001A3D
(1502935105.465352) vcan0 284#54B96028D732D63F
(1502935105.475687) vcan0 284#C7275E4CD55B996F
(1502935105.485931) vcan0 284#D4044936E3D67A23
(1502935105.496318) vcan0 284#56D3B6695924F63C
(1502935105.506605) vcan0 284#FF213F477768C56F
(1502935105.516820) vcan0 284#8BAF0667B2878B5B
(1502935105.527147) vcan0 284#590EAF220E0C095A
(1502935105.537462) vcan0 284#6778BF0DA973810C
(1502935105.547643) vcan0 284#A9D9E3707594C85D
(1502935105.558052) vcan0 284#7617642A5B180223
(1502935105.568416) vcan0 284#86C380468C033711
(1502935105.578635) vcan0 284#F71AD304595CDD4A
(1502935105.588946) vcan0 284#A806B11220835931
(1502935105.599217) vcan0 284#0DAC1F648A98EE14
(1502935105.609445) vcan0 284#3BE2362ACB8FDF65
(1502935105.619738) vcan0 284#949808528F9B9752
(1502935105.630021) vcan0 284#A2C2B5255CC0661E
(1502935105.640209) vcan0 284#64F7304276C7FE5B
(1502935105.650536) vcan0 284#3F97E141BBCAE72B
(1502935105.660828) vcan0 284#D0EBF4183EB92009
(1502935105.671006) vcan0 284#3233AD1B5B9BFB7F
(1502935105.681315) vcan0 284#F040AC648B415C3E
(1502935105.691618) vcan0 284#69A7045A57B96B72
