(1502932437.620821) vcan0 284#23E4653A3E916F17
(1502932437.721075) vcan0 284#4E704070606FB509
(1502932437.821325) vcan0 284#55466F2166660947
(1502932437.921588) vcan0 284#71E9AE1DA9FDAE4F
(1502932438.021845) vcan0 284#79A50603520DDC3E
(1502932438.122108) vcan0 284#56A0AF180F636048
(1502932438.222372) vcan0 284#4E3294156BFAED4E
(1502932438.322630) vcan0 284#FC857522DC546F7C
(1502932438.422945) vcan0 284#9F4E051C36E0E45E
(1502932438.523206) vcan0 284#DBAD4357CB9FFF27
(1502932438.623474) vcan0 284#AED88A72377EAF4F
(1502932438.723738) vcan0 284#969BC8782041665F
(1502932438.824007) vcan0 284#88E0A26BBAD41A07
(1502932438.924280) vcan0 284#AB01AC17468CA555
(1502932439.024546) vcan0 284#CC29532E29F3804D
(1502932439.124825) vcan0 284#ABFF9620EF0DB968
(1502932439.225093) vcan0 284#6784F064F96FD710
(1502932439.325372) vcan0 284#4F7D6E72BDCA5F06
(1502932439.425638) vcan0 284#5FD6E057C0661D10
(1502932439.525893) vcan0 284#66C80E56D87BE75A
(1502932439.626159) vcan0 284#1374F94EBD68BE6E
(1502932439.726427) vcan0 284#E7DE472361A68D64
(1502932439.826694) vcan0 284#2863AC3DE464BD45
(1502932439.926961) vcan0 284#3DFBFC60C7B1B159
(1502932440.027228) vcan0 284#1A45A22418A94038
(1502932440.127494) vcan0 284#9251B101C81D2D17
(1502932440.227767) vcan0 284#5027F00728ED797A
(1502932440.328034) vcan0 284#E85E9376D8079373
(1502932440.428301) vcan0 284#E3C1940193603F0E
(1502932440.528570) vcan0 284#1E943849AFEBE72F
(1502932440.628838) vcan0 284#BD53C05BCA93CF69
(1502932440.729103) vcan0 284#9EF9A01824D8B040
(1502932440.829370) vcan0 284#C303A77AEE760F0B
(1502932440.929637) vcan0 284#E1A2104723DA8752
(1502932441.029903) vcan0 284#AEDD2C1B486B1F1D
(1502932441.130172) vcan0 284#FB556F2DC151266A
(1502932441.230445) vcan0 284#05D4DD0BE334B750
(1502932441.330716) vcan0 284#22F8B34E2D378A49
(1502932441.430991) vcan0 284#C79974165FF3B02F
(1502932441.531260) vcan0 284#F5E83B23E1DE163B
(1502932441.631529) vcan0 284#789CF167873AED24
(1502932441.731792) vcan0 284#A9FC4352C8C3E16F
(1502932441.832063) vcan0 284#B027671F925BD748
(1502932441.932335) vcan0 284#A0CB746393E9FB20
(1502932442.032601) vcan0 284#25BC1657BF5FAD2C
(1502932442.132912) vcan0 284#42D5E350E20FD732
(1502932442.233183) vcan0 284#89F37C16E0CE8469
(1502932442.333462) vcan0 284#07E887734CF72311
(1502932442.433728) vcan0 284#CE459474E88A983A
(1502932442.533997) vcan0 284#6FD1AB637D23C10F
(1502932442.634274) vcan0 284#30F6B7576B271B11
(1502932442.734543) vcan0 284#3E75E77935CA9563
(1502932442.834827) vcan0 284#4E5CD261616D9B48
(1502932442.935094) vcan0 284#6301202D15F64678
(1502932443.035366) vcan0 284#C0604C7858EA5B50
(1502932443.135635) vcan0 284#F6D45D3338FD3D60
(1502932443.235918) vcan0 284#DF2449759FD1A105
(1502932443.336195) vcan0 284#00C11F508F4CB014
(1502932443.436460) vcan0 284#312D794EA18C9433
(1502932443.536730) vcan0 284#2236AC3557E98F25
(1502932443.637016) vcan0 284#60EC4160640B9006
(1502932443.737288) vcan0 284#39F96658E9DFBE76
(1502932443.837556) vcan0 284#45DA147040E1EE4B
(1502932443.937799) vcan0 284#35D7E2071320A964
(1502932444.038045) vcan0 284#296C8706A5A88E6B
(1502932444.138311) vcan0 284#90436A7459623F5E
(1502932444.238581) vcan0 284#10D0A97CCFB8516E
(1502932444.338855) vcan0 284#8F2CD5415E2C7C5E
(1502932444.439122) vcan0 284#3026ED36F22DF56E
(1502932444.539391) vcan0 284#7322C356F086392F
(1502932444.639657) vcan0 284#4A18513F69F7200A
(1502932444.739925) vcan0 284#2984770F293D9A34
(1502932444.840192) vcan0 284#08C9C20F2945975F
(1502932444.940468) vcan0 284#B9894A493AF63B5E
(1502932445.040738) vcan0 284#CAD12B13DBBFF67E
(1502932445.141007) vcan0 284#91DFCB032ABE6D73
(1502932445.241281) vcan0 284#40CB8605CAD8325C
(1502932445.341554) vcan0 284#139E2C6A85A59B75
(1502932445.441830) vcan0 284#0BBA212849750F72
(1502932445.542097) vcan0 284#98C5445A3426A92E
(1502932445.642373) vcan0 284#EE1D9E5D2909AF4E
(1502932445.742642) vcan0 284#8D88E80CFEED475A
(1502932445.842982) vcan0 284#F8C1003D1CB5BD4E
(1502932445.943267) vcan0 284#5C1AC43828E8ED73
(1502932446.043551) vcan0 284#0EE3B23DCF3C870F
(1502932446.143840) vcan0 284#186F272358FB037D
(1502932446.244134) vcan0 284#3834A81941F39E32
(1502932446.344406) vcan0 284#82389E3140FD6A29
(1502932446.444695) vcan0 284#6B3836123BC2E87A
(1502932446.544967) vcan0 284#7AF3A607350A6225
(1502932446.645232) vcan0 284#1682DF790BD3720B
(1502932446.745506) vcan0 284#60C8CF18564D667F
(1502932446.845781) vcan0 284#D6ABA5677366FC02
(1502932446.946055) vcan0 284#DBF20175E165C70F
(1502932447.046327) vcan0 284#BCDB0B7574B8464F
(1502932447.146602) vcan0 284#158C703EAAF9A952
(1502932447.246877) vcan0 284#9DC1F51DA214594B
(1502932447.347151) vcan0 284#A8E7F12C9583F65A
(1502932447.447445) vcan0 284#BFC9161A0402B665
(1502932447.547728) vcan0 284#BD6BE44ECDACC957
