(1503358566.729915) can0 1DB#FD40C06B49000328
(1503358566.731724) can0 284#048D0545025A35F2
(1503358566.739468) can0 1DB#FD40C06B49000022
(1503358566.749503) can0 1DB#FD40C06B490001A7
(1503358566.751705) can0 284#04A3054E02613619
(1503358566.759434) can0 1DB#FD40C06B490002AD
(1503358566.769449) can0 1DB#FD40C06B49000328
(1503358566.771703) can0 284#04A8056002673737
(1503358566.779621) can0 1DB#FD40C06B49000022
(1503358566.789748) can0 1DB#FD40C06A490001B1
(1503358566.791671) can0 284#04B20562026A3847
(1503358566.799478) can0 1DB#FD40C06A490002BB
(1503358566.809931) can0 1DB#FD40C06A4900033E
(1503358566.811679) can0 284#04BC05770271396E
(1503358566.819570) can0 1DB#FD40C06A49000034
(1503358566.821415) can0 5A9#87208011C4203E00
(1503358566.829462) can0 1DB#FD40C06A490001B1
(1503358566.831713) can0 284#04C4057E02743A81
(1503358566.839445) can0 1DB#FD40C06A490002BB
(1503358566.849489) can0 1DB#FD40C06A4900033E
(1503358566.851718) can0 284#04D3058F027C3BAA
(1503358566.859444) can0 1DB#FD40C06A49000034
(1503358566.869472) can0 1DB#FD40C06A490001B1
(1503358566.871701) can0 284#04D8059902803CBE
(1503358566.879486) can0 1DB#FD40C06A490002BB
(1503358566.889930) can0 1DB#FD40C06A4900033E
(1503358566.891726) can0 284#04DE05B202873DE5
(1503358566.899504) can0 1DB#FD40C06A49000034
(1503358566.909477) can0 1DB#FD40C06A490001B1
(1503358566.911723) can0 284#04F205BA028E3E09
(1503358566.919562) can0 1DB#FD40C06A490002BB
(1503358566.921417) can0 5A9#87208011C4203E00
(1503358566.929488) can0 1DB#FD40C06A4900033E
(1503358566.931723) can0 284#04FF05C202933F24
(1503358566.939514) can0 1DB#FD20C06A490000C7
(1503358566.949511) can0 1DB#FD20C06A49000142
(1503358566.951713) can0 284#050805CA0297403B
(1503358566.959460) can0 1DB#FD20C06A49000248
(1503358566.969936) can0 1DB#FD20C06A490003CD
(1503358566.971712) can0 284#050505DD029B4150
(1503358566.979582) can0 1DB#FD20C06A490000C7
(1503358566.989731) can0 1DB#FD20C06A49000142
(1503358566.991717) can0 284#051505E702A14271
(1503358566.999501) can0 1DB#FD20C06A49000248
(1503358567.009464) can0 1DB#FD20C06A490003CD
(1503358567.011357) can0 284#051D05F202A6438A
(1503358567.019551) can0 1DB#FD20C06A490000C7
(1503358567.021393) can0 5A9#87208011C4204000
(1503358567.029470) can0 1DB#FD20C06A49000142
(1503358567.031464) can0 284#053405FC02AE44B4
(1503358567.039451) can0 1DB#FD20C06A49000248
(1503358567.049973) can0 1DB#FD20C06A490003CD
(1503358567.051465) can0 284#053E060502B245CD
(1503358567.059451) can0 1DB#FD20C06A490000C7
(1503358567.069499) can0 1DB#FD20C06A49000142
(1503358567.071698) can0 284#0546061002B646E5
(1503358567.079714) can0 1DB#FD20C06A49000248
(1503358567.089962) can0 1DB#FD20C06A490003CD
(1503358567.091703) can0 284#0550061502BA47F9
(1503358567.099757) can0 1DB#FD20C06A490000C7
(1503358567.109516) can0 1DB#FD20C06A49000142
(1503358567.111695) can0 284#0559062802C1481D
(1503358567.119579) can0 1DB#FD00C06A49000219
(1503358567.121446) can0 5A9#87208011C4204200
(1503358567.129954) can0 1DB#FD00C06A4900039C
(1503358567.131680) can0 284#0567062D02C54935
(1503358567.139477) can0 1DB#FD00C06A49000096
(1503358567.149531) can0 1DB#FD00C06A49000113
(1503358567.151674) can0 284#0569063E02CA4A4E
(1503358567.159479) can0 1DB#FD00C06A49000219
(1503358567.169506) can0 1DB#FD00C06A4900039C
(1503358567.171722) can0 284#0574064602CF4B67
(1503358567.179504) can0 1DB#FD00C06A49000096
(1503358567.189740) can0 1DB#FD00C06A49000113
(1503358567.191727) can0 284#0583064B02D44C81
(1503358567.199524) can0 1DB#FD00C06A49000219
(1503358567.209963) can0 1DB#FD00C06A4900039C
(1503358567.211612) can0 284#058E065D02DA4DA5
(1503358567.219587) can0 1DB#FD00C06A49000096
(1503358567.221457) can0 5A9#87208011C4204400
(1503358567.229512) can0 1DB#FD00C06A49000113
(1503358567.231692) can0 284#0591066402DD4EB3
(1503358567.239487) can0 1DB#FD00C06A49000219
(1503358567.249530) can0 1DB#FD00C06A4900039C
(1503358567.251693) can0 284#05A4066C02E34FD5
(1503358567.259483) can0 1DB#FD00C06A49000096
(1503358567.269471) can0 1DB#FD00C06A49000113
(1503358567.271670) can0 284#05B0067102E750EB
(1503358567.279473) can0 1DB#FD00C06A49000219
(1503358567.289942) can0 1DB#FD00C06A4900039C
(1503358567.291688) can0 284#05B6067B02EB5100
(1503358567.299495) can0 1DB#FD00C06A49000096
(1503358567.309480) can0 1DB#FD00C06A49000113
(1503358567.311654) can0 284#05C1068D02F25225
(1503358567.319316) can0 1DB#FD00C06A49000219
(1503358567.321419) can0 5A9#87208011C4204400
(1503358567.329477) can0 1DB#FD00C06A4900039C
(1503358567.331668) can0 284#05C3069C02F6533B
(1503358567.339460) can0 1DB#FCE0C06A490000A3
(1503358567.349523) can0 1DB#FCE0C06A49000126
